Time Stamp,ID,Extended,Dir,Bus,LEN,D1,D2,D3,D4,D5,D6,D7,D8
16217241,00000011,false,Rx,0,8,F6,18,00,00,6B,00,00,00,
16218764,00000012,false,Rx,0,8,F8,D6,07,00,72,06,00,00,
16220442,00000013,false,Rx,0,8,C1,A2,04,00,E9,B0,00,00,
16221717,00000014,false,Rx,0,4,5D,07,19,01,00,00,00,00,
16273779,00000011,false,Rx,0,8,FA,18,00,00,6B,00,00,00,
16275360,00000012,false,Rx,0,8,38,D8,07,00,72,06,00,00,
16276931,00000013,false,Rx,0,8,62,A3,04,00,E9,B0,00,00,
16278223,00000014,false,Rx,0,4,5E,07,19,01,00,00,00,00,
16330252,00000011,false,Rx,0,8,FA,18,00,00,A6,00,00,00,
16331844,00000012,false,Rx,0,8,38,D8,07,00,09,0A,00,00,
16333392,00000013,false,Rx,0,8,62,A3,04,00,8A,B1,00,00,
16334719,00000014,false,Rx,0,4,5E,07,1A,01,00,00,00,00,
16386769,00000011,false,Rx,0,8,FA,18,00,00,6B,00,00,00,
16388390,00000012,false,Rx,0,8,38,D8,07,00,72,06,00,00,
16389947,00000013,false,Rx,0,8,62,A3,04,00,E9,B0,00,00,
16391220,00000014,false,Rx,0,4,5E,07,19,01,00,00,00,00,
16443269,00000011,false,Rx,0,8,F2,18,00,00,6B,00,00,00,
16444818,00000012,false,Rx,0,8,B8,D5,07,00,72,06,00,00,
16446447,00000013,false,Rx,0,8,20,A2,04,00,E9,B0,00,00,
16447720,00000014,false,Rx,0,4,5C,07,19,01,00,00,00,00,
16499727,00000011,false,Rx,0,8,F6,18,00,00,6B,00,00,00,
16501346,00000012,false,Rx,0,8,F8,D6,07,00,72,06,00,00,
16502887,00000013,false,Rx,0,8,C1,A2,04,00,E9,B0,00,00,
16504296,00000014,false,Rx,0,4,5D,07,19,01,00,00,00,00,
16556242,00000011,false,Rx,0,8,F6,18,00,00,6B,00,00,00,
16557850,00000012,false,Rx,0,8,F8,D6,07,00,72,06,00,00,
16559424,00000013,false,Rx,0,8,C1,A2,04,00,E9,B0,00,00,
16560708,00000014,false,Rx,0,4,5D,07,19,01,00,00,00,00,
16612690,00000011,false,Rx,0,8,F6,18,00,00,A6,00,00,00,
16614343,00000012,false,Rx,0,8,F8,D6,07,00,09,0A,00,00,
16615913,00000013,false,Rx,0,8,C1,A2,04,00,8A,B1,00,00,
16617212,00000014,false,Rx,0,4,5D,07,1A,01,00,00,00,00,
16669232,00000011,false,Rx,0,8,FA,18,00,00,6B,00,00,00,
16670839,00000012,false,Rx,0,8,38,D8,07,00,72,06,00,00,
16672415,00000013,false,Rx,0,8,62,A3,04,00,E9,B0,00,00,
16673732,00000014,false,Rx,0,4,5E,07,19,01,00,00,00,00,
16725749,00000011,false,Rx,0,8,FA,18,00,00,6B,00,00,00,
16727309,00000012,false,Rx,0,8,38,D8,07,00,72,06,00,00,
16728932,00000013,false,Rx,0,8,62,A3,04,00,E9,B0,00,00,
16730181,00000014,false,Rx,0,4,5E,07,19,01,00,00,00,00,
16782184,00000011,false,Rx,0,8,F6,18,00,00,6B,00,00,00,
16783776,00000012,false,Rx,0,8,F8,D6,07,00,72,06,00,00,
16785348,00000013,false,Rx,0,8,C1,A2,04,00,E9,B0,00,00,
16786648,00000014,false,Rx,0,4,5D,07,19,01,00,00,00,00,
16838703,00000011,false,Rx,0,8,F6,18,00,00,6B,00,00,00,
16840443,00000012,false,Rx,0,8,F8,D6,07,00,72,06,00,00,
16841850,00000013,false,Rx,0,8,C1,A2,04,00,E9,B0,00,00,
16843156,00000014,false,Rx,0,4,5D,07,19,01,00,00,00,00,
16895175,00000011,false,Rx,0,8,F6,18,00,00,A6,00,00,00,
16896794,00000012,false,Rx,0,8,F8,D6,07,00,09,0A,00,00,
16898318,00000013,false,Rx,0,8,C1,A2,04,00,8A,B1,00,00,
16899649,00000014,false,Rx,0,4,5D,07,1A,01,00,00,00,00,
16951682,00000011,false,Rx,0,8,FA,18,00,00,6B,00,00,00,
16953296,00000012,false,Rx,0,8,38,D8,07,00,72,06,00,00,
16955096,00000013,false,Rx,0,8,62,A3,04,00,E9,B0,00,00,
16956397,00000014,false,Rx,0,4,5E,07,19,01,00,00,00,00,
17008215,00000011,false,Rx,0,8,F6,18,00,00,6B,00,00,00,
17009789,00000012,false,Rx,0,8,F8,D6,07,00,72,06,00,00,
17011355,00000013,false,Rx,0,8,C1,A2,04,00,E9,B0,00,00,
17012653,00000014,false,Rx,0,4,5D,07,19,01,00,00,00,00,
17064656,00000011,false,Rx,0,8,FA,18,00,00,6B,00,00,00,
17066251,00000012,false,Rx,0,8,38,D8,07,00,72,06,00,00,
17067826,00000013,false,Rx,0,8,62,A3,04,00,E9,B0,00,00,
17069285,00000014,false,Rx,0,4,5E,07,19,01,00,00,00,00,
17121153,00000011,false,Rx,0,8,F6,18,00,00,6B,00,00,00,
17122878,00000012,false,Rx,0,8,F8,D6,07,00,72,06,00,00,
17124495,00000013,false,Rx,0,8,C1,A2,04,00,E9,B0,00,00,
17125618,00000014,false,Rx,0,4,5D,07,19,01,00,00,00,00,
17177615,00000011,false,Rx,0,8,EE,18,00,00,6B,00,00,00,
17179265,00000012,false,Rx,0,8,78,D4,07,00,72,06,00,00,
17180822,00000013,false,Rx,0,8,7F,A1,04,00,E9,B0,00,00,
17182119,00000014,false,Rx,0,4,5B,07,19,01,00,00,00,00,
17234157,00000011,false,Rx,0,8,5B,12,00,00,F7,4B,00,00,
17235731,00000012,false,Rx,0,8,CB,C3,05,00,E8,91,04,00,
17237305,00000013,false,Rx,0,8,2F,97,03,00,E5,7C,01,00,
17238874,00000014,false,Rx,0,4,B4,05,5D,02,00,00,00,00,
17290768,00000011,false,Rx,0,8,B6,18,00,00,5B,8F,00,00,
17292280,00000012,false,Rx,0,8,F9,C2,07,00,B0,9F,08,00,
17293839,00000013,false,Rx,0,8,AE,98,04,00,D7,32,02,00,
17295108,00000014,false,Rx,0,4,4D,07,7E,03,00,00,00,00,
17347182,00000011,false,Rx,0,8,ED,19,00,00,05,94,00,00,
17348798,00000012,false,Rx,0,8,76,24,08,00,81,E7,08,00,
17350357,00000013,false,Rx,0,8,CA,C9,04,00,6F,3F,02,00,
17351632,00000014,false,Rx,0,4,9B,07,92,03,00,00,00,00,
17403710,00000011,false,Rx,0,8,D5,19,00,00,DA,92,00,00,
17405561,00000012,false,Rx,0,8,F6,1C,08,00,8D,D5,08,00,
17407134,00000013,false,Rx,0,8,03,C6,04,00,49,3C,02,00,
17408161,00000014,false,Rx,0,4,95,07,8D,03,00,00,00,00,
17460192,00000011,false,Rx,0,8,C1,19,00,00,27,92,00,00,
17461834,00000012,false,Rx,0,8,B6,16,08,00,C7,CA,08,00,
17463384,00000013,false,Rx,0,8,DD,C2,04,00,65,3A,02,00,
17464687,00000014,false,Rx,0,4,90,07,8A,03,00,00,00,00,
17516711,00000011,false,Rx,0,8,A5,19,00,00,74,91,00,00,
17518358,00000012,false,Rx,0,8,F6,0D,08,00,01,C0,08,00,
17519919,00000013,false,Rx,0,8,75,BE,04,00,82,38,02,00,
17521257,00000014,false,Rx,0,4,89,07,87,03,00,00,00,00,
17573288,00000011,false,Rx,0,8,99,19,00,00,38,91,00,00,
17574889,00000012,false,Rx,0,8,37,0A,08,00,6A,BC,08,00,
17576462,00000013,false,Rx,0,8,91,BC,04,00,E1,37,02,00,
17577735,00000014,false,Rx,0,4,86,07,86,03,00,00,00,00,
17629768,00000011,false,Rx,0,8,95,19,00,00,FD,90,00,00,
17631386,00000012,false,Rx,0,8,F7,08,08,00,D3,B8,08,00,
17632934,00000013,false,Rx,0,8,F0,BB,04,00,40,37,02,00,
17634207,00000014,false,Rx,0,4,85,07,85,03,00,00,00,00,
17686518,00000011,false,Rx,0,8,91,19,00,00,C1,90,00,00,
17687870,00000012,false,Rx,0,8,B7,07,08,00,3B,B5,08,00,
17689441,00000013,false,Rx,0,8,4F,BB,04,00,9E,36,02,00,
17690735,00000014,false,Rx,0,4,84,07,84,03,00,00,00,00,
17742728,00000011,false,Rx,0,8,89,19,00,00,49,90,00,00,
17744366,00000012,false,Rx,0,8,37,05,08,00,0D,AE,08,00,
17745938,00000013,false,Rx,0,8,0C,BA,04,00,5C,35,02,00,
17747237,00000014,false,Rx,0,4,82,07,82,03,00,00,00,00,
17799211,00000011,false,Rx,0,8,8D,19,00,00,49,90,00,00,
17800864,00000012,false,Rx,0,8,77,06,08,00,0D,AE,08,00,
17802588,00000013,false,Rx,0,8,AE,BA,04,00,5C,35,02,00,
17803734,00000014,false,Rx,0,4,83,07,82,03,00,00,00,00,
17855784,00000011,false,Rx,0,8,89,19,00,00,D2,8F,00,00,
17857614,00000012,false,Rx,0,8,37,05,08,00,DE,A6,08,00,
17858893,00000013,false,Rx,0,8,0C,BA,04,00,1A,34,02,00,
17860243,00000014,false,Rx,0,4,82,07,80,03,00,00,00,00,
17912228,00000011,false,Rx,0,8,89,19,00,00,D2,8F,00,00,
17913838,00000012,false,Rx,0,8,37,05,08,00,DE,A6,08,00,
17915412,00000013,false,Rx,0,8,0C,BA,04,00,1A,34,02,00,
17916712,00000014,false,Rx,0,4,82,07,80,03,00,00,00,00,
17968719,00000011,false,Rx,0,8,85,19,00,00,5B,8F,00,00,
17970347,00000012,false,Rx,0,8,F7,03,08,00,B0,9F,08,00,
17971889,00000013,false,Rx,0,8,6B,B9,04,00,D7,32,02,00,
17973189,00000014,false,Rx,0,4,81,07,7E,03,00,00,00,00,
18025228,00000011,false,Rx,0,8,85,19,00,00,5B,8F,00,00,
18026821,00000012,false,Rx,0,8,F7,03,08,00,B0,9F,08,00,
18028393,00000013,false,Rx,0,8,6B,B9,04,00,D7,32,02,00,
18029685,00000014,false,Rx,0,4,81,07,7E,03,00,00,00,00,
18081693,00000011,false,Rx,0,8,89,19,00,00,5B,8F,00,00,
18083315,00000012,false,Rx,0,8,37,05,08,00,B0,9F,08,00,
18084888,00000013,false,Rx,0,8,0C,BA,04,00,D7,32,02,00,
18086444,00000014,false,Rx,0,4,82,07,7E,03,00,00,00,00,
18138221,00000011,false,Rx,0,8,8D,19,00,00,1F,8F,00,00,
18139928,00000012,false,Rx,0,8,77,06,08,00,18,9C,08,00,
18141397,00000013,false,Rx,0,8,AE,BA,04,00,36,32,02,00,
18142705,00000014,false,Rx,0,4,83,07,7D,03,00,00,00,00,
18194647,00000011,false,Rx,0,8,8D,19,00,00,1F,8F,00,00,
18196292,00000012,false,Rx,0,8,77,06,08,00,18,9C,08,00,
18197865,00000013,false,Rx,0,8,AE,BA,04,00,36,32,02,00,
18199135,00000014,false,Rx,0,4,83,07,7D,03,00,00,00,00,
18251350,00000011,false,Rx,0,8,91,19,00,00,1F,8F,00,00,
18253017,00000012,false,Rx,0,8,B7,07,08,00,18,9C,08,00,
18254595,00000013,false,Rx,0,8,4F,BB,04,00,36,32,02,00,
18255688,00000014,false,Rx,0,4,84,07,7D,03,00,00,00,00,
18307692,00000011,false,Rx,0,8,91,19,00,00,A8,8E,00,00,
18309278,00000012,false,Rx,0,8,B7,07,08,00,EA,94,08,00,
18310857,00000013,false,Rx,0,8,4F,BB,04,00,F4,30,02,00,
18312145,00000014,false,Rx,0,4,84,07,7B,03,00,00,00,00,
18364149,00000011,false,Rx,0,8,37,18,00,00,30,8E,00,00,
18365743,00000012,false,Rx,0,8,FA,9A,07,00,BB,8D,08,00,
18367294,00000013,false,Rx,0,8,89,84,04,00,B2,2F,02,00,
18368641,00000014,false,Rx,0,4,2D,07,79,03,00,00,00,00,
18420621,00000011,false,Rx,0,8,26,19,00,00,83,6A,00,00,
18422219,00000012,false,Rx,0,8,F8,E5,07,00,52,68,06,00,
18423821,00000013,false,Rx,0,8,4F,AA,04,00,5E,CF,01,00,
18425099,00000014,false,Rx,0,4,69,07,E0,02,00,00,00,00,
18477085,00000011,false,Rx,0,8,99,19,00,00,BC,4B,00,00,
18478739,00000012,false,Rx,0,8,37,0A,08,00,51,8E,04,00,
18480312,00000013,false,Rx,0,8,91,BC,04,00,43,7C,01,00,
18481572,00000014,false,Rx,0,4,86,07,5C,02,00,00,00,00,
18533522,00000011,false,Rx,0,8,B5,19,00,00,6A,34,00,00,
18535424,00000012,false,Rx,0,8,F6,12,08,00,39,27,03,00,
18536765,00000013,false,Rx,0,8,F9,C0,04,00,4E,3D,01,00,
18538069,00000014,false,Rx,0,4,8D,07,F8,01,00,00,00,00,
18590098,00000011,false,Rx,0,8,C1,19,00,00,B2,22,00,00,
18591668,00000012,false,Rx,0,8,B6,16,08,00,50,16,02,00,
18593219,00000013,false,Rx,0,8,DD,C2,04,00,75,0D,01,00,
18594561,00000014,false,Rx,0,4,90,07,AC,01,00,00,00,00,
18646602,00000011,false,Rx,0,8,C9,19,00,00,56,16,00,00,
18648195,00000012,false,Rx,0,8,36,19,08,00,FE,57,01,00,
18649749,00000013,false,Rx,0,8,1F,C4,04,00,17,EC,00,00,
18651019,00000014,false,Rx,0,4,92,07,77,01,00,00,00,00,
18703336,00000011,false,Rx,0,8,CD,19,00,00,8B,0C,00,00,
18704719,00000012,false,Rx,0,8,76,1A,08,00,2C,C1,00,00,
18706294,00000013,false,Rx,0,8,C0,C4,04,00,A6,D1,00,00,
18707677,00000014,false,Rx,0,4,93,07,4D,01,00,00,00,00,
18759615,00000011,false,Rx,0,8,CD,19,00,00,C8,05,00,00,
18761196,00000012,false,Rx,0,8,76,1A,08,00,09,59,00,00,
18762798,00000013,false,Rx,0,8,C0,C4,04,00,64,BF,00,00,
18764071,00000014,false,Rx,0,4,93,07,30,01,00,00,00,00,
18816128,00000011,false,Rx,0,8,CD,19,00,00,84,02,00,00,
18817743,00000012,false,Rx,0,8,76,1A,08,00,C4,26,00,00,
18819369,00000013,false,Rx,0,8,C0,C4,04,00,93,B6,00,00,
18820619,00000014,false,Rx,0,4,93,07,22,01,00,00,00,00,
18872769,00000011,false,Rx,0,8,D1,19,00,00,59,01,00,00,
18874326,00000012,false,Rx,0,8,B6,1B,08,00,CF,14,00,00,
18875784,00000013,false,Rx,0,8,62,C5,04,00,6E,B3,00,00,
18877102,00000014,false,Rx,0,4,94,07,1D,01,00,00,00,00,
18929111,00000011,false,Rx,0,8,D1,19,00,00,E2,00,00,00,
18930703,00000012,false,Rx,0,8,B6,1B,08,00,A1,0D,00,00,
18932301,00000013,false,Rx,0,8,62,C5,04,00,2B,B2,00,00,
18933607,00000014,false,Rx,0,4,94,07,1B,01,00,00,00,00,
18985580,00000011,false,Rx,0,8,D5,19,00,00,1E,01,00,00,
18987243,00000012,false,Rx,0,8,F6,1C,08,00,38,11,00,00,
18988754,00000013,false,Rx,0,8,03,C6,04,00,CC,B2,00,00,
18990085,00000014,false,Rx,0,4,95,07,1C,01,00,00,00,00,
19042137,00000011,false,Rx,0,8,D1,19,00,00,E2,00,00,00,
19043697,00000012,false,Rx,0,8,B6,1B,08,00,A1,0D,00,00,
19045300,00000013,false,Rx,0,8,62,C5,04,00,2B,B2,00,00,
19046597,00000014,false,Rx,0,4,94,07,1B,01,00,00,00,00,
19098630,00000011,false,Rx,0,8,D5,19,00,00,A6,00,00,00,
19100492,00000012,false,Rx,0,8,F6,1C,08,00,09,0A,00,00,
19102052,00000013,false,Rx,0,8,03,C6,04,00,8A,B1,00,00,
19103277,00000014,false,Rx,0,4,95,07,1A,01,00,00,00,00,
19155400,00000011,false,Rx,0,8,D5,19,00,00,E2,00,00,00,
19157026,00000012,false,Rx,0,8,F6,1C,08,00,A1,0D,00,00,
19158344,00000013,false,Rx,0,8,03,C6,04,00,2B,B2,00,00,
19159599,00000014,false,Rx,0,4,95,07,1B,01,00,00,00,00,
19211629,00000011,false,Rx,0,8,D1,19,00,00,E2,00,00,00,
19213300,00000012,false,Rx,0,8,B6,1B,08,00,A1,0D,00,00,
19214870,00000013,false,Rx,0,8,62,C5,04,00,2B,B2,00,00,
19216144,00000014,false,Rx,0,4,94,07,1B,01,00,00,00,00,
19268178,00000011,false,Rx,0,8,D1,19,00,00,A6,00,00,00,
19269774,00000012,false,Rx,0,8,B6,1B,08,00,09,0A,00,00,
19271328,00000013,false,Rx,0,8,62,C5,04,00,8A,B1,00,00,
19272628,00000014,false,Rx,0,4,94,07,1A,01,00,00,00,00,
19324656,00000011,false,Rx,0,8,D5,19,00,00,A6,00,00,00,
19326222,00000012,false,Rx,0,8,F6,1C,08,00,09,0A,00,00,
19327826,00000013,false,Rx,0,8,03,C6,04,00,8A,B1,00,00,
19329123,00000014,false,Rx,0,4,95,07,1A,01,00,00,00,00,
19381154,00000011,false,Rx,0,8,D1,19,00,00,A6,00,00,00,
19382933,00000012,false,Rx,0,8,B6,1B,08,00,09,0A,00,00,
19384543,00000013,false,Rx,0,8,62,C5,04,00,8A,B1,00,00,
19385879,00000014,false,Rx,0,4,94,07,1A,01,00,00,00,00,
19437746,00000011,false,Rx,0,8,D9,19,00,00,E2,00,00,00,
19439405,00000012,false,Rx,0,8,36,1E,08,00,A1,0D,00,00,
19440886,00000013,false,Rx,0,8,A4,C6,04,00,2B,B2,00,00,
19442164,00000014,false,Rx,0,4,96,07,1B,01,00,00,00,00,
19494205,00000011,false,Rx,0,8,D5,19,00,00,E2,00,00,00,
19495827,00000012,false,Rx,0,8,F6,1C,08,00,A1,0D,00,00,
19497401,00000013,false,Rx,0,8,03,C6,04,00,2B,B2,00,00,
19498798,00000014,false,Rx,0,4,95,07,1B,01,00,00,00,00,
19550898,00000011,false,Rx,0,8,CD,19,00,00,E2,00,00,00,
19552476,00000012,false,Rx,0,8,76,1A,08,00,A1,0D,00,00,
19554022,00000013,false,Rx,0,8,C0,C4,04,00,2B,B2,00,00,
19555378,00000014,false,Rx,0,4,93,07,1B,01,00,00,00,00,
19607397,00000011,false,Rx,0,8,68,11,00,00,0D,2F,00,00,
19608879,00000012,false,Rx,0,8,8D,77,05,00,A2,D4,02,00,
19610466,00000013,false,Rx,0,8,C7,70,03,00,D3,2E,01,00,
19611778,00000014,false,Rx,0,4,77,05,E1,01,00,00,00,00,
19663835,00000011,false,Rx,0,8,DF,17,00,00,D3,88,00,00,
19665611,00000012,false,Rx,0,8,7B,7F,07,00,24,3B,08,00,
19667119,00000013,false,Rx,0,8,AF,76,04,00,37,21,02,00,
19668451,00000014,false,Rx,0,4,17,07,62,03,00,00,00,00,
19720333,00000011,false,Rx,0,8,E1,19,00,00,8D,93,00,00,
19721923,00000012,false,Rx,0,8,B6,20,08,00,53,E0,08,00,
19723510,00000013,false,Rx,0,8,E6,C7,04,00,2D,3E,02,00,
19724817,00000014,false,Rx,0,4,98,07,90,03,00,00,00,00,
19776861,00000011,false,Rx,0,8,D5,19,00,00,9E,92,00,00,
19778480,00000012,false,Rx,0,8,F6,1C,08,00,F5,D1,08,00,
19780054,00000013,false,Rx,0,8,03,C6,04,00,A8,3B,02,00,
19781330,00000014,false,Rx,0,4,95,07,8C,03,00,00,00,00,
19833379,00000011,false,Rx,0,8,B9,19,00,00,27,92,00,00,
19835227,00000012,false,Rx,0,8,36,14,08,00,C7,CA,08,00,
19836643,00000013,false,Rx,0,8,9A,C1,04,00,65,3A,02,00,
19838082,00000014,false,Rx,0,4,8E,07,8A,03,00,00,00,00,
19890103,00000011,false,Rx,0,8,A5,19,00,00,74,91,00,00,
19891468,00000012,false,Rx,0,8,F6,0D,08,00,01,C0,08,00,
19893082,00000013,false,Rx,0,8,75,BE,04,00,82,38,02,00,
19894355,00000014,false,Rx,0,4,89,07,87,03,00,00,00,00,
19946418,00000011,false,Rx,0,8,99,19,00,00,38,91,00,00,
19948028,00000012,false,Rx,0,8,37,0A,08,00,6A,BC,08,00,
19949627,00000013,false,Rx,0,8,91,BC,04,00,E1,37,02,00,
19950865,00000014,false,Rx,0,4,86,07,86,03,00,00,00,00,
20003157,00000011,false,Rx,0,8,91,19,00,00,96,8F,00,00,
20004625,00000012,false,Rx,0,8,B7,07,08,00,47,A3,08,00,
20006268,00000013,false,Rx,0,8,4F,BB,04,00,79,33,02,00,
20007393,00000014,false,Rx,0,4,84,07,7F,03,00,00,00,00,
20059386,00000011,false,Rx,0,8,89,19,00,00,C1,90,00,00,
20061034,00000012,false,Rx,0,8,37,05,08,00,3B,B5,08,00,
20062607,00000013,false,Rx,0,8,0C,BA,04,00,9E,36,02,00,
20063910,00000014,false,Rx,0,4,82,07,84,03,00,00,00,00,
20116182,00000011,false,Rx,0,8,85,19,00,00,49,90,00,00,
20117816,00000012,false,Rx,0,8,F7,03,08,00,0D,AE,08,00,
20119362,00000013,false,Rx,0,8,6B,B9,04,00,5C,35,02,00,
20120435,00000014,false,Rx,0,4,81,07,82,03,00,00,00,00,
20172580,00000011,false,Rx,0,8,89,19,00,00,0E,90,00,00,
20174062,00000012,false,Rx,0,8,37,05,08,00,75,AA,08,00,
20175636,00000013,false,Rx,0,8,0C,BA,04,00,BB,34,02,00,
20176938,00000014,false,Rx,0,4,82,07,81,03,00,00,00,00,
20228966,00000011,false,Rx,0,8,89,19,00,00,49,90,00,00,
20230609,00000012,false,Rx,0,8,37,05,08,00,0D,AE,08,00,
20232164,00000013,false,Rx,0,8,0C,BA,04,00,5C,35,02,00,
20233435,00000014,false,Rx,0,4,82,07,82,03,00,00,00,00,
20285495,00000011,false,Rx,0,8,89,19,00,00,0E,90,00,00,
20287337,00000012,false,Rx,0,8,37,05,08,00,75,AA,08,00,
20288916,00000013,false,Rx,0,8,0C,BA,04,00,BB,34,02,00,
20289985,00000014,false,Rx,0,4,82,07,81,03,00,00,00,00,
20341968,00000011,false,Rx,0,8,89,19,00,00,D2,8F,00,00,
20343591,00000012,false,Rx,0,8,37,05,08,00,DE,A6,08,00,
20345163,00000013,false,Rx,0,8,0C,BA,04,00,1A,34,02,00,
20346460,00000014,false,Rx,0,4,82,07,80,03,00,00,00,00,
20398522,00000011,false,Rx,0,8,8D,19,00,00,96,8F,00,00,
20400320,00000012,false,Rx,0,8,77,06,08,00,47,A3,08,00,
20401741,00000013,false,Rx,0,8,AE,BA,04,00,79,33,02,00,
20403194,00000014,false,Rx,0,4,83,07,7F,03,00,00,00,00,
20455159,00000011,false,Rx,0,8,91,19,00,00,96,8F,00,00,
20456915,00000012,false,Rx,0,8,B7,07,08,00,47,A3,08,00,
20458224,00000013,false,Rx,0,8,4F,BB,04,00,79,33,02,00,
20459516,00000014,false,Rx,0,4,84,07,7F,03,00,00,00,00,
20511552,00000011,false,Rx,0,8,91,19,00,00,5B,8F,00,00,
20513165,00000012,false,Rx,0,8,B7,07,08,00,B0,9F,08,00,
20514769,00000013,false,Rx,0,8,4F,BB,04,00,D7,32,02,00,
20516066,00000014,false,Rx,0,4,84,07,7E,03,00,00,00,00,
20568098,00000011,false,Rx,0,8,95,19,00,00,85,90,00,00,
20569721,00000012,false,Rx,0,8,F7,08,08,00,A4,B1,08,00,
20571291,00000013,false,Rx,0,8,F0,BB,04,00,FD,35,02,00,
20572616,00000014,false,Rx,0,4,85,07,83,03,00,00,00,00,
20624598,00000011,false,Rx,0,8,99,19,00,00,5B,8F,00,00,
20626215,00000012,false,Rx,0,8,37,0A,08,00,B0,9F,08,00,
20627791,00000013,false,Rx,0,8,91,BC,04,00,D7,32,02,00,
20629090,00000014,false,Rx,0,4,86,07,7E,03,00,00,00,00,
20681122,00000011,false,Rx,0,8,99,19,00,00,5B,8F,00,00,
20682769,00000012,false,Rx,0,8,37,0A,08,00,B0,9F,08,00,
20684343,00000013,false,Rx,0,8,91,BC,04,00,D7,32,02,00,
20685653,00000014,false,Rx,0,4,86,07,7E,03,00,00,00,00,
20737690,00000011,false,Rx,0,8,A1,19,00,00,E3,8E,00,00,
20739308,00000012,false,Rx,0,8,B6,0C,08,00,81,98,08,00,
20740875,00000013,false,Rx,0,8,D3,BD,04,00,95,31,02,00,
20742142,00000014,false,Rx,0,4,88,07,7C,03,00,00,00,00,
20794174,00000011,false,Rx,0,8,A5,19,00,00,1F,8F,00,00,
20795792,00000012,false,Rx,0,8,F6,0D,08,00,18,9C,08,00,
20797367,00000013,false,Rx,0,8,75,BE,04,00,36,32,02,00,
20798694,00000014,false,Rx,0,4,89,07,7D,03,00,00,00,00,
20850728,00000011,false,Rx,0,8,A5,19,00,00,E3,8E,00,00,
20852375,00000012,false,Rx,0,8,F6,0D,08,00,81,98,08,00,
20853947,00000013,false,Rx,0,8,75,BE,04,00,95,31,02,00,
20855291,00000014,false,Rx,0,4,89,07,7C,03,00,00,00,00,
20907290,00000011,false,Rx,0,8,A9,19,00,00,E3,8E,00,00,
20908896,00000012,false,Rx,0,8,36,0F,08,00,81,98,08,00,
20910444,00000013,false,Rx,0,8,16,BF,04,00,95,31,02,00,
20911728,00000014,false,Rx,0,4,8A,07,7C,03,00,00,00,00,
20963762,00000011,false,Rx,0,8,5F,18,00,00,8E,8C,00,00,
20965379,00000012,false,Rx,0,8,7A,A7,07,00,98,74,08,00,
20966953,00000013,false,Rx,0,8,D5,8A,04,00,49,2B,02,00,
20968251,00000014,false,Rx,0,4,37,07,72,03,00,00,00,00,
21020315,00000011,false,Rx,0,8,3A,19,00,00,15,66,00,00,
21021943,00000012,false,Rx,0,8,38,EC,07,00,17,24,06,00,
21023575,00000013,false,Rx,0,8,75,AD,04,00,68,C3,01,00,
21024767,00000014,false,Rx,0,4,6E,07,CD,02,00,00,00,00,
21076807,00000011,false,Rx,0,8,95,19,00,00,3C,48,00,00,
21078422,00000012,false,Rx,0,8,F7,08,08,00,74,58,04,00,
21079976,00000013,false,Rx,0,8,F0,BB,04,00,D2,72,01,00,
21081273,00000014,false,Rx,0,4,85,07,4D,02,00,00,00,00,
21133333,00000011,false,Rx,0,8,B5,19,00,00,9E,31,00,00,
21134951,00000012,false,Rx,0,8,F6,12,08,00,22,FC,02,00,
21136539,00000013,false,Rx,0,8,F9,C0,04,00,C0,35,01,00,
21137846,00000014,false,Rx,0,4,8D,07,EC,01,00,00,00,00,
21189886,00000011,false,Rx,0,8,C1,19,00,00,10,21,00,00,
21191490,00000012,false,Rx,0,8,B6,16,08,00,2D,FD,01,00,
21193031,00000013,false,Rx,0,8,DD,C2,04,00,0D,09,01,00,
21194428,00000014,false,Rx,0,4,90,07,A5,01,00,00,00,00,
21246453,00000011,false,Rx,0,8,C9,19,00,00,B4,14,00,00,
21248099,00000012,false,Rx,0,8,36,19,08,00,DB,3E,01,00,
21249673,00000013,false,Rx,0,8,1F,C4,04,00,AF,E7,00,00,
21250973,00000014,false,Rx,0,4,92,07,70,01,00,00,00,00,
21303047,00000011,false,Rx,0,8,CD,19,00,00,9C,0B,00,00,
21304655,00000012,false,Rx,0,8,76,1A,08,00,CF,B2,00,00,
21306204,00000013,false,Rx,0,8,C0,C4,04,00,21,CF,00,00,
21307501,00000014,false,Rx,0,4,93,07,49,01,00,00,00,00,
21359501,00000011,false,Rx,0,8,D1,19,00,00,15,05,00,00,
21361148,00000012,false,Rx,0,8,B6,1B,08,00,44,4E,00,00,
21362714,00000013,false,Rx,0,8,62,C5,04,00,80,BD,00,00,
21363995,00000014,false,Rx,0,4,94,07,2D,01,00,00,00,00,
21416029,00000011,false,Rx,0,8,D5,19,00,00,0D,02,00,00,
21417643,00000012,false,Rx,0,8,F6,1C,08,00,95,1F,00,00,
21419178,00000013,false,Rx,0,8,03,C6,04,00,51,B5,00,00,
21420511,00000014,false,Rx,0,4,95,07,20,01,00,00,00,00,
21472518,00000011,false,Rx,0,8,D1,19,00,00,1E,01,00,00,
21474136,00000012,false,Rx,0,8,B6,1B,08,00,38,11,00,00,
21475687,00000013,false,Rx,0,8,62,C5,04,00,CC,B2,00,00,
21476981,00000014,false,Rx,0,4,94,07,1C,01,00,00,00,00,
21529055,00000011,false,Rx,0,8,D5,19,00,00,E2,00,00,00,
21530638,00000012,false,Rx,0,8,F6,1C,08,00,A1,0D,00,00,
21532212,00000013,false,Rx,0,8,03,C6,04,00,2B,B2,00,00,
21533508,00000014,false,Rx,0,4,95,07,1B,01,00,00,00,00,
21585590,00000011,false,Rx,0,8,D5,19,00,00,E2,00,00,00,
21587188,00000012,false,Rx,0,8,F6,1C,08,00,A1,0D,00,00,
21588701,00000013,false,Rx,0,8,03,C6,04,00,2B,B2,00,00,
21590018,00000014,false,Rx,0,4,95,07,1B,01,00,00,00,00,
21642059,00000011,false,Rx,0,8,D5,19,00,00,E2,00,00,00,
21643693,00000012,false,Rx,0,8,F6,1C,08,00,A1,0D,00,00,
21645273,00000013,false,Rx,0,8,03,C6,04,00,2B,B2,00,00,
21646557,00000014,false,Rx,0,4,95,07,1B,01,00,00,00,00,
21698826,00000011,false,Rx,0,8,D5,19,00,00,A6,00,00,00,
21700200,00000012,false,Rx,0,8,F6,1C,08,00,09,0A,00,00,
21701803,00000013,false,Rx,0,8,03,C6,04,00,8A,B1,00,00,
21703214,00000014,false,Rx,0,4,95,07,1A,01,00,00,00,00,
21755067,00000011,false,Rx,0,8,D5,19,00,00,A6,00,00,00,
21756684,00000012,false,Rx,0,8,F6,1C,08,00,09,0A,00,00,
21758269,00000013,false,Rx,0,8,03,C6,04,00,8A,B1,00,00,
21759583,00000014,false,Rx,0,4,95,07,1A,01,00,00,00,00,
21811591,00000011,false,Rx,0,8,D9,19,00,00,A6,00,00,00,
21813210,00000012,false,Rx,0,8,36,1E,08,00,09,0A,00,00,
21814779,00000013,false,Rx,0,8,A4,C6,04,00,8A,B1,00,00,
21816080,00000014,false,Rx,0,4,96,07,1A,01,00,00,00,00,
21868147,00000011,false,Rx,0,8,D9,19,00,00,E2,00,00,00,
21869744,00000012,false,Rx,0,8,36,1E,08,00,A1,0D,00,00,
21871275,00000013,false,Rx,0,8,A4,C6,04,00,2B,B2,00,00,
21872615,00000014,false,Rx,0,4,96,07,1B,01,00,00,00,00,
21924623,00000011,false,Rx,0,8,D9,19,00,00,A6,00,00,00,
21926193,00000012,false,Rx,0,8,36,1E,08,00,09,0A,00,00,
21927764,00000013,false,Rx,0,8,A4,C6,04,00,8A,B1,00,00,
21929062,00000014,false,Rx,0,4,96,07,1A,01,00,00,00,00,
21981076,00000011,false,Rx,0,8,D9,19,00,00,A6,00,00,00,
21982708,00000012,false,Rx,0,8,36,1E,08,00,09,0A,00,00,
21984281,00000013,false,Rx,0,8,A4,C6,04,00,8A,B1,00,00,
21985580,00000014,false,Rx,0,4,96,07,1A,01,00,00,00,00,
22037625,00000011,false,Rx,0,8,DD,19,00,00,E2,00,00,00,
22039238,00000012,false,Rx,0,8,76,1F,08,00,A1,0D,00,00,
22040822,00000013,false,Rx,0,8,45,C7,04,00,2B,B2,00,00,
22042069,00000014,false,Rx,0,4,97,07,1B,01,00,00,00,00,
22094122,00000011,false,Rx,0,8,D9,19,00,00,A6,00,00,00,
22095745,00000012,false,Rx,0,8,36,1E,08,00,09,0A,00,00,
22097313,00000013,false,Rx,0,8,A4,C6,04,00,8A,B1,00,00,
22098583,00000014,false,Rx,0,4,96,07,1A,01,00,00,00,00,
22150675,00000011,false,Rx,0,8,DD,19,00,00,A6,00,00,00,
22152249,00000012,false,Rx,0,8,76,1F,08,00,09,0A,00,00,
22153799,00000013,false,Rx,0,8,45,C7,04,00,8A,B1,00,00,
22155099,00000014,false,Rx,0,4,97,07,1A,01,00,00,00,00,
22207118,00000011,false,Rx,0,8,D9,19,00,00,A6,00,00,00,
22208671,00000012,false,Rx,0,8,36,1E,08,00,09,0A,00,00,
22210243,00000013,false,Rx,0,8,A4,C6,04,00,8A,B1,00,00,
22211566,00000014,false,Rx,0,4,96,07,1A,01,00,00,00,00,
22263631,00000011,false,Rx,0,8,DD,19,00,00,A6,00,00,00,
22265172,00000012,false,Rx,0,8,76,1F,08,00,09,0A,00,00,
22266745,00000013,false,Rx,0,8,45,C7,04,00,8A,B1,00,00,
22268043,00000014,false,Rx,0,4,97,07,1A,01,00,00,00,00,
22320067,00000011,false,Rx,0,8,DD,19,00,00,A6,00,00,00,
22321745,00000012,false,Rx,0,8,76,1F,08,00,09,0A,00,00,
22323238,00000013,false,Rx,0,8,45,C7,04,00,8A,B1,00,00,
22324521,00000014,false,Rx,0,4,97,07,1A,01,00,00,00,00,
22376564,00000011,false,Rx,0,8,DD,19,00,00,A6,00,00,00,
22378207,00000012,false,Rx,0,8,76,1F,08,00,09,0A,00,00,
22379768,00000013,false,Rx,0,8,45,C7,04,00,8A,B1,00,00,
22381055,00000014,false,Rx,0,4,97,07,1A,01,00,00,00,00,
22433051,00000011,false,Rx,0,8,DD,19,00,00,A6,00,00,00,
22434666,00000012,false,Rx,0,8,76,1F,08,00,09,0A,00,00,
22436236,00000013,false,Rx,0,8,45,C7,04,00,8A,B1,00,00,
22437516,00000014,false,Rx,0,4,97,07,1A,01,00,00,00,00,
22489530,00000011,false,Rx,0,8,DD,19,00,00,A6,00,00,00,
22491117,00000012,false,Rx,0,8,76,1F,08,00,09,0A,00,00,
22492663,00000013,false,Rx,0,8,45,C7,04,00,8A,B1,00,00,
22493936,00000014,false,Rx,0,4,97,07,1A,01,00,00,00,00,
22546018,00000011,false,Rx,0,8,DD,19,00,00,A6,00,00,00,
22547646,00000012,false,Rx,0,8,76,1F,08,00,09,0A,00,00,
22549219,00000013,false,Rx,0,8,45,C7,04,00,8A,B1,00,00,
22550465,00000014,false,Rx,0,4,97,07,1A,01,00,00,00,00,
22602509,00000011,false,Rx,0,8,DD,19,00,00,A6,00,00,00,
22604128,00000012,false,Rx,0,8,76,1F,08,00,09,0A,00,00,
22605709,00000013,false,Rx,0,8,45,C7,04,00,8A,B1,00,00,
22607011,00000014,false,Rx,0,4,97,07,1A,01,00,00,00,00,
22659014,00000011,false,Rx,0,8,1F,18,00,00,A6,00,00,00,
22660612,00000012,false,Rx,0,8,7B,93,07,00,09,0A,00,00,
22662185,00000013,false,Rx,0,8,C2,80,04,00,8A,B1,00,00,
22663514,00000014,false,Rx,0,4,27,07,1A,01,00,00,00,00,
22715554,00000011,false,Rx,0,8,37,15,00,00,B6,6E,00,00,
22717191,00000012,false,Rx,0,8,C3,A9,06,00,F5,A8,06,00,
22718764,00000013,false,Rx,0,8,07,0B,04,00,B3,DA,01,00,
22720046,00000014,false,Rx,0,4,6C,06,F2,02,00,00,00,00,
22772339,00000011,false,Rx,0,8,8D,19,00,00,52,93,00,00,
22773708,00000012,false,Rx,0,8,77,06,08,00,BB,DC,08,00,
22775263,00000013,false,Rx,0,8,AE,BA,04,00,8B,3D,02,00,
22776565,00000014,false,Rx,0,4,83,07,8F,03,00,00,00,00,
22828632,00000011,false,Rx,0,8,E5,19,00,00,DA,92,00,00,
22830221,00000012,false,Rx,0,8,F6,21,08,00,8D,D5,08,00,
22831802,00000013,false,Rx,0,8,87,C8,04,00,49,3C,02,00,
22833095,00000014,false,Rx,0,4,99,07,8D,03,00,00,00,00,
22885184,00000011,false,Rx,0,8,C1,19,00,00,EB,91,00,00,
22886773,00000012,false,Rx,0,8,B6,16,08,00,30,C7,08,00,
22888337,00000013,false,Rx,0,8,DD,C2,04,00,C4,39,02,00,
22889673,00000014,false,Rx,0,4,90,07,89,03,00,00,00,00,
22941660,00000011,false,Rx,0,8,A9,19,00,00,38,91,00,00,
22943248,00000012,false,Rx,0,8,36,0F,08,00,6A,BC,08,00,
22944823,00000013,false,Rx,0,8,16,BF,04,00,E1,37,02,00,
22946120,00000014,false,Rx,0,4,8A,07,86,03,00,00,00,00,
22998149,00000011,false,Rx,0,8,9D,19,00,00,FD,90,00,00,
22999766,00000012,false,Rx,0,8,77,0B,08,00,D3,B8,08,00,
23001345,00000013,false,Rx,0,8,32,BD,04,00,40,37,02,00,
23002675,00000014,false,Rx,0,4,87,07,85,03,00,00,00,00,
23054654,00000011,false,Rx,0,8,95,19,00,00,85,90,00,00,
23056249,00000012,false,Rx,0,8,F7,08,08,00,A4,B1,08,00,
23057788,00000013,false,Rx,0,8,F0,BB,04,00,FD,35,02,00,
23059101,00000014,false,Rx,0,4,85,07,83,03,00,00,00,00,
23111105,00000011,false,Rx,0,8,89,19,00,00,49,90,00,00,
23112722,00000012,false,Rx,0,8,37,05,08,00,0D,AE,08,00,
23114293,00000013,false,Rx,0,8,0C,BA,04,00,5C,35,02,00,
23115570,00000014,false,Rx,0,4,82,07,82,03,00,00,00,00,
23167619,00000011,false,Rx,0,8,89,19,00,00,49,90,00,00,
23169256,00000012,false,Rx,0,8,37,05,08,00,0D,AE,08,00,
23170816,00000013,false,Rx,0,8,0C,BA,04,00,5C,35,02,00,
23172115,00000014,false,Rx,0,4,82,07,82,03,00,00,00,00,
23224098,00000011,false,Rx,0,8,89,19,00,00,0E,90,00,00,
23225678,00000012,false,Rx,0,8,37,05,08,00,75,AA,08,00,
23227250,00000013,false,Rx,0,8,0C,BA,04,00,BB,34,02,00,
23228551,00000014,false,Rx,0,4,82,07,81,03,00,00,00,00,
23280542,00000011,false,Rx,0,8,85,19,00,00,D2,8F,00,00,
23282156,00000012,false,Rx,0,8,F7,03,08,00,DE,A6,08,00,
23283728,00000013,false,Rx,0,8,6B,B9,04,00,1A,34,02,00,
23285024,00000014,false,Rx,0,4,81,07,80,03,00,00,00,00,
23337033,00000011,false,Rx,0,8,85,19,00,00,D2,8F,00,00,
23338680,00000012,false,Rx,0,8,F7,03,08,00,DE,A6,08,00,
23340202,00000013,false,Rx,0,8,6B,B9,04,00,1A,34,02,00,
23341474,00000014,false,Rx,0,4,81,07,80,03,00,00,00,00,
23393460,00000011,false,Rx,0,8,89,19,00,00,1F,8F,00,00,
23395121,00000012,false,Rx,0,8,37,05,08,00,18,9C,08,00,
23396704,00000013,false,Rx,0,8,0C,BA,04,00,36,32,02,00,
23397976,00000014,false,Rx,0,4,82,07,7D,03,00,00,00,00,
23450110,00000011,false,Rx,0,8,89,19,00,00,5B,8F,00,00,
23451619,00000012,false,Rx,0,8,37,05,08,00,B0,9F,08,00,
23453129,00000013,false,Rx,0,8,0C,BA,04,00,D7,32,02,00,
23454440,00000014,false,Rx,0,4,82,07,7E,03,00,00,00,00,
23506427,00000011,false,Rx,0,8,8D,19,00,00,1F,8F,00,00,
23508006,00000012,false,Rx,0,8,77,06,08,00,18,9C,08,00,
23509582,00000013,false,Rx,0,8,AE,BA,04,00,36,32,02,00,
23510860,00000014,false,Rx,0,4,83,07,7D,03,00,00,00,00,
23562885,00000011,false,Rx,0,8,8D,19,00,00,1F,8F,00,00,
23564503,00000012,false,Rx,0,8,77,06,08,00,18,9C,08,00,
23566091,00000013,false,Rx,0,8,AE,BA,04,00,36,32,02,00,
23567407,00000014,false,Rx,0,4,83,07,7D,03,00,00,00,00,
23619405,00000011,false,Rx,0,8,91,19,00,00,1F,8F,00,00,
23621007,00000012,false,Rx,0,8,B7,07,08,00,18,9C,08,00,
23622582,00000013,false,Rx,0,8,4F,BB,04,00,36,32,02,00,
23623841,00000014,false,Rx,0,4,84,07,7D,03,00,00,00,00,
23675828,00000011,false,Rx,0,8,95,19,00,00,E3,8E,00,00,
23677452,00000012,false,Rx,0,8,F7,08,08,00,81,98,08,00,
23679025,00000013,false,Rx,0,8,F0,BB,04,00,95,31,02,00,
23680327,00000014,false,Rx,0,4,85,07,7C,03,00,00,00,00,
23732315,00000011,false,Rx,0,8,95,19,00,00,E3,8E,00,00,
23734027,00000012,false,Rx,0,8,F7,08,08,00,81,98,08,00,
23735523,00000013,false,Rx,0,8,F0,BB,04,00,95,31,02,00,
23736822,00000014,false,Rx,0,4,85,07,7C,03,00,00,00,00,
23788813,00000011,false,Rx,0,8,9D,19,00,00,A8,8E,00,00,
23790419,00000012,false,Rx,0,8,77,0B,08,00,EA,94,08,00,
23791981,00000013,false,Rx,0,8,32,BD,04,00,F4,30,02,00,
23793282,00000014,false,Rx,0,4,87,07,7B,03,00,00,00,00,
23845307,00000011,false,Rx,0,8,A1,19,00,00,A8,8E,00,00,
23846925,00000012,false,Rx,0,8,B6,0C,08,00,EA,94,08,00,
23848510,00000013,false,Rx,0,8,D3,BD,04,00,F4,30,02,00,
23849766,00000014,false,Rx,0,4,88,07,7B,03,00,00,00,00,
23901759,00000011,false,Rx,0,8,A1,19,00,00,A8,8E,00,00,
23903634,00000012,false,Rx,0,8,B6,0C,08,00,EA,94,08,00,
23905207,00000013,false,Rx,0,8,D3,BD,04,00,F4,30,02,00,
23906232,00000014,false,Rx,0,4,88,07,7B,03,00,00,00,00,
23958231,00000011,false,Rx,0,8,A5,19,00,00,6C,8E,00,00,
23959851,00000012,false,Rx,0,8,F6,0D,08,00,52,91,08,00,
23961407,00000013,false,Rx,0,8,75,BE,04,00,53,30,02,00,
23962673,00000014,false,Rx,0,4,89,07,7A,03,00,00,00,00,
24014874,00000011,false,Rx,0,8,AD,19,00,00,6C,8E,00,00,
24016334,00000012,false,Rx,0,8,76,10,08,00,52,91,08,00,
24017920,00000013,false,Rx,0,8,B7,BF,04,00,53,30,02,00,
24019198,00000014,false,Rx,0,4,8B,07,7A,03,00,00,00,00,
24071220,00000011,false,Rx,0,8,AD,19,00,00,6C,8E,00,00,
24072824,00000012,false,Rx,0,8,76,10,08,00,52,91,08,00,
24074364,00000013,false,Rx,0,8,B7,BF,04,00,53,30,02,00,
24075632,00000014,false,Rx,0,4,8B,07,7A,03,00,00,00,00,
24127677,00000011,false,Rx,0,8,AD,19,00,00,6C,8E,00,00,
24129292,00000012,false,Rx,0,8,76,10,08,00,52,91,08,00,
24130873,00000013,false,Rx,0,8,B7,BF,04,00,53,30,02,00,
24132136,00000014,false,Rx,0,4,8B,07,7A,03,00,00,00,00,
24184171,00000011,false,Rx,0,8,B1,19,00,00,6C,8E,00,00,
24185777,00000012,false,Rx,0,8,B6,11,08,00,52,91,08,00,
24187351,00000013,false,Rx,0,8,58,C0,04,00,53,30,02,00,
24188676,00000014,false,Rx,0,4,8C,07,7A,03,00,00,00,00,
24240671,00000011,false,Rx,0,8,B1,19,00,00,30,8E,00,00,
24242227,00000012,false,Rx,0,8,B6,11,08,00,BB,8D,08,00,
24243802,00000013,false,Rx,0,8,58,C0,04,00,B2,2F,02,00,
24245101,00000014,false,Rx,0,4,8C,07,79,03,00,00,00,00,
24297085,00000011,false,Rx,0,8,B5,19,00,00,30,8E,00,00,
24298713,00000012,false,Rx,0,8,F6,12,08,00,BB,8D,08,00,
24300276,00000013,false,Rx,0,8,F9,C0,04,00,B2,2F,02,00,
24301510,00000014,false,Rx,0,4,8D,07,79,03,00,00,00,00,
24353563,00000011,false,Rx,0,8,B9,19,00,00,30,8E,00,00,
24355309,00000012,false,Rx,0,8,36,14,08,00,BB,8D,08,00,
24356729,00000013,false,Rx,0,8,9A,C1,04,00,B2,2F,02,00,
24357985,00000014,false,Rx,0,4,8E,07,79,03,00,00,00,00,
24409961,00000011,false,Rx,0,8,B5,19,00,00,30,8E,00,00,
24411580,00000012,false,Rx,0,8,F6,12,08,00,BB,8D,08,00,
24413158,00000013,false,Rx,0,8,F9,C0,04,00,B2,2F,02,00,
24414461,00000014,false,Rx,0,4,8D,07,79,03,00,00,00,00,
24466503,00000011,false,Rx,0,8,BD,19,00,00,30,8E,00,00,
24468059,00000012,false,Rx,0,8,76,15,08,00,BB,8D,08,00,
24469660,00000013,false,Rx,0,8,3C,C2,04,00,B2,2F,02,00,
24470934,00000014,false,Rx,0,4,8F,07,79,03,00,00,00,00,
24522940,00000011,false,Rx,0,8,BD,19,00,00,F5,8D,00,00,
24524520,00000012,false,Rx,0,8,76,15,08,00,24,8A,08,00,
24526086,00000013,false,Rx,0,8,3C,C2,04,00,10,2F,02,00,
24527360,00000014,false,Rx,0,4,8F,07,78,03,00,00,00,00,
24579391,00000011,false,Rx,0,8,7E,18,00,00,30,8E,00,00,
24580985,00000012,false,Rx,0,8,7A,B1,07,00,BB,8D,08,00,
24582580,00000013,false,Rx,0,8,DE,8F,04,00,B2,2F,02,00,
24583890,00000014,false,Rx,0,4,3F,07,79,03,00,00,00,00,
24635857,00000011,false,Rx,0,8,CE,18,00,00,09,78,00,00,
24637469,00000012,false,Rx,0,8,79,CA,07,00,98,38,07,00,
24639056,00000013,false,Rx,0,8,75,9C,04,00,E2,F3,01,00,
24640345,00000014,false,Rx,0,4,53,07,1A,03,00,00,00,00,
24692353,00000011,false,Rx,0,8,5D,19,00,00,0F,55,00,00,
24693968,00000012,false,Rx,0,8,77,F7,07,00,F4,1D,05,00,
24695517,00000013,false,Rx,0,8,20,B3,04,00,72,95,01,00,
24696812,00000014,false,Rx,0,4,77,07,84,02,00,00,00,00,
24748866,00000011,false,Rx,0,8,91,19,00,00,E0,3B,00,00,
24750490,00000012,false,Rx,0,8,B7,07,08,00,22,9A,03,00,
24752061,00000013,false,Rx,0,8,4F,BB,04,00,74,51,01,00,
24753335,00000014,false,Rx,0,4,84,07,18,02,00,00,00,00,
24805651,00000011,false,Rx,0,8,A9,19,00,00,4A,28,00,00,
24806940,00000012,false,Rx,0,8,36,0F,08,00,7F,6C,02,00,
24808515,00000013,false,Rx,0,8,16,BF,04,00,91,1C,01,00,
24809812,00000014,false,Rx,0,4,8A,07,C4,01,00,00,00,00,
24861803,00000011,false,Rx,0,8,B5,19,00,00,88,1A,00,00,
24863416,00000012,false,Rx,0,8,F6,12,08,00,A1,98,01,00,
24864992,00000013,false,Rx,0,8,F9,C0,04,00,6C,F7,00,00,
24866295,00000014,false,Rx,0,4,8D,07,89,01,00,00,00,00,
24918334,00000011,false,Rx,0,8,BD,19,00,00,57,0F,00,00,
24919937,00000012,false,Rx,0,8,76,15,08,00,44,EC,00,00,
24921482,00000013,false,Rx,0,8,3C,C2,04,00,34,D9,00,00,
24922786,00000014,false,Rx,0,4,8F,07,59,01,00,00,00,00,
24974753,00000011,false,Rx,0,8,C1,19,00,00,A5,07,00,00,
24976375,00000012,false,Rx,0,8,B6,16,08,00,C4,75,00,00,
24977949,00000013,false,Rx,0,8,DD,C2,04,00,6D,C4,00,00,
24979246,00000014,false,Rx,0,4,90,07,38,01,00,00,00,00,
25031270,00000011,false,Rx,0,8,C9,19,00,00,37,03,00,00,
25032885,00000012,false,Rx,0,8,36,19,08,00,89,31,00,00,
25034460,00000013,false,Rx,0,8,1F,C4,04,00,77,B8,00,00,
25035770,00000014,false,Rx,0,4,92,07,25,01,00,00,00,00,
25087771,00000011,false,Rx,0,8,C9,19,00,00,95,01,00,00,
25089320,00000012,false,Rx,0,8,36,19,08,00,66,18,00,00,
25090906,00000013,false,Rx,0,8,1F,C4,04,00,0F,B4,00,00,
25092237,00000014,false,Rx,0,4,92,07,1E,01,00,00,00,00,
25144246,00000011,false,Rx,0,8,CD,19,00,00,A6,00,00,00,
25145863,00000012,false,Rx,0,8,76,1A,08,00,09,0A,00,00,
25147446,00000013,false,Rx,0,8,C0,C4,04,00,8A,B1,00,00,
25148720,00000014,false,Rx,0,4,93,07,1A,01,00,00,00,00,
25200690,00000011,false,Rx,0,8,CD,19,00,00,E2,00,00,00,
25202281,00000012,false,Rx,0,8,76,1A,08,00,A1,0D,00,00,
25203909,00000013,false,Rx,0,8,C0,C4,04,00,2B,B2,00,00,
25205148,00000014,false,Rx,0,4,93,07,1B,01,00,00,00,00,
25257137,00000011,false,Rx,0,8,D1,19,00,00,E2,00,00,00,
25258725,00000012,false,Rx,0,8,B6,1B,08,00,A1,0D,00,00,
25260306,00000013,false,Rx,0,8,62,C5,04,00,2B,B2,00,00,
25261604,00000014,false,Rx,0,4,94,07,1B,01,00,00,00,00,
25313645,00000011,false,Rx,0,8,D5,19,00,00,A6,00,00,00,
25315215,00000012,false,Rx,0,8,F6,1C,08,00,09,0A,00,00,
25316843,00000013,false,Rx,0,8,03,C6,04,00,8A,B1,00,00,
25318145,00000014,false,Rx,0,4,95,07,1A,01,00,00,00,00,
25370151,00000011,false,Rx,0,8,D1,19,00,00,A6,00,00,00,
25371699,00000012,false,Rx,0,8,B6,1B,08,00,09,0A,00,00,
25373344,00000013,false,Rx,0,8,62,C5,04,00,8A,B1,00,00,
25374580,00000014,false,Rx,0,4,94,07,1A,01,00,00,00,00,
25426554,00000011,false,Rx,0,8,D5,19,00,00,A6,00,00,00,
25428171,00000012,false,Rx,0,8,F6,1C,08,00,09,0A,00,00,
25429749,00000013,false,Rx,0,8,03,C6,04,00,8A,B1,00,00,
25431054,00000014,false,Rx,0,4,95,07,1A,01,00,00,00,00,
25483057,00000011,false,Rx,0,8,D5,19,00,00,E2,00,00,00,
25484704,00000012,false,Rx,0,8,F6,1C,08,00,A1,0D,00,00,
25486237,00000013,false,Rx,0,8,03,C6,04,00,2B,B2,00,00,
25487526,00000014,false,Rx,0,4,95,07,1B,01,00,00,00,00,
25539561,00000011,false,Rx,0,8,DD,19,00,00,A6,00,00,00,
25541103,00000012,false,Rx,0,8,76,1F,08,00,09,0A,00,00,
25542688,00000013,false,Rx,0,8,45,C7,04,00,8A,B1,00,00,
25543978,00000014,false,Rx,0,4,97,07,1A,01,00,00,00,00,
25595956,00000011,false,Rx,0,8,D9,19,00,00,A6,00,00,00,
25597604,00000012,false,Rx,0,8,36,1E,08,00,09,0A,00,00,
25599190,00000013,false,Rx,0,8,A4,C6,04,00,8A,B1,00,00,
25600472,00000014,false,Rx,0,4,96,07,1A,01,00,00,00,00,
25652511,00000011,false,Rx,0,8,D5,19,00,00,A6,00,00,00,
25654102,00000012,false,Rx,0,8,F6,1C,08,00,09,0A,00,00,
25655695,00000013,false,Rx,0,8,03,C6,04,00,8A,B1,00,00,
25656976,00000014,false,Rx,0,4,95,07,1A,01,00,00,00,00,
25708923,00000011,false,Rx,0,8,DD,19,00,00,A6,00,00,00,
25710517,00000012,false,Rx,0,8,76,1F,08,00,09,0A,00,00,
25712088,00000013,false,Rx,0,8,45,C7,04,00,8A,B1,00,00,
25713383,00000014,false,Rx,0,4,97,07,1A,01,00,00,00,00,
25765414,00000011,false,Rx,0,8,DD,19,00,00,E2,00,00,00,
25766992,00000012,false,Rx,0,8,76,1F,08,00,A1,0D,00,00,
25768567,00000013,false,Rx,0,8,45,C7,04,00,2B,B2,00,00,
25769848,00000014,false,Rx,0,4,97,07,1B,01,00,00,00,00,
25821879,00000011,false,Rx,0,8,DD,19,00,00,A6,00,00,00,
25823467,00000012,false,Rx,0,8,76,1F,08,00,09,0A,00,00,
25825012,00000013,false,Rx,0,8,45,C7,04,00,8A,B1,00,00,
25826315,00000014,false,Rx,0,4,97,07,1A,01,00,00,00,00,
25878309,00000011,false,Rx,0,8,DD,19,00,00,E2,00,00,00,
25879925,00000012,false,Rx,0,8,76,1F,08,00,A1,0D,00,00,
25881505,00000013,false,Rx,0,8,45,C7,04,00,2B,B2,00,00,
25882817,00000014,false,Rx,0,4,97,07,1B,01,00,00,00,00,
25935065,00000011,false,Rx,0,8,E1,19,00,00,A6,00,00,00,
25936456,00000012,false,Rx,0,8,B6,20,08,00,09,0A,00,00,
25938005,00000013,false,Rx,0,8,E6,C7,04,00,8A,B1,00,00,
25939280,00000014,false,Rx,0,4,98,07,1A,01,00,00,00,00,
25991290,00000011,false,Rx,0,8,DD,19,00,00,A6,00,00,00,
25992893,00000012,false,Rx,0,8,76,1F,08,00,09,0A,00,00,
25994467,00000013,false,Rx,0,8,45,C7,04,00,8A,B1,00,00,
25995752,00000014,false,Rx,0,4,97,07,1A,01,00,00,00,00,
26047788,00000011,false,Rx,0,8,DD,19,00,00,A6,00,00,00,
26049554,00000012,false,Rx,0,8,76,1F,08,00,09,0A,00,00,
26050956,00000013,false,Rx,0,8,45,C7,04,00,8A,B1,00,00,
26052258,00000014,false,Rx,0,4,97,07,1A,01,00,00,00,00,
26104293,00000011,false,Rx,0,8,DD,19,00,00,A6,00,00,00,
26105828,00000012,false,Rx,0,8,76,1F,08,00,09,0A,00,00,
26107434,00000013,false,Rx,0,8,45,C7,04,00,8A,B1,00,00,
26108775,00000014,false,Rx,0,4,97,07,1A,01,00,00,00,00,
