Time Stamp,ID,Extended,Dir,Bus,LEN,D1,D2,D3,D4,D5,D6,D7,D8
15037913,00000011,false,Rx,0,8,3B,15,00,00,A6,00,00,00,
15039506,00000012,false,Rx,0,8,03,AB,06,00,09,0A,00,00,
15041080,00000013,false,Rx,0,8,A8,0B,04,00,8A,B1,00,00,
15042367,00000014,false,Rx,0,4,6D,06,1A,01,00,00,00,00,
15094500,00000011,false,Rx,0,8,3F,15,00,00,A6,00,00,00,
15096154,00000012,false,Rx,0,8,43,AC,06,00,09,0A,00,00,
15097740,00000013,false,Rx,0,8,49,0C,04,00,8A,B1,00,00,
15098789,00000014,false,Rx,0,4,6E,06,1A,01,00,00,00,00,
15150747,00000011,false,Rx,0,8,3B,15,00,00,A6,00,00,00,
15152363,00000012,false,Rx,0,8,03,AB,06,00,09,0A,00,00,
15153935,00000013,false,Rx,0,8,A8,0B,04,00,8A,B1,00,00,
15155210,00000014,false,Rx,0,4,6D,06,1A,01,00,00,00,00,
15207195,00000011,false,Rx,0,8,3B,15,00,00,A6,00,00,00,
15208786,00000012,false,Rx,0,8,03,AB,06,00,09,0A,00,00,
15210359,00000013,false,Rx,0,8,A8,0B,04,00,8A,B1,00,00,
15211642,00000014,false,Rx,0,4,6D,06,1A,01,00,00,00,00,
15263593,00000011,false,Rx,0,8,3B,15,00,00,A6,00,00,00,
15265296,00000012,false,Rx,0,8,03,AB,06,00,09,0A,00,00,
15266797,00000013,false,Rx,0,8,A8,0B,04,00,8A,B1,00,00,
15268073,00000014,false,Rx,0,4,6D,06,1A,01,00,00,00,00,
15320053,00000011,false,Rx,0,8,3B,15,00,00,A6,00,00,00,
15321703,00000012,false,Rx,0,8,03,AB,06,00,09,0A,00,00,
15323275,00000013,false,Rx,0,8,A8,0B,04,00,8A,B1,00,00,
15324550,00000014,false,Rx,0,4,6D,06,1A,01,00,00,00,00,
15376543,00000011,false,Rx,0,8,3B,15,00,00,E2,00,00,00,
15378161,00000012,false,Rx,0,8,03,AB,06,00,A1,0D,00,00,
15379746,00000013,false,Rx,0,8,A8,0B,04,00,2B,B2,00,00,
15381012,00000014,false,Rx,0,4,6D,06,1B,01,00,00,00,00,
15432969,00000011,false,Rx,0,8,37,15,00,00,A6,00,00,00,
15434595,00000012,false,Rx,0,8,C3,A9,06,00,09,0A,00,00,
15436171,00000013,false,Rx,0,8,07,0B,04,00,8A,B1,00,00,
15437445,00000014,false,Rx,0,4,6C,06,1A,01,00,00,00,00,
15489445,00000011,false,Rx,0,8,3B,15,00,00,A6,00,00,00,
15491038,00000012,false,Rx,0,8,03,AB,06,00,09,0A,00,00,
15492610,00000013,false,Rx,0,8,A8,0B,04,00,8A,B1,00,00,
15493873,00000014,false,Rx,0,4,6D,06,1A,01,00,00,00,00,
15545905,00000011,false,Rx,0,8,3B,15,00,00,A6,00,00,00,
15547438,00000012,false,Rx,0,8,03,AB,06,00,09,0A,00,00,
15549015,00000013,false,Rx,0,8,A8,0B,04,00,8A,B1,00,00,
15550314,00000014,false,Rx,0,4,6D,06,1A,01,00,00,00,00,
15602303,00000011,false,Rx,0,8,3B,15,00,00,A6,00,00,00,
15603922,00000012,false,Rx,0,8,03,AB,06,00,09,0A,00,00,
15605494,00000013,false,Rx,0,8,A8,0B,04,00,8A,B1,00,00,
15606767,00000014,false,Rx,0,4,6D,06,1A,01,00,00,00,00,
15658764,00000011,false,Rx,0,8,37,15,00,00,A6,00,00,00,
15660329,00000012,false,Rx,0,8,C3,A9,06,00,09,0A,00,00,
15661913,00000013,false,Rx,0,8,07,0B,04,00,8A,B1,00,00,
15663211,00000014,false,Rx,0,4,6C,06,1A,01,00,00,00,00,
15715206,00000011,false,Rx,0,8,37,15,00,00,A6,00,00,00,
15716755,00000012,false,Rx,0,8,C3,A9,06,00,09,0A,00,00,
15718325,00000013,false,Rx,0,8,07,0B,04,00,8A,B1,00,00,
15719640,00000014,false,Rx,0,4,6C,06,1A,01,00,00,00,00,
15771591,00000011,false,Rx,0,8,37,15,00,00,A6,00,00,00,
15773182,00000012,false,Rx,0,8,C3,A9,06,00,09,0A,00,00,
15774752,00000013,false,Rx,0,8,07,0B,04,00,8A,B1,00,00,
15776046,00000014,false,Rx,0,4,6C,06,1A,01,00,00,00,00,
15828050,00000011,false,Rx,0,8,37,15,00,00,A6,00,00,00,
15829892,00000012,false,Rx,0,8,C3,A9,06,00,09,0A,00,00,
15831486,00000013,false,Rx,0,8,07,0B,04,00,8A,B1,00,00,
15832473,00000014,false,Rx,0,4,6C,06,1A,01,00,00,00,00,
15884455,00000011,false,Rx,0,8,37,15,00,00,A6,00,00,00,
15886072,00000012,false,Rx,0,8,C3,A9,06,00,09,0A,00,00,
15887620,00000013,false,Rx,0,8,07,0B,04,00,8A,B1,00,00,
15888920,00000014,false,Rx,0,4,6C,06,1A,01,00,00,00,00,
15940932,00000011,false,Rx,0,8,2F,15,00,00,A6,00,00,00,
15942631,00000012,false,Rx,0,8,43,A7,06,00,09,0A,00,00,
15944122,00000013,false,Rx,0,8,C4,09,04,00,8A,B1,00,00,
15945493,00000014,false,Rx,0,4,6A,06,1A,01,00,00,00,00,
15997382,00000011,false,Rx,0,8,33,15,00,00,E2,00,00,00,
15998975,00000012,false,Rx,0,8,83,A8,06,00,A1,0D,00,00,
16000536,00000013,false,Rx,0,8,65,0A,04,00,2B,B2,00,00,
16001838,00000014,false,Rx,0,4,6B,06,1B,01,00,00,00,00,
16053823,00000011,false,Rx,0,8,37,15,00,00,A6,00,00,00,
16055438,00000012,false,Rx,0,8,C3,A9,06,00,09,0A,00,00,
16057017,00000013,false,Rx,0,8,07,0B,04,00,8A,B1,00,00,
16058279,00000014,false,Rx,0,4,6C,06,1A,01,00,00,00,00,
16110278,00000011,false,Rx,0,8,37,15,00,00,A6,00,00,00,
16111848,00000012,false,Rx,0,8,C3,A9,06,00,09,0A,00,00,
16113513,00000013,false,Rx,0,8,07,0B,04,00,8A,B1,00,00,
16114726,00000014,false,Rx,0,4,6C,06,1A,01,00,00,00,00,
16166632,00000011,false,Rx,0,8,37,15,00,00,A6,00,00,00,
16168273,00000012,false,Rx,0,8,C3,A9,06,00,09,0A,00,00,
16169819,00000013,false,Rx,0,8,07,0B,04,00,8A,B1,00,00,
16171100,00000014,false,Rx,0,4,6C,06,1A,01,00,00,00,00,
16223083,00000011,false,Rx,0,8,33,15,00,00,A6,00,00,00,
16224717,00000012,false,Rx,0,8,83,A8,06,00,09,0A,00,00,
16226246,00000013,false,Rx,0,8,65,0A,04,00,8A,B1,00,00,
16227582,00000014,false,Rx,0,4,6B,06,1A,01,00,00,00,00,
16279801,00000011,false,Rx,0,8,37,15,00,00,A6,00,00,00,
16281395,00000012,false,Rx,0,8,C3,A9,06,00,09,0A,00,00,
16282703,00000013,false,Rx,0,8,07,0B,04,00,8A,B1,00,00,
16284008,00000014,false,Rx,0,4,6C,06,1A,01,00,00,00,00,
16335980,00000011,false,Rx,0,8,33,15,00,00,E2,00,00,00,
16337574,00000012,false,Rx,0,8,83,A8,06,00,A1,0D,00,00,
16339147,00000013,false,Rx,0,8,65,0A,04,00,2B,B2,00,00,
16340445,00000014,false,Rx,0,4,6B,06,1B,01,00,00,00,00,
16392708,00000011,false,Rx,0,8,33,15,00,00,A6,00,00,00,
16394307,00000012,false,Rx,0,8,83,A8,06,00,09,0A,00,00,
16395648,00000013,false,Rx,0,8,65,0A,04,00,8A,B1,00,00,
16396923,00000014,false,Rx,0,4,6B,06,1A,01,00,00,00,00,
16448886,00000011,false,Rx,0,8,33,15,00,00,A6,00,00,00,
16450453,00000012,false,Rx,0,8,83,A8,06,00,09,0A,00,00,
16452025,00000013,false,Rx,0,8,65,0A,04,00,8A,B1,00,00,
16453323,00000014,false,Rx,0,4,6B,06,1A,01,00,00,00,00,
16505284,00000011,false,Rx,0,8,33,15,00,00,A6,00,00,00,
16506872,00000012,false,Rx,0,8,83,A8,06,00,09,0A,00,00,
16508448,00000013,false,Rx,0,8,65,0A,04,00,8A,B1,00,00,
16509753,00000014,false,Rx,0,4,6B,06,1A,01,00,00,00,00,
16561978,00000011,false,Rx,0,8,37,15,00,00,A6,00,00,00,
16563530,00000012,false,Rx,0,8,C3,A9,06,00,09,0A,00,00,
16564911,00000013,false,Rx,0,8,07,0B,04,00,8A,B1,00,00,
16566152,00000014,false,Rx,0,4,6C,06,1A,01,00,00,00,00,
16618134,00000011,false,Rx,0,8,33,15,00,00,A6,00,00,00,
16619753,00000012,false,Rx,0,8,83,A8,06,00,09,0A,00,00,
16621300,00000013,false,Rx,0,8,65,0A,04,00,8A,B1,00,00,
16622629,00000014,false,Rx,0,4,6B,06,1A,01,00,00,00,00,
16674559,00000011,false,Rx,0,8,33,15,00,00,A6,00,00,00,
16676226,00000012,false,Rx,0,8,83,A8,06,00,09,0A,00,00,
16677754,00000013,false,Rx,0,8,65,0A,04,00,8A,B1,00,00,
16679303,00000014,false,Rx,0,4,6B,06,1A,01,00,00,00,00,
16731245,00000011,false,Rx,0,8,33,15,00,00,A6,00,00,00,
16732607,00000012,false,Rx,0,8,83,A8,06,00,09,0A,00,00,
16734156,00000013,false,Rx,0,8,65,0A,04,00,8A,B1,00,00,
16735454,00000014,false,Rx,0,4,6B,06,1A,01,00,00,00,00,
16787410,00000011,false,Rx,0,8,33,15,00,00,E2,00,00,00,
16789032,00000012,false,Rx,0,8,83,A8,06,00,A1,0D,00,00,
16790612,00000013,false,Rx,0,8,65,0A,04,00,2B,B2,00,00,
16791906,00000014,false,Rx,0,4,6B,06,1B,01,00,00,00,00,
16843883,00000011,false,Rx,0,8,33,15,00,00,A6,00,00,00,
16845699,00000012,false,Rx,0,8,83,A8,06,00,09,0A,00,00,
16847217,00000013,false,Rx,0,8,65,0A,04,00,8A,B1,00,00,
16848319,00000014,false,Rx,0,4,6B,06,1A,01,00,00,00,00,
16900258,00000011,false,Rx,0,8,33,15,00,00,A6,00,00,00,
16901857,00000012,false,Rx,0,8,83,A8,06,00,09,0A,00,00,
16903429,00000013,false,Rx,0,8,65,0A,04,00,8A,B1,00,00,
16904703,00000014,false,Rx,0,4,6B,06,1A,01,00,00,00,00,
16956713,00000011,false,Rx,0,8,33,15,00,00,A6,00,00,00,
16958346,00000012,false,Rx,0,8,83,A8,06,00,09,0A,00,00,
16959906,00000013,false,Rx,0,8,65,0A,04,00,8A,B1,00,00,
16961202,00000014,false,Rx,0,4,6B,06,1A,01,00,00,00,00,
17013165,00000011,false,Rx,0,8,33,15,00,00,A6,00,00,00,
17014740,00000012,false,Rx,0,8,83,A8,06,00,09,0A,00,00,
17016282,00000013,false,Rx,0,8,65,0A,04,00,8A,B1,00,00,
17017559,00000014,false,Rx,0,4,6B,06,1A,01,00,00,00,00,
17069573,00000011,false,Rx,0,8,33,15,00,00,A6,00,00,00,
17071174,00000012,false,Rx,0,8,83,A8,06,00,09,0A,00,00,
17072748,00000013,false,Rx,0,8,65,0A,04,00,8A,B1,00,00,
17074020,00000014,false,Rx,0,4,6B,06,1A,01,00,00,00,00,
17126164,00000011,false,Rx,0,8,33,15,00,00,A6,00,00,00,
17127618,00000012,false,Rx,0,8,83,A8,06,00,09,0A,00,00,
17129172,00000013,false,Rx,0,8,65,0A,04,00,8A,B1,00,00,
17130474,00000014,false,Rx,0,4,6B,06,1A,01,00,00,00,00,
17182427,00000011,false,Rx,0,8,2F,15,00,00,A6,00,00,00,
17184038,00000012,false,Rx,0,8,43,A7,06,00,09,0A,00,00,
17185585,00000013,false,Rx,0,8,C4,09,04,00,8A,B1,00,00,
17186884,00000014,false,Rx,0,4,6A,06,1A,01,00,00,00,00,
17238892,00000011,false,Rx,0,8,33,15,00,00,A6,00,00,00,
17240481,00000012,false,Rx,0,8,83,A8,06,00,09,0A,00,00,
17242055,00000013,false,Rx,0,8,65,0A,04,00,8A,B1,00,00,
17243373,00000014,false,Rx,0,4,6B,06,1A,01,00,00,00,00,
17295541,00000011,false,Rx,0,8,33,15,00,00,A6,00,00,00,
17297206,00000012,false,Rx,0,8,83,A8,06,00,09,0A,00,00,
17298516,00000013,false,Rx,0,8,65,0A,04,00,8A,B1,00,00,
17299786,00000014,false,Rx,0,4,6B,06,1A,01,00,00,00,00,
17351791,00000011,false,Rx,0,8,33,15,00,00,A6,00,00,00,
17353411,00000012,false,Rx,0,8,83,A8,06,00,09,0A,00,00,
17354959,00000013,false,Rx,0,8,65,0A,04,00,8A,B1,00,00,
17356257,00000014,false,Rx,0,4,6B,06,1A,01,00,00,00,00,
17408271,00000011,false,Rx,0,8,2F,15,00,00,A6,00,00,00,
17410108,00000012,false,Rx,0,8,43,A7,06,00,09,0A,00,00,
17411461,00000013,false,Rx,0,8,C4,09,04,00,8A,B1,00,00,
17412751,00000014,false,Rx,0,4,6A,06,1A,01,00,00,00,00,
17464737,00000011,false,Rx,0,8,55,10,00,00,47,09,00,00,
17466322,00000012,false,Rx,0,8,50,21,05,00,E7,8E,00,00,
17467912,00000013,false,Rx,0,8,56,45,03,00,D5,C8,00,00,
17469205,00000014,false,Rx,0,4,32,05,3F,01,00,00,00,00,
17521143,00000011,false,Rx,0,8,1E,13,00,00,8C,66,00,00,
17522732,00000012,false,Rx,0,8,09,01,06,00,46,2B,06,00,
17524514,00000013,false,Rx,0,8,08,B6,03,00,AA,C4,01,00,
17525815,00000014,false,Rx,0,4,E5,05,CF,02,00,00,00,00,
17577861,00000011,false,Rx,0,8,E2,15,00,00,00,7C,00,00,
17579459,00000012,false,Rx,0,8,81,DF,06,00,A3,75,07,00,
17580966,00000013,false,Rx,0,8,19,26,04,00,96,FE,01,00,
17582133,00000014,false,Rx,0,4,97,06,2B,03,00,00,00,00,
17634044,00000011,false,Rx,0,8,F2,15,00,00,9A,7A,00,00,
17635665,00000012,false,Rx,0,8,81,E4,06,00,18,60,07,00,
17637237,00000013,false,Rx,0,8,9E,28,04,00,CF,FA,01,00,
17638507,00000014,false,Rx,0,4,9B,06,25,03,00,00,00,00,
17690633,00000011,false,Rx,0,8,AA,15,00,00,E7,79,00,00,
17692135,00000012,false,Rx,0,8,01,CE,06,00,52,55,07,00,
17693865,00000013,false,Rx,0,8,49,1D,04,00,EC,F8,01,00,
17695207,00000014,false,Rx,0,4,89,06,22,03,00,00,00,00,
17746944,00000011,false,Rx,0,8,BE,15,00,00,AB,79,00,00,
17748525,00000012,false,Rx,0,8,41,D4,06,00,BB,51,07,00,
17750107,00000013,false,Rx,0,8,6E,20,04,00,4A,F8,01,00,
17751399,00000014,false,Rx,0,4,8E,06,21,03,00,00,00,00,
17803389,00000011,false,Rx,0,8,AE,15,00,00,F8,78,00,00,
17804964,00000012,false,Rx,0,8,41,CF,06,00,F5,46,07,00,
17806511,00000013,false,Rx,0,8,EA,1D,04,00,67,F6,01,00,
17807843,00000014,false,Rx,0,4,8A,06,1E,03,00,00,00,00,
17859846,00000011,false,Rx,0,8,A6,15,00,00,F8,78,00,00,
17861410,00000012,false,Rx,0,8,C2,CC,06,00,F5,46,07,00,
17863210,00000013,false,Rx,0,8,A7,1C,04,00,67,F6,01,00,
17864299,00000014,false,Rx,0,4,88,06,1E,03,00,00,00,00,
17916267,00000011,false,Rx,0,8,A2,15,00,00,81,78,00,00,
17917886,00000012,false,Rx,0,8,82,CB,06,00,C6,3F,07,00,
17919462,00000013,false,Rx,0,8,06,1C,04,00,25,F5,01,00,
17920735,00000014,false,Rx,0,4,87,06,1C,03,00,00,00,00,
17972875,00000011,false,Rx,0,8,9E,15,00,00,45,78,00,00,
17974356,00000012,false,Rx,0,8,42,CA,06,00,2F,3C,07,00,
17975912,00000013,false,Rx,0,8,65,1B,04,00,83,F4,01,00,
17977212,00000014,false,Rx,0,4,86,06,1B,03,00,00,00,00,
18029206,00000011,false,Rx,0,8,9A,15,00,00,09,78,00,00,
18030818,00000012,false,Rx,0,8,02,C9,06,00,98,38,07,00,
18032350,00000013,false,Rx,0,8,C4,1A,04,00,E2,F3,01,00,
18033626,00000014,false,Rx,0,4,85,06,1A,03,00,00,00,00,
18085620,00000011,false,Rx,0,8,9A,15,00,00,09,78,00,00,
18087211,00000012,false,Rx,0,8,02,C9,06,00,98,38,07,00,
18088787,00000013,false,Rx,0,8,C4,1A,04,00,E2,F3,01,00,
18090091,00000014,false,Rx,0,4,85,06,1A,03,00,00,00,00,
18142248,00000011,false,Rx,0,8,96,15,00,00,CE,77,00,00,
18143740,00000012,false,Rx,0,8,C2,C7,06,00,00,35,07,00,
18145384,00000013,false,Rx,0,8,23,1A,04,00,41,F3,01,00,
18146683,00000014,false,Rx,0,4,84,06,19,03,00,00,00,00,
18198613,00000011,false,Rx,0,8,9A,15,00,00,92,77,00,00,
18200240,00000012,false,Rx,0,8,02,C9,06,00,69,31,07,00,
18201790,00000013,false,Rx,0,8,C4,1A,04,00,A0,F2,01,00,
18203066,00000014,false,Rx,0,4,85,06,18,03,00,00,00,00,
18255039,00000011,false,Rx,0,8,9A,15,00,00,92,77,00,00,
18256620,00000012,false,Rx,0,8,02,C9,06,00,69,31,07,00,
18258204,00000013,false,Rx,0,8,C4,1A,04,00,A0,F2,01,00,
18259493,00000014,false,Rx,0,4,85,06,18,03,00,00,00,00,
18311523,00000011,false,Rx,0,8,9A,15,00,00,56,77,00,00,
18313140,00000012,false,Rx,0,8,02,C9,06,00,D2,2D,07,00,
18314727,00000013,false,Rx,0,8,C4,1A,04,00,FF,F1,01,00,
18315952,00000014,false,Rx,0,4,85,06,17,03,00,00,00,00,
18367927,00000011,false,Rx,0,8,9E,15,00,00,1B,77,00,00,
18369540,00000012,false,Rx,0,8,42,CA,06,00,3B,2A,07,00,
18371115,00000013,false,Rx,0,8,65,1B,04,00,5E,F1,01,00,
18372414,00000014,false,Rx,0,4,86,06,16,03,00,00,00,00,
18424374,00000011,false,Rx,0,8,9E,15,00,00,1B,77,00,00,
18426139,00000012,false,Rx,0,8,42,CA,06,00,3B,2A,07,00,
18427569,00000013,false,Rx,0,8,65,1B,04,00,5E,F1,01,00,
18428909,00000014,false,Rx,0,4,86,06,16,03,00,00,00,00,
18480895,00000011,false,Rx,0,8,9E,15,00,00,1B,77,00,00,
18482444,00000012,false,Rx,0,8,42,CA,06,00,3B,2A,07,00,
18484022,00000013,false,Rx,0,8,65,1B,04,00,5E,F1,01,00,
18485317,00000014,false,Rx,0,4,86,06,16,03,00,00,00,00,
18537300,00000011,false,Rx,0,8,A2,15,00,00,DF,76,00,00,
18538949,00000012,false,Rx,0,8,82,CB,06,00,A3,26,07,00,
18540541,00000013,false,Rx,0,8,06,1C,04,00,BC,F0,01,00,
18541839,00000014,false,Rx,0,4,87,06,15,03,00,00,00,00,
18593897,00000011,false,Rx,0,8,A6,15,00,00,DF,76,00,00,
18595515,00000012,false,Rx,0,8,C2,CC,06,00,A3,26,07,00,
18597093,00000013,false,Rx,0,8,A7,1C,04,00,BC,F0,01,00,
18598317,00000014,false,Rx,0,4,88,06,15,03,00,00,00,00,
18650273,00000011,false,Rx,0,8,A6,15,00,00,DF,76,00,00,
18651891,00000012,false,Rx,0,8,C2,CC,06,00,A3,26,07,00,
18653465,00000013,false,Rx,0,8,A7,1C,04,00,BC,F0,01,00,
18654770,00000014,false,Rx,0,4,88,06,15,03,00,00,00,00,
18706800,00000011,false,Rx,0,8,AA,15,00,00,A3,76,00,00,
18708429,00000012,false,Rx,0,8,01,CE,06,00,0C,23,07,00,
18709991,00000013,false,Rx,0,8,49,1D,04,00,1B,F0,01,00,
18711266,00000014,false,Rx,0,4,89,06,14,03,00,00,00,00,
18763293,00000011,false,Rx,0,8,AE,15,00,00,A3,76,00,00,
18764848,00000012,false,Rx,0,8,41,CF,06,00,0C,23,07,00,
18766418,00000013,false,Rx,0,8,EA,1D,04,00,1B,F0,01,00,
18767694,00000014,false,Rx,0,4,8A,06,14,03,00,00,00,00,
18819726,00000011,false,Rx,0,8,AA,15,00,00,A3,76,00,00,
18821350,00000012,false,Rx,0,8,01,CE,06,00,0C,23,07,00,
18822922,00000013,false,Rx,0,8,49,1D,04,00,1B,F0,01,00,
18824297,00000014,false,Rx,0,4,89,06,14,03,00,00,00,00,
18876253,00000011,false,Rx,0,8,AE,15,00,00,68,76,00,00,
18877966,00000012,false,Rx,0,8,41,CF,06,00,75,1F,07,00,
18879420,00000013,false,Rx,0,8,EA,1D,04,00,7A,EF,01,00,
18880700,00000014,false,Rx,0,4,8A,06,13,03,00,00,00,00,
18932650,00000011,false,Rx,0,8,B2,15,00,00,A3,76,00,00,
18934275,00000012,false,Rx,0,8,81,D0,06,00,0C,23,07,00,
18935844,00000013,false,Rx,0,8,8B,1E,04,00,1B,F0,01,00,
18937128,00000014,false,Rx,0,4,8B,06,14,03,00,00,00,00,
18989335,00000011,false,Rx,0,8,B2,15,00,00,68,76,00,00,
18990801,00000012,false,Rx,0,8,81,D0,06,00,75,1F,07,00,
18992501,00000013,false,Rx,0,8,8B,1E,04,00,7A,EF,01,00,
18993625,00000014,false,Rx,0,4,8B,06,13,03,00,00,00,00,
19045849,00000011,false,Rx,0,8,B6,15,00,00,2C,76,00,00,
19047327,00000012,false,Rx,0,8,C1,D1,06,00,DE,1B,07,00,
19048929,00000013,false,Rx,0,8,2C,1F,04,00,D9,EE,01,00,
19050202,00000014,false,Rx,0,4,8C,06,12,03,00,00,00,00,
19102184,00000011,false,Rx,0,8,BA,15,00,00,2C,76,00,00,
19103797,00000012,false,Rx,0,8,01,D3,06,00,DE,1B,07,00,
19105377,00000013,false,Rx,0,8,CD,1F,04,00,D9,EE,01,00,
19106677,00000014,false,Rx,0,4,8D,06,12,03,00,00,00,00,
19158693,00000011,false,Rx,0,8,BA,15,00,00,68,76,00,00,
19160326,00000012,false,Rx,0,8,01,D3,06,00,75,1F,07,00,
19162101,00000013,false,Rx,0,8,CD,1F,04,00,7A,EF,01,00,
19163401,00000014,false,Rx,0,4,8D,06,13,03,00,00,00,00,
19215114,00000011,false,Rx,0,8,BE,15,00,00,2C,76,00,00,
19216726,00000012,false,Rx,0,8,41,D4,06,00,DE,1B,07,00,
19218299,00000013,false,Rx,0,8,6E,20,04,00,D9,EE,01,00,
19219580,00000014,false,Rx,0,4,8E,06,12,03,00,00,00,00,
19271588,00000011,false,Rx,0,8,BA,15,00,00,F0,75,00,00,
19273226,00000012,false,Rx,0,8,01,D3,06,00,46,18,07,00,
19274754,00000013,false,Rx,0,8,CD,1F,04,00,38,EE,01,00,
19276082,00000014,false,Rx,0,4,8D,06,11,03,00,00,00,00,
19328034,00000011,false,Rx,0,8,C2,15,00,00,2C,76,00,00,
19329850,00000012,false,Rx,0,8,81,D5,06,00,DE,1B,07,00,
19331216,00000013,false,Rx,0,8,10,21,04,00,D9,EE,01,00,
19332451,00000014,false,Rx,0,4,8F,06,12,03,00,00,00,00,
19384406,00000011,false,Rx,0,8,C2,15,00,00,2C,76,00,00,
19386026,00000012,false,Rx,0,8,81,D5,06,00,DE,1B,07,00,
19387572,00000013,false,Rx,0,8,10,21,04,00,D9,EE,01,00,
19388877,00000014,false,Rx,0,4,8F,06,12,03,00,00,00,00,
19441108,00000011,false,Rx,0,8,A6,15,00,00,2C,76,00,00,
19442633,00000012,false,Rx,0,8,C2,CC,06,00,DE,1B,07,00,
19444252,00000013,false,Rx,0,8,A7,1C,04,00,D9,EE,01,00,
19445475,00000014,false,Rx,0,4,88,06,12,03,00,00,00,00,
19497286,00000011,false,Rx,0,8,A0,14,00,00,0B,71,00,00,
19498877,00000012,false,Rx,0,8,44,7A,06,00,DD,CC,06,00,
19500496,00000013,false,Rx,0,8,1A,F3,03,00,FF,E0,01,00,
19501761,00000014,false,Rx,0,4,46,06,FC,02,00,00,00,00,
19553708,00000011,false,Rx,0,8,33,15,00,00,66,50,00,00,
19555332,00000012,false,Rx,0,8,83,A8,06,00,22,D6,04,00,
19557082,00000013,false,Rx,0,8,65,0A,04,00,DB,88,01,00,
19558244,00000014,false,Rx,0,4,6B,06,70,02,00,00,00,00,
19610181,00000011,false,Rx,0,8,72,15,00,00,61,38,00,00,
19611760,00000012,false,Rx,0,8,82,BC,06,00,45,64,03,00,
19613363,00000013,false,Rx,0,8,78,14,04,00,02,48,01,00,
19614587,00000014,false,Rx,0,4,7B,06,09,02,00,00,00,00,
19666555,00000011,false,Rx,0,8,8E,15,00,00,BA,25,00,00,
19668139,00000012,false,Rx,0,8,42,C5,06,00,FF,44,02,00,
19669735,00000013,false,Rx,0,8,E0,18,04,00,A4,15,01,00,
19671039,00000014,false,Rx,0,4,82,06,B9,01,00,00,00,00,
19722938,00000011,false,Rx,0,8,9A,15,00,00,AB,18,00,00,
19724529,00000012,false,Rx,0,8,02,C9,06,00,E7,7B,01,00,
19726172,00000013,false,Rx,0,8,C4,1A,04,00,63,F2,00,00,
19727445,00000014,false,Rx,0,4,85,06,81,01,00,00,00,00,
19779561,00000011,false,Rx,0,8,A6,15,00,00,F1,0D,00,00,
19780971,00000012,false,Rx,0,8,C2,CC,06,00,B8,D6,00,00,
19782572,00000013,false,Rx,0,8,A7,1C,04,00,6D,D5,00,00,
19783836,00000014,false,Rx,0,4,88,06,53,01,00,00,00,00,
19835816,00000011,false,Rx,0,8,B2,15,00,00,F2,06,00,00,
19837436,00000012,false,Rx,0,8,81,D0,06,00,FE,6A,00,00,
19839010,00000013,false,Rx,0,8,8B,1E,04,00,8A,C2,00,00,
19840553,00000014,false,Rx,0,4,8B,06,35,01,00,00,00,00,
19892289,00000011,false,Rx,0,8,BA,15,00,00,37,03,00,00,
19893892,00000012,false,Rx,0,8,01,D3,06,00,89,31,00,00,
19895530,00000013,false,Rx,0,8,CD,1F,04,00,77,B8,00,00,
19896871,00000014,false,Rx,0,4,8D,06,25,01,00,00,00,00,
19948718,00000011,false,Rx,0,8,BA,15,00,00,D1,01,00,00,
19950349,00000012,false,Rx,0,8,01,D3,06,00,FE,1B,00,00,
19951916,00000013,false,Rx,0,8,CD,1F,04,00,B0,B4,00,00,
19953186,00000014,false,Rx,0,4,8D,06,1F,01,00,00,00,00,
20005168,00000011,false,Rx,0,8,C6,15,00,00,59,01,00,00,
20006754,00000012,false,Rx,0,8,C1,D6,06,00,CF,14,00,00,
20008367,00000013,false,Rx,0,8,B1,21,04,00,6E,B3,00,00,
20009635,00000014,false,Rx,0,4,90,06,1D,01,00,00,00,00,
20061863,00000011,false,Rx,0,8,CA,15,00,00,59,01,00,00,
20063491,00000012,false,Rx,0,8,01,D8,06,00,CF,14,00,00,
20064790,00000013,false,Rx,0,8,52,22,04,00,6E,B3,00,00,
20066058,00000014,false,Rx,0,4,91,06,1D,01,00,00,00,00,
20118037,00000011,false,Rx,0,8,D2,15,00,00,59,01,00,00,
20119658,00000012,false,Rx,0,8,81,DA,06,00,CF,14,00,00,
20121283,00000013,false,Rx,0,8,94,23,04,00,6E,B3,00,00,
20122544,00000014,false,Rx,0,4,93,06,1D,01,00,00,00,00,
20174595,00000011,false,Rx,0,8,D2,15,00,00,95,01,00,00,
20176158,00000012,false,Rx,0,8,81,DA,06,00,66,18,00,00,
20177853,00000013,false,Rx,0,8,94,23,04,00,0F,B4,00,00,
20179122,00000014,false,Rx,0,4,93,06,1E,01,00,00,00,00,
20230935,00000011,false,Rx,0,8,D6,15,00,00,1E,01,00,00,
20232564,00000012,false,Rx,0,8,C1,DB,06,00,38,11,00,00,
20234142,00000013,false,Rx,0,8,35,24,04,00,CC,B2,00,00,
20235411,00000014,false,Rx,0,4,94,06,1C,01,00,00,00,00,
20287406,00000011,false,Rx,0,8,DA,15,00,00,1E,01,00,00,
20289022,00000012,false,Rx,0,8,01,DD,06,00,38,11,00,00,
20290587,00000013,false,Rx,0,8,D7,24,04,00,CC,B2,00,00,
20291870,00000014,false,Rx,0,4,95,06,1C,01,00,00,00,00,
20343871,00000011,false,Rx,0,8,DE,15,00,00,1E,01,00,00,
20345702,00000012,false,Rx,0,8,41,DE,06,00,38,11,00,00,
20347012,00000013,false,Rx,0,8,78,25,04,00,CC,B2,00,00,
20348342,00000014,false,Rx,0,4,96,06,1C,01,00,00,00,00,
20400274,00000011,false,Rx,0,8,E2,15,00,00,59,01,00,00,
20401903,00000012,false,Rx,0,8,81,DF,06,00,CF,14,00,00,
20403475,00000013,false,Rx,0,8,19,26,04,00,6E,B3,00,00,
20404712,00000014,false,Rx,0,4,97,06,1D,01,00,00,00,00,
20456709,00000011,false,Rx,0,8,E2,15,00,00,1E,01,00,00,
20458325,00000012,false,Rx,0,8,81,DF,06,00,38,11,00,00,
20459910,00000013,false,Rx,0,8,19,26,04,00,CC,B2,00,00,
20461195,00000014,false,Rx,0,4,97,06,1C,01,00,00,00,00,
20513353,00000011,false,Rx,0,8,E2,15,00,00,1E,01,00,00,
20514754,00000012,false,Rx,0,8,81,DF,06,00,38,11,00,00,
20516321,00000013,false,Rx,0,8,19,26,04,00,CC,B2,00,00,
20517605,00000014,false,Rx,0,4,97,06,1C,01,00,00,00,00,
20569560,00000011,false,Rx,0,8,E6,15,00,00,1E,01,00,00,
20571178,00000012,false,Rx,0,8,C1,E0,06,00,38,11,00,00,
20572685,00000013,false,Rx,0,8,BA,26,04,00,CC,B2,00,00,
20574031,00000014,false,Rx,0,4,98,06,1C,01,00,00,00,00,
20626113,00000011,false,Rx,0,8,EA,15,00,00,1E,01,00,00,
20627587,00000012,false,Rx,0,8,01,E2,06,00,38,11,00,00,
20629179,00000013,false,Rx,0,8,5B,27,04,00,CC,B2,00,00,
20630412,00000014,false,Rx,0,4,99,06,1C,01,00,00,00,00,
20682395,00000011,false,Rx,0,8,EA,15,00,00,E2,00,00,00,
20684015,00000012,false,Rx,0,8,01,E2,06,00,A1,0D,00,00,
20685561,00000013,false,Rx,0,8,5B,27,04,00,2B,B2,00,00,
20686861,00000014,false,Rx,0,4,99,06,1B,01,00,00,00,00,
20738818,00000011,false,Rx,0,8,EA,15,00,00,1E,01,00,00,
20740639,00000012,false,Rx,0,8,01,E2,06,00,38,11,00,00,
20742281,00000013,false,Rx,0,8,5B,27,04,00,CC,B2,00,00,
20743332,00000014,false,Rx,0,4,99,06,1C,01,00,00,00,00,
20795530,00000011,false,Rx,0,8,EE,15,00,00,E2,00,00,00,
20796939,00000012,false,Rx,0,8,41,E3,06,00,A1,0D,00,00,
20798491,00000013,false,Rx,0,8,FC,27,04,00,2B,B2,00,00,
20799742,00000014,false,Rx,0,4,9A,06,1B,01,00,00,00,00,
20851721,00000011,false,Rx,0,8,F2,15,00,00,E2,00,00,00,
20853313,00000012,false,Rx,0,8,81,E4,06,00,A1,0D,00,00,
20854932,00000013,false,Rx,0,8,9E,28,04,00,2B,B2,00,00,
20856226,00000014,false,Rx,0,4,9B,06,1B,01,00,00,00,00,
20908199,00000011,false,Rx,0,8,F2,15,00,00,1E,01,00,00,
20910036,00000012,false,Rx,0,8,81,E4,06,00,38,11,00,00,
20911554,00000013,false,Rx,0,8,9E,28,04,00,CC,B2,00,00,
20912890,00000014,false,Rx,0,4,9B,06,1C,01,00,00,00,00,
20964604,00000011,false,Rx,0,8,F2,15,00,00,E2,00,00,00,
20966218,00000012,false,Rx,0,8,81,E4,06,00,A1,0D,00,00,
20967764,00000013,false,Rx,0,8,9E,28,04,00,2B,B2,00,00,
20969064,00000014,false,Rx,0,4,9B,06,1B,01,00,00,00,00,
21021066,00000011,false,Rx,0,8,F2,15,00,00,E2,00,00,00,
21022623,00000012,false,Rx,0,8,81,E4,06,00,A1,0D,00,00,
21024460,00000013,false,Rx,0,8,9E,28,04,00,2B,B2,00,00,
21025689,00000014,false,Rx,0,4,9B,06,1B,01,00,00,00,00,
21077674,00000011,false,Rx,0,8,F2,15,00,00,E2,00,00,00,
21079337,00000012,false,Rx,0,8,81,E4,06,00,A1,0D,00,00,
21080693,00000013,false,Rx,0,8,9E,28,04,00,2B,B2,00,00,
21081949,00000014,false,Rx,0,4,9B,06,1B,01,00,00,00,00,
21133955,00000011,false,Rx,0,8,F6,15,00,00,1E,01,00,00,
21135581,00000012,false,Rx,0,8,C1,E5,06,00,38,11,00,00,
21137132,00000013,false,Rx,0,8,3F,29,04,00,CC,B2,00,00,
21138423,00000014,false,Rx,0,4,9C,06,1C,01,00,00,00,00,
21190380,00000011,false,Rx,0,8,F2,15,00,00,E2,00,00,00,
21192159,00000012,false,Rx,0,8,81,E4,06,00,A1,0D,00,00,
21193816,00000013,false,Rx,0,8,9E,28,04,00,2B,B2,00,00,
21194850,00000014,false,Rx,0,4,9B,06,1B,01,00,00,00,00,
21246851,00000011,false,Rx,0,8,F6,15,00,00,1E,01,00,00,
21248421,00000012,false,Rx,0,8,C1,E5,06,00,38,11,00,00,
21249973,00000013,false,Rx,0,8,3F,29,04,00,CC,B2,00,00,
21251302,00000014,false,Rx,0,4,9C,06,1C,01,00,00,00,00,
21303225,00000011,false,Rx,0,8,F6,15,00,00,1E,01,00,00,
21304884,00000012,false,Rx,0,8,C1,E5,06,00,38,11,00,00,
21306452,00000013,false,Rx,0,8,3F,29,04,00,CC,B2,00,00,
21307728,00000014,false,Rx,0,4,9C,06,1C,01,00,00,00,00,
21359731,00000011,false,Rx,0,8,F6,15,00,00,1E,01,00,00,
21361339,00000012,false,Rx,0,8,C1,E5,06,00,38,11,00,00,
21363052,00000013,false,Rx,0,8,3F,29,04,00,CC,B2,00,00,
21364164,00000014,false,Rx,0,4,9C,06,1C,01,00,00,00,00,
21416101,00000011,false,Rx,0,8,40,14,00,00,1E,01,00,00,
21417698,00000012,false,Rx,0,8,46,5C,06,00,38,11,00,00,
21419295,00000013,false,Rx,0,8,FE,E3,03,00,CC,B2,00,00,
21420543,00000014,false,Rx,0,4,2E,06,1C,01,00,00,00,00,
21472524,00000011,false,Rx,0,8,47,12,00,00,27,5E,00,00,
21474185,00000012,false,Rx,0,8,8B,BD,05,00,00,AA,05,00,
21475812,00000013,false,Rx,0,8,09,94,03,00,00,AE,01,00,
21477193,00000014,false,Rx,0,4,AF,05,AB,02,00,00,00,00,
21529003,00000011,false,Rx,0,8,C2,15,00,00,C4,7B,00,00,
21530568,00000012,false,Rx,0,8,81,D5,06,00,0C,72,07,00,
21532148,00000013,false,Rx,0,8,10,21,04,00,F5,FD,01,00,
21533446,00000014,false,Rx,0,4,8F,06,2A,03,00,00,00,00,
21585400,00000011,false,Rx,0,8,F2,15,00,00,9A,7A,00,00,
21587031,00000012,false,Rx,0,8,81,E4,06,00,18,60,07,00,
21588605,00000013,false,Rx,0,8,9E,28,04,00,CF,FA,01,00,
21589871,00000014,false,Rx,0,4,9B,06,25,03,00,00,00,00,
21642113,00000011,false,Rx,0,8,D2,15,00,00,23,7A,00,00,
21643501,00000012,false,Rx,0,8,81,DA,06,00,E9,58,07,00,
21645077,00000013,false,Rx,0,8,94,23,04,00,8D,F9,01,00,
21646334,00000014,false,Rx,0,4,93,06,23,03,00,00,00,00,
21698300,00000011,false,Rx,0,8,BE,15,00,00,AB,79,00,00,
21699869,00000012,false,Rx,0,8,41,D4,06,00,BB,51,07,00,
21701443,00000013,false,Rx,0,8,6E,20,04,00,4A,F8,01,00,
21702743,00000014,false,Rx,0,4,8E,06,21,03,00,00,00,00,
21754697,00000011,false,Rx,0,8,B2,15,00,00,70,79,00,00,
21756533,00000012,false,Rx,0,8,81,D0,06,00,23,4E,07,00,
21758049,00000013,false,Rx,0,8,8B,1E,04,00,A9,F7,01,00,
21759449,00000014,false,Rx,0,4,8B,06,20,03,00,00,00,00,
21811426,00000011,false,Rx,0,8,A6,15,00,00,34,79,00,00,
21812904,00000012,false,Rx,0,8,C2,CC,06,00,8C,4A,07,00,
21814334,00000013,false,Rx,0,8,A7,1C,04,00,08,F7,01,00,
21815658,00000014,false,Rx,0,4,88,06,1F,03,00,00,00,00,
21867605,00000011,false,Rx,0,8,A2,15,00,00,BC,78,00,00,
21869224,00000012,false,Rx,0,8,82,CB,06,00,5E,43,07,00,
21870771,00000013,false,Rx,0,8,06,1C,04,00,C6,F5,01,00,
21872073,00000014,false,Rx,0,4,87,06,1D,03,00,00,00,00,
21924106,00000011,false,Rx,0,8,9E,15,00,00,BC,78,00,00,
21925769,00000012,false,Rx,0,8,42,CA,06,00,5E,43,07,00,
21927428,00000013,false,Rx,0,8,65,1B,04,00,C6,F5,01,00,
21928538,00000014,false,Rx,0,4,86,06,1D,03,00,00,00,00,
21980555,00000011,false,Rx,0,8,9A,15,00,00,81,78,00,00,
21982101,00000012,false,Rx,0,8,02,C9,06,00,C6,3F,07,00,
21983674,00000013,false,Rx,0,8,C4,1A,04,00,25,F5,01,00,
21984947,00000014,false,Rx,0,4,85,06,1C,03,00,00,00,00,
22036958,00000011,false,Rx,0,8,9A,15,00,00,81,78,00,00,
22038619,00000012,false,Rx,0,8,02,C9,06,00,C6,3F,07,00,
22040341,00000013,false,Rx,0,8,C4,1A,04,00,25,F5,01,00,
22041679,00000014,false,Rx,0,4,85,06,1C,03,00,00,00,00,
22093652,00000011,false,Rx,0,8,9A,15,00,00,45,78,00,00,
22095249,00000012,false,Rx,0,8,02,C9,06,00,2F,3C,07,00,
22096558,00000013,false,Rx,0,8,C4,1A,04,00,83,F4,01,00,
22097850,00000014,false,Rx,0,4,85,06,1B,03,00,00,00,00,
22149805,00000011,false,Rx,0,8,9A,15,00,00,45,78,00,00,
22151425,00000012,false,Rx,0,8,02,C9,06,00,2F,3C,07,00,
22153032,00000013,false,Rx,0,8,C4,1A,04,00,83,F4,01,00,
22154330,00000014,false,Rx,0,4,85,06,1B,03,00,00,00,00,
22206357,00000011,false,Rx,0,8,9A,15,00,00,45,78,00,00,
22207907,00000012,false,Rx,0,8,02,C9,06,00,2F,3C,07,00,
22209479,00000013,false,Rx,0,8,C4,1A,04,00,83,F4,01,00,
22210778,00000014,false,Rx,0,4,85,06,1B,03,00,00,00,00,
22262763,00000011,false,Rx,0,8,9A,15,00,00,CE,77,00,00,
22264352,00000012,false,Rx,0,8,02,C9,06,00,00,35,07,00,
22265962,00000013,false,Rx,0,8,C4,1A,04,00,41,F3,01,00,
22267266,00000014,false,Rx,0,4,85,06,19,03,00,00,00,00,
22319219,00000011,false,Rx,0,8,9A,15,00,00,CE,77,00,00,
22320833,00000012,false,Rx,0,8,02,C9,06,00,00,35,07,00,
22322382,00000013,false,Rx,0,8,C4,1A,04,00,41,F3,01,00,
22323681,00000014,false,Rx,0,4,85,06,19,03,00,00,00,00,
22375657,00000011,false,Rx,0,8,A2,15,00,00,CE,77,00,00,
22377448,00000012,false,Rx,0,8,82,CB,06,00,00,35,07,00,
22378991,00000013,false,Rx,0,8,06,1C,04,00,41,F3,01,00,
22380137,00000014,false,Rx,0,4,87,06,19,03,00,00,00,00,
22432137,00000011,false,Rx,0,8,A2,15,00,00,CE,77,00,00,
22433757,00000012,false,Rx,0,8,82,CB,06,00,00,35,07,00,
22435330,00000013,false,Rx,0,8,06,1C,04,00,41,F3,01,00,
22436600,00000014,false,Rx,0,4,87,06,19,03,00,00,00,00,
22488769,00000011,false,Rx,0,8,A2,15,00,00,92,77,00,00,
22490249,00000012,false,Rx,0,8,82,CB,06,00,69,31,07,00,
22491804,00000013,false,Rx,0,8,06,1C,04,00,A0,F2,01,00,
22493083,00000014,false,Rx,0,4,87,06,18,03,00,00,00,00,
22545088,00000011,false,Rx,0,8,A2,15,00,00,56,77,00,00,
22546636,00000012,false,Rx,0,8,82,CB,06,00,D2,2D,07,00,
22548242,00000013,false,Rx,0,8,06,1C,04,00,FF,F1,01,00,
22549535,00000014,false,Rx,0,4,87,06,17,03,00,00,00,00,
22601501,00000011,false,Rx,0,8,A2,15,00,00,92,77,00,00,
22603151,00000012,false,Rx,0,8,82,CB,06,00,69,31,07,00,
22604703,00000013,false,Rx,0,8,06,1C,04,00,A0,F2,01,00,
22606001,00000014,false,Rx,0,4,87,06,18,03,00,00,00,00,
22658241,00000011,false,Rx,0,8,AA,15,00,00,56,77,00,00,
22659607,00000012,false,Rx,0,8,01,CE,06,00,D2,2D,07,00,
22661180,00000013,false,Rx,0,8,49,1D,04,00,FF,F1,01,00,
22662580,00000014,false,Rx,0,4,89,06,17,03,00,00,00,00,
22714411,00000011,false,Rx,0,8,AA,15,00,00,56,77,00,00,
22716076,00000012,false,Rx,0,8,01,CE,06,00,D2,2D,07,00,
22717641,00000013,false,Rx,0,8,49,1D,04,00,FF,F1,01,00,
22718912,00000014,false,Rx,0,4,89,06,17,03,00,00,00,00,
22770859,00000011,false,Rx,0,8,AE,15,00,00,56,77,00,00,
22772736,00000012,false,Rx,0,8,41,CF,06,00,D2,2D,07,00,
22774240,00000013,false,Rx,0,8,EA,1D,04,00,FF,F1,01,00,
22775531,00000014,false,Rx,0,4,8A,06,17,03,00,00,00,00,
22827366,00000011,false,Rx,0,8,AE,15,00,00,56,77,00,00,
22828933,00000012,false,Rx,0,8,41,CF,06,00,D2,2D,07,00,
22830493,00000013,false,Rx,0,8,EA,1D,04,00,FF,F1,01,00,
22831814,00000014,false,Rx,0,4,8A,06,17,03,00,00,00,00,
22883791,00000011,false,Rx,0,8,AE,15,00,00,1B,77,00,00,
22885409,00000012,false,Rx,0,8,41,CF,06,00,3B,2A,07,00,
22886985,00000013,false,Rx,0,8,EA,1D,04,00,5E,F1,01,00,
22888285,00000014,false,Rx,0,4,8A,06,16,03,00,00,00,00,
22940517,00000011,false,Rx,0,8,B2,15,00,00,1B,77,00,00,
22942127,00000012,false,Rx,0,8,81,D0,06,00,3B,2A,07,00,
22943484,00000013,false,Rx,0,8,8B,1E,04,00,5E,F1,01,00,
22944790,00000014,false,Rx,0,4,8B,06,16,03,00,00,00,00,
22996737,00000011,false,Rx,0,8,B6,15,00,00,1B,77,00,00,
22998317,00000012,false,Rx,0,8,C1,D1,06,00,3B,2A,07,00,
22999921,00000013,false,Rx,0,8,2C,1F,04,00,5E,F1,01,00,
23001195,00000014,false,Rx,0,4,8C,06,16,03,00,00,00,00,
23053229,00000011,false,Rx,0,8,BA,15,00,00,DF,76,00,00,
23054829,00000012,false,Rx,0,8,01,D3,06,00,A3,26,07,00,
23056403,00000013,false,Rx,0,8,CD,1F,04,00,BC,F0,01,00,
23057937,00000014,false,Rx,0,4,8D,06,15,03,00,00,00,00,
23109848,00000011,false,Rx,0,8,BA,15,00,00,DF,76,00,00,
23111285,00000012,false,Rx,0,8,01,D3,06,00,A3,26,07,00,
23112859,00000013,false,Rx,0,8,CD,1F,04,00,BC,F0,01,00,
23114150,00000014,false,Rx,0,4,8D,06,15,03,00,00,00,00,
23166143,00000011,false,Rx,0,8,BE,15,00,00,DF,76,00,00,
23167743,00000012,false,Rx,0,8,41,D4,06,00,A3,26,07,00,
23169350,00000013,false,Rx,0,8,6E,20,04,00,BC,F0,01,00,
23170619,00000014,false,Rx,0,4,8E,06,15,03,00,00,00,00,
23222608,00000011,false,Rx,0,8,C2,15,00,00,DF,76,00,00,
23224211,00000012,false,Rx,0,8,81,D5,06,00,A3,26,07,00,
23225744,00000013,false,Rx,0,8,10,21,04,00,BC,F0,01,00,
23227242,00000014,false,Rx,0,4,8F,06,15,03,00,00,00,00,
23279093,00000011,false,Rx,0,8,C2,15,00,00,A3,76,00,00,
23280647,00000012,false,Rx,0,8,81,D5,06,00,0C,23,07,00,
23282190,00000013,false,Rx,0,8,10,21,04,00,1B,F0,01,00,
23283528,00000014,false,Rx,0,4,8F,06,14,03,00,00,00,00,
23335486,00000011,false,Rx,0,8,CA,15,00,00,DF,76,00,00,
23337093,00000012,false,Rx,0,8,01,D8,06,00,A3,26,07,00,
23338680,00000013,false,Rx,0,8,52,22,04,00,BC,F0,01,00,
23339953,00000014,false,Rx,0,4,91,06,15,03,00,00,00,00,
23391925,00000011,false,Rx,0,8,C6,15,00,00,A3,76,00,00,
23393752,00000012,false,Rx,0,8,C1,D6,06,00,0C,23,07,00,
23395331,00000013,false,Rx,0,8,B1,21,04,00,1B,F0,01,00,
23396393,00000014,false,Rx,0,4,90,06,14,03,00,00,00,00,
23448316,00000011,false,Rx,0,8,CA,15,00,00,A3,76,00,00,
23449964,00000012,false,Rx,0,8,01,D8,06,00,0C,23,07,00,
23451523,00000013,false,Rx,0,8,52,22,04,00,1B,F0,01,00,
23452823,00000014,false,Rx,0,4,91,06,14,03,00,00,00,00,
23504747,00000011,false,Rx,0,8,C6,15,00,00,A3,76,00,00,
23506415,00000012,false,Rx,0,8,C1,D6,06,00,0C,23,07,00,
23507912,00000013,false,Rx,0,8,B1,21,04,00,1B,F0,01,00,
23509210,00000014,false,Rx,0,4,90,06,14,03,00,00,00,00,
23561227,00000011,false,Rx,0,8,CE,15,00,00,01,75,00,00,
23562792,00000012,false,Rx,0,8,41,D9,06,00,E9,09,07,00,
23564376,00000013,false,Rx,0,8,F3,22,04,00,B3,EB,01,00,
23565643,00000014,false,Rx,0,4,92,06,0D,03,00,00,00,00,
23617626,00000011,false,Rx,0,8,CE,15,00,00,68,76,00,00,
23619217,00000012,false,Rx,0,8,41,D9,06,00,75,1F,07,00,
23620790,00000013,false,Rx,0,8,F3,22,04,00,7A,EF,01,00,
23622179,00000014,false,Rx,0,4,92,06,13,03,00,00,00,00,
23674178,00000011,false,Rx,0,8,D2,15,00,00,A3,76,00,00,
23675691,00000012,false,Rx,0,8,81,DA,06,00,0C,23,07,00,
23677265,00000013,false,Rx,0,8,94,23,04,00,1B,F0,01,00,
23678647,00000014,false,Rx,0,4,93,06,14,03,00,00,00,00,
23730501,00000011,false,Rx,0,8,D2,15,00,00,68,76,00,00,
23732101,00000012,false,Rx,0,8,81,DA,06,00,75,1F,07,00,
23733669,00000013,false,Rx,0,8,94,23,04,00,7A,EF,01,00,
23734967,00000014,false,Rx,0,4,93,06,13,03,00,00,00,00,
23786925,00000011,false,Rx,0,8,D6,15,00,00,68,76,00,00,
23788516,00000012,false,Rx,0,8,C1,DB,06,00,75,1F,07,00,
23790063,00000013,false,Rx,0,8,35,24,04,00,7A,EF,01,00,
23791362,00000014,false,Rx,0,4,94,06,13,03,00,00,00,00,
23843442,00000011,false,Rx,0,8,D6,15,00,00,68,76,00,00,
23845070,00000012,false,Rx,0,8,C1,DB,06,00,75,1F,07,00,
23846529,00000013,false,Rx,0,8,35,24,04,00,7A,EF,01,00,
23847793,00000014,false,Rx,0,4,94,06,13,03,00,00,00,00,
23899777,00000011,false,Rx,0,8,DA,15,00,00,68,76,00,00,
23901395,00000012,false,Rx,0,8,01,DD,06,00,75,1F,07,00,
23902970,00000013,false,Rx,0,8,D7,24,04,00,7A,EF,01,00,
23904270,00000014,false,Rx,0,4,95,06,13,03,00,00,00,00,
23956372,00000011,false,Rx,0,8,DA,15,00,00,68,76,00,00,
23957858,00000012,false,Rx,0,8,01,DD,06,00,75,1F,07,00,
23959416,00000013,false,Rx,0,8,D7,24,04,00,7A,EF,01,00,
23960735,00000014,false,Rx,0,4,95,06,13,03,00,00,00,00,
24012655,00000011,false,Rx,0,8,DA,15,00,00,2C,76,00,00,
24014280,00000012,false,Rx,0,8,01,DD,06,00,DE,1B,07,00,
24015850,00000013,false,Rx,0,8,D7,24,04,00,D9,EE,01,00,
24017271,00000014,false,Rx,0,4,95,06,12,03,00,00,00,00,
24069204,00000011,false,Rx,0,8,B6,15,00,00,68,76,00,00,
24070822,00000012,false,Rx,0,8,C1,D1,06,00,75,1F,07,00,
24072648,00000013,false,Rx,0,8,2C,1F,04,00,7A,EF,01,00,
24073923,00000014,false,Rx,0,4,8C,06,13,03,00,00,00,00,
24125899,00000011,false,Rx,0,8,78,14,00,00,68,76,00,00,
24127245,00000012,false,Rx,0,8,C5,6D,06,00,75,1F,07,00,
24128823,00000013,false,Rx,0,8,CE,EC,03,00,7A,EF,01,00,
24130128,00000014,false,Rx,0,4,3C,06,13,03,00,00,00,00,
24182104,00000011,false,Rx,0,8,DB,14,00,00,86,5C,00,00,
24183722,00000012,false,Rx,0,8,04,8D,06,00,DD,90,05,00,
24185297,00000013,false,Rx,0,8,8C,FC,03,00,98,A9,01,00,
24186584,00000014,false,Rx,0,4,55,06,A4,02,00,00,00,00,
24238630,00000011,false,Rx,0,8,37,15,00,00,C6,40,00,00,
24240196,00000012,false,Rx,0,8,C3,A9,06,00,8B,E5,03,00,
24241891,00000013,false,Rx,0,8,07,0B,04,00,AC,5E,01,00,
24243106,00000014,false,Rx,0,4,6C,06,2D,02,00,00,00,00,
24295245,00000011,false,Rx,0,8,5F,15,00,00,7D,2C,00,00,
24296638,00000012,false,Rx,0,8,42,B6,06,00,22,AD,02,00,
24298202,00000013,false,Rx,0,8,52,11,04,00,E6,27,01,00,
24299476,00000014,false,Rx,0,4,76,06,D6,01,00,00,00,00,
24351504,00000011,false,Rx,0,8,7A,15,00,00,90,1D,00,00,
24353117,00000012,false,Rx,0,8,02,BF,06,00,50,C7,01,00,
24354640,00000013,false,Rx,0,8,BA,15,04,00,9B,FF,00,00,
24355973,00000014,false,Rx,0,4,7D,06,96,01,00,00,00,00,
24408095,00000011,false,Rx,0,8,8A,15,00,00,E8,11,00,00,
24409727,00000012,false,Rx,0,8,02,C4,06,00,C4,13,01,00,
24411152,00000013,false,Rx,0,8,3F,18,04,00,21,E0,00,00,
24412418,00000014,false,Rx,0,4,81,06,64,01,00,00,00,00,
24464437,00000011,false,Rx,0,8,96,15,00,00,83,09,00,00,
24466051,00000012,false,Rx,0,8,C2,C7,06,00,7E,92,00,00,
24467597,00000013,false,Rx,0,8,23,1A,04,00,77,C9,00,00,
24468870,00000014,false,Rx,0,4,84,06,40,01,00,00,00,00,
24520964,00000011,false,Rx,0,8,9E,15,00,00,26,04,00,00,
24522619,00000012,false,Rx,0,8,42,CA,06,00,E6,3F,00,00,
24524124,00000013,false,Rx,0,8,65,1B,04,00,FC,BA,00,00,
24525494,00000014,false,Rx,0,4,86,06,29,01,00,00,00,00,
24577526,00000011,false,Rx,0,8,A6,15,00,00,0D,02,00,00,
24579032,00000012,false,Rx,0,8,C2,CC,06,00,95,1F,00,00,
24580591,00000013,false,Rx,0,8,A7,1C,04,00,51,B5,00,00,
24581855,00000014,false,Rx,0,4,88,06,20,01,00,00,00,00,
24633888,00000011,false,Rx,0,8,B2,15,00,00,95,01,00,00,
24635546,00000012,false,Rx,0,8,81,D0,06,00,66,18,00,00,
24637095,00000013,false,Rx,0,8,8B,1E,04,00,0F,B4,00,00,
24638397,00000014,false,Rx,0,4,8B,06,1E,01,00,00,00,00,
24690421,00000011,false,Rx,0,8,B6,15,00,00,59,01,00,00,
24692026,00000012,false,Rx,0,8,C1,D1,06,00,CF,14,00,00,
24693752,00000013,false,Rx,0,8,2C,1F,04,00,6E,B3,00,00,
24695044,00000014,false,Rx,0,4,8C,06,1D,01,00,00,00,00,
24746872,00000011,false,Rx,0,8,BE,15,00,00,59,01,00,00,
24748475,00000012,false,Rx,0,8,41,D4,06,00,CF,14,00,00,
24750060,00000013,false,Rx,0,8,6E,20,04,00,6E,B3,00,00,
24751368,00000014,false,Rx,0,4,8E,06,1D,01,00,00,00,00,
24803395,00000011,false,Rx,0,8,BE,15,00,00,59,01,00,00,
24805253,00000012,false,Rx,0,8,41,D4,06,00,CF,14,00,00,
24806620,00000013,false,Rx,0,8,6E,20,04,00,6E,B3,00,00,
24807824,00000014,false,Rx,0,4,8E,06,1D,01,00,00,00,00,
24859905,00000011,false,Rx,0,8,C2,15,00,00,1E,01,00,00,
24861732,00000012,false,Rx,0,8,81,D5,06,00,38,11,00,00,
24863090,00000013,false,Rx,0,8,10,21,04,00,CC,B2,00,00,
24864374,00000014,false,Rx,0,4,8F,06,1C,01,00,00,00,00,
24916356,00000011,false,Rx,0,8,CA,15,00,00,1E,01,00,00,
24917975,00000012,false,Rx,0,8,01,D8,06,00,38,11,00,00,
24919805,00000013,false,Rx,0,8,52,22,04,00,CC,B2,00,00,
24921085,00000014,false,Rx,0,4,91,06,1C,01,00,00,00,00,
24973087,00000011,false,Rx,0,8,CE,15,00,00,1E,01,00,00,
24974675,00000012,false,Rx,0,8,41,D9,06,00,38,11,00,00,
24976053,00000013,false,Rx,0,8,F3,22,04,00,CC,B2,00,00,
24977402,00000014,false,Rx,0,4,92,06,1C,01,00,00,00,00,
25029374,00000011,false,Rx,0,8,D2,15,00,00,1E,01,00,00,
25030961,00000012,false,Rx,0,8,81,DA,06,00,38,11,00,00,
25032512,00000013,false,Rx,0,8,94,23,04,00,CC,B2,00,00,
25033812,00000014,false,Rx,0,4,93,06,1C,01,00,00,00,00,
25085831,00000011,false,Rx,0,8,EA,15,00,00,1E,01,00,00,
25087447,00000012,false,Rx,0,8,01,E2,06,00,38,11,00,00,
25088957,00000013,false,Rx,0,8,5B,27,04,00,CC,B2,00,00,
25090253,00000014,false,Rx,0,4,99,06,1C,01,00,00,00,00,
25142419,00000011,false,Rx,0,8,DA,15,00,00,1E,01,00,00,
25144078,00000012,false,Rx,0,8,01,DD,06,00,38,11,00,00,
25145494,00000013,false,Rx,0,8,D7,24,04,00,CC,B2,00,00,
25146750,00000014,false,Rx,0,4,95,06,1C,01,00,00,00,00,
25198810,00000011,false,Rx,0,8,DE,15,00,00,1E,01,00,00,
25200430,00000012,false,Rx,0,8,41,DE,06,00,38,11,00,00,
25202005,00000013,false,Rx,0,8,78,25,04,00,CC,B2,00,00,
25203559,00000014,false,Rx,0,4,96,06,1C,01,00,00,00,00,
25255557,00000011,false,Rx,0,8,DE,15,00,00,1E,01,00,00,
25257192,00000012,false,Rx,0,8,41,DE,06,00,38,11,00,00,
25258672,00000013,false,Rx,0,8,78,25,04,00,CC,B2,00,00,
25259808,00000014,false,Rx,0,4,96,06,1C,01,00,00,00,00,
25311814,00000011,false,Rx,0,8,E2,15,00,00,E2,00,00,00,
25313429,00000012,false,Rx,0,8,81,DF,06,00,A1,0D,00,00,
25315007,00000013,false,Rx,0,8,19,26,04,00,2B,B2,00,00,
25316281,00000014,false,Rx,0,4,97,06,1B,01,00,00,00,00,
25368336,00000011,false,Rx,0,8,E6,15,00,00,1E,01,00,00,
25370102,00000012,false,Rx,0,8,C1,E0,06,00,38,11,00,00,
25371595,00000013,false,Rx,0,8,BA,26,04,00,CC,B2,00,00,
25373036,00000014,false,Rx,0,4,98,06,1C,01,00,00,00,00,
25424839,00000011,false,Rx,0,8,E6,15,00,00,E2,00,00,00,
25426456,00000012,false,Rx,0,8,C1,E0,06,00,A1,0D,00,00,
25428006,00000013,false,Rx,0,8,BA,26,04,00,2B,B2,00,00,
25429304,00000014,false,Rx,0,4,98,06,1B,01,00,00,00,00,
25481288,00000011,false,Rx,0,8,E6,15,00,00,1E,01,00,00,
25482931,00000012,false,Rx,0,8,C1,E0,06,00,38,11,00,00,
25484479,00000013,false,Rx,0,8,BA,26,04,00,CC,B2,00,00,
25485966,00000014,false,Rx,0,4,98,06,1C,01,00,00,00,00,
25538046,00000011,false,Rx,0,8,EA,15,00,00,E2,00,00,00,
25539434,00000012,false,Rx,0,8,01,E2,06,00,A1,0D,00,00,
25541011,00000013,false,Rx,0,8,5B,27,04,00,2B,B2,00,00,
25542368,00000014,false,Rx,0,4,99,06,1B,01,00,00,00,00,
25594404,00000011,false,Rx,0,8,EE,15,00,00,E2,00,00,00,
25595899,00000012,false,Rx,0,8,41,E3,06,00,A1,0D,00,00,
25597459,00000013,false,Rx,0,8,FC,27,04,00,2B,B2,00,00,
25598785,00000014,false,Rx,0,4,9A,06,1B,01,00,00,00,00,
25650818,00000011,false,Rx,0,8,EE,15,00,00,1E,01,00,00,
25652428,00000012,false,Rx,0,8,41,E3,06,00,38,11,00,00,
25654013,00000013,false,Rx,0,8,FC,27,04,00,CC,B2,00,00,
25655304,00000014,false,Rx,0,4,9A,06,1C,01,00,00,00,00,
25707324,00000011,false,Rx,0,8,EE,15,00,00,E2,00,00,00,
25708940,00000012,false,Rx,0,8,41,E3,06,00,A1,0D,00,00,
25710634,00000013,false,Rx,0,8,FC,27,04,00,2B,B2,00,00,
25711814,00000014,false,Rx,0,4,9A,06,1B,01,00,00,00,00,
25763772,00000011,false,Rx,0,8,F2,15,00,00,1E,01,00,00,
25765441,00000012,false,Rx,0,8,81,E4,06,00,38,11,00,00,
25767005,00000013,false,Rx,0,8,9E,28,04,00,CC,B2,00,00,
25768298,00000014,false,Rx,0,4,9B,06,1C,01,00,00,00,00,
25820328,00000011,false,Rx,0,8,F2,15,00,00,1E,01,00,00,
25821956,00000012,false,Rx,0,8,81,E4,06,00,38,11,00,00,
25823540,00000013,false,Rx,0,8,9E,28,04,00,CC,B2,00,00,
25824842,00000014,false,Rx,0,4,9B,06,1C,01,00,00,00,00,
25876845,00000011,false,Rx,0,8,F2,15,00,00,E2,00,00,00,
25878464,00000012,false,Rx,0,8,81,E4,06,00,A1,0D,00,00,
25880024,00000013,false,Rx,0,8,9E,28,04,00,2B,B2,00,00,
25881324,00000014,false,Rx,0,4,9B,06,1B,01,00,00,00,00,
25933314,00000011,false,Rx,0,8,F6,15,00,00,1E,01,00,00,
25934931,00000012,false,Rx,0,8,C1,E5,06,00,38,11,00,00,
25936505,00000013,false,Rx,0,8,3F,29,04,00,CC,B2,00,00,
25937771,00000014,false,Rx,0,4,9C,06,1C,01,00,00,00,00,
25989749,00000011,false,Rx,0,8,FA,15,00,00,1E,01,00,00,
25991420,00000012,false,Rx,0,8,01,E7,06,00,38,11,00,00,
25992993,00000013,false,Rx,0,8,E0,29,04,00,CC,B2,00,00,
25994254,00000014,false,Rx,0,4,9D,06,1C,01,00,00,00,00,
26046241,00000011,false,Rx,0,8,F6,15,00,00,1E,01,00,00,
26047847,00000012,false,Rx,0,8,C1,E5,06,00,38,11,00,00,
26049432,00000013,false,Rx,0,8,3F,29,04,00,CC,B2,00,00,
26050717,00000014,false,Rx,0,4,9C,06,1C,01,00,00,00,00,
26102762,00000011,false,Rx,0,8,FA,15,00,00,E2,00,00,00,
26104387,00000012,false,Rx,0,8,01,E7,06,00,A1,0D,00,00,
26105932,00000013,false,Rx,0,8,E0,29,04,00,2B,B2,00,00,
26107363,00000014,false,Rx,0,4,9D,06,1B,01,00,00,00,00,
26159469,00000011,false,Rx,0,8,FA,15,00,00,E2,00,00,00,
26161069,00000012,false,Rx,0,8,01,E7,06,00,A1,0D,00,00,
26162384,00000013,false,Rx,0,8,E0,29,04,00,2B,B2,00,00,
26163695,00000014,false,Rx,0,4,9D,06,1B,01,00,00,00,00,
26215674,00000011,false,Rx,0,8,FA,15,00,00,E2,00,00,00,
26217293,00000012,false,Rx,0,8,01,E7,06,00,A1,0D,00,00,
26218868,00000013,false,Rx,0,8,E0,29,04,00,2B,B2,00,00,
26220144,00000014,false,Rx,0,4,9D,06,1B,01,00,00,00,00,
26272271,00000011,false,Rx,0,8,FA,15,00,00,E2,00,00,00,
26273886,00000012,false,Rx,0,8,01,E7,06,00,A1,0D,00,00,
26275340,00000013,false,Rx,0,8,E0,29,04,00,2B,B2,00,00,
26276643,00000014,false,Rx,0,4,9D,06,1B,01,00,00,00,00,
26328604,00000011,false,Rx,0,8,FA,15,00,00,1E,01,00,00,
26330190,00000012,false,Rx,0,8,01,E7,06,00,38,11,00,00,
26331767,00000013,false,Rx,0,8,E0,29,04,00,CC,B2,00,00,
26333070,00000014,false,Rx,0,4,9D,06,1C,01,00,00,00,00,
26385055,00000011,false,Rx,0,8,FE,15,00,00,E2,00,00,00,
26386671,00000012,false,Rx,0,8,41,E8,06,00,A1,0D,00,00,
26388255,00000013,false,Rx,0,8,81,2A,04,00,2B,B2,00,00,
26389520,00000014,false,Rx,0,4,9E,06,1B,01,00,00,00,00,
26441741,00000011,false,Rx,0,8,FE,15,00,00,00,00,00,00,
26443366,00000012,false,Rx,0,8,41,E8,06,00,00,00,00,00,
26444735,00000013,false,Rx,0,8,81,2A,04,00,C3,AD,00,00,
26445952,00000014,false,Rx,0,4,9E,06,14,01,00,00,00,00,
26497962,00000011,false,Rx,0,8,F6,15,00,00,E2,00,00,00,
26499578,00000012,false,Rx,0,8,C1,E5,06,00,A1,0D,00,00,
26501136,00000013,false,Rx,0,8,3F,29,04,00,2B,B2,00,00,
26502430,00000014,false,Rx,0,4,9C,06,1B,01,00,00,00,00,
26554450,00000011,false,Rx,0,8,29,10,00,00,B4,48,00,00,
26556043,00000012,false,Rx,0,8,91,13,05,00,A2,5F,04,00,
26557845,00000013,false,Rx,0,8,6A,3E,03,00,14,74,01,00,
26559142,00000014,false,Rx,0,4,27,05,4F,02,00,00,00,00,
26611118,00000011,false,Rx,0,8,43,15,00,00,F8,78,00,00,
26612502,00000012,false,Rx,0,8,83,AD,06,00,F5,46,07,00,
26614052,00000013,false,Rx,0,8,EA,0C,04,00,67,F6,01,00,
26615323,00000014,false,Rx,0,4,6F,06,1E,03,00,00,00,00,
26667303,00000011,false,Rx,0,8,FE,15,00,00,23,7A,00,00,
26668927,00000012,false,Rx,0,8,41,E8,06,00,E9,58,07,00,
26670475,00000013,false,Rx,0,8,81,2A,04,00,8D,F9,01,00,
26671773,00000014,false,Rx,0,4,9E,06,23,03,00,00,00,00,
26723776,00000011,false,Rx,0,8,DA,15,00,00,70,79,00,00,
26725413,00000012,false,Rx,0,8,01,DD,06,00,23,4E,07,00,
26726965,00000013,false,Rx,0,8,D7,24,04,00,A9,F7,01,00,
26728229,00000014,false,Rx,0,4,95,06,20,03,00,00,00,00,
26780232,00000011,false,Rx,0,8,C2,15,00,00,BC,78,00,00,
26781852,00000012,false,Rx,0,8,81,D5,06,00,5E,43,07,00,
26783427,00000013,false,Rx,0,8,10,21,04,00,C6,F5,01,00,
26784723,00000014,false,Rx,0,4,8F,06,1D,03,00,00,00,00,
26836705,00000011,false,Rx,0,8,B2,15,00,00,81,78,00,00,
26838371,00000012,false,Rx,0,8,81,D0,06,00,C6,3F,07,00,
26839925,00000013,false,Rx,0,8,8B,1E,04,00,25,F5,01,00,
26841194,00000014,false,Rx,0,4,8B,06,1C,03,00,00,00,00,
26893203,00000011,false,Rx,0,8,AA,15,00,00,09,78,00,00,
26894805,00000012,false,Rx,0,8,01,CE,06,00,98,38,07,00,
26896378,00000013,false,Rx,0,8,49,1D,04,00,E2,F3,01,00,
26897626,00000014,false,Rx,0,4,89,06,1A,03,00,00,00,00,
26949653,00000011,false,Rx,0,8,A2,15,00,00,09,78,00,00,
26951277,00000012,false,Rx,0,8,82,CB,06,00,98,38,07,00,
26952826,00000013,false,Rx,0,8,06,1C,04,00,E2,F3,01,00,
26954126,00000014,false,Rx,0,4,87,06,1A,03,00,00,00,00,
27006234,00000011,false,Rx,0,8,9E,15,00,00,09,78,00,00,
27007726,00000012,false,Rx,0,8,42,CA,06,00,98,38,07,00,
27009301,00000013,false,Rx,0,8,65,1B,04,00,E2,F3,01,00,
27010592,00000014,false,Rx,0,4,86,06,1A,03,00,00,00,00,
27062602,00000011,false,Rx,0,8,9A,15,00,00,92,77,00,00,
27064205,00000012,false,Rx,0,8,02,C9,06,00,69,31,07,00,
27065753,00000013,false,Rx,0,8,C4,1A,04,00,A0,F2,01,00,
27067050,00000014,false,Rx,0,4,85,06,18,03,00,00,00,00,
27119034,00000011,false,Rx,0,8,9A,15,00,00,56,77,00,00,
27120620,00000012,false,Rx,0,8,02,C9,06,00,D2,2D,07,00,
27122249,00000013,false,Rx,0,8,C4,1A,04,00,FF,F1,01,00,
27123604,00000014,false,Rx,0,4,85,06,17,03,00,00,00,00,
27175604,00000011,false,Rx,0,8,96,15,00,00,56,77,00,00,
27177267,00000012,false,Rx,0,8,C2,C7,06,00,D2,2D,07,00,
27178696,00000013,false,Rx,0,8,23,1A,04,00,FF,F1,01,00,
27179948,00000014,false,Rx,0,4,84,06,17,03,00,00,00,00,
27231959,00000011,false,Rx,0,8,96,15,00,00,1B,77,00,00,
27233581,00000012,false,Rx,0,8,C2,C7,06,00,3B,2A,07,00,
27235160,00000013,false,Rx,0,8,23,1A,04,00,5E,F1,01,00,
27236454,00000014,false,Rx,0,4,84,06,16,03,00,00,00,00,
27288538,00000011,false,Rx,0,8,9A,15,00,00,1B,77,00,00,
27290100,00000012,false,Rx,0,8,02,C9,06,00,3B,2A,07,00,
27291650,00000013,false,Rx,0,8,C4,1A,04,00,5E,F1,01,00,
27292951,00000014,false,Rx,0,4,85,06,16,03,00,00,00,00,
27344968,00000011,false,Rx,0,8,9A,15,00,00,DF,76,00,00,
27346549,00000012,false,Rx,0,8,02,C9,06,00,A3,26,07,00,
27348148,00000013,false,Rx,0,8,C4,1A,04,00,BC,F0,01,00,
27349398,00000014,false,Rx,0,4,85,06,15,03,00,00,00,00,
27401413,00000011,false,Rx,0,8,9A,15,00,00,DF,76,00,00,
27403033,00000012,false,Rx,0,8,02,C9,06,00,A3,26,07,00,
27404851,00000013,false,Rx,0,8,C4,1A,04,00,BC,F0,01,00,
27406081,00000014,false,Rx,0,4,85,06,15,03,00,00,00,00,
27458124,00000011,false,Rx,0,8,9A,15,00,00,DF,76,00,00,
27459750,00000012,false,Rx,0,8,02,C9,06,00,A3,26,07,00,
27461105,00000013,false,Rx,0,8,C4,1A,04,00,BC,F0,01,00,
27462393,00000014,false,Rx,0,4,85,06,15,03,00,00,00,00,
27514391,00000011,false,Rx,0,8,9A,15,00,00,DF,76,00,00,
27515994,00000012,false,Rx,0,8,02,C9,06,00,A3,26,07,00,
27517544,00000013,false,Rx,0,8,C4,1A,04,00,BC,F0,01,00,
27518834,00000014,false,Rx,0,4,85,06,15,03,00,00,00,00,
27570802,00000011,false,Rx,0,8,9A,15,00,00,A3,76,00,00,
27572430,00000012,false,Rx,0,8,02,C9,06,00,0C,23,07,00,
27574056,00000013,false,Rx,0,8,C4,1A,04,00,1B,F0,01,00,
27575307,00000014,false,Rx,0,4,85,06,14,03,00,00,00,00,
27627473,00000011,false,Rx,0,8,A2,15,00,00,A3,76,00,00,
27628840,00000012,false,Rx,0,8,82,CB,06,00,0C,23,07,00,
27630442,00000013,false,Rx,0,8,06,1C,04,00,1B,F0,01,00,
27631712,00000014,false,Rx,0,4,87,06,14,03,00,00,00,00,
27683702,00000011,false,Rx,0,8,9E,15,00,00,68,76,00,00,
27685281,00000012,false,Rx,0,8,42,CA,06,00,75,1F,07,00,
27686827,00000013,false,Rx,0,8,65,1B,04,00,7A,EF,01,00,
27688167,00000014,false,Rx,0,4,86,06,13,03,00,00,00,00,
27740162,00000011,false,Rx,0,8,A2,15,00,00,68,76,00,00,
27742007,00000012,false,Rx,0,8,82,CB,06,00,75,1F,07,00,
27743335,00000013,false,Rx,0,8,06,1C,04,00,7A,EF,01,00,
27744584,00000014,false,Rx,0,4,87,06,13,03,00,00,00,00,
27796587,00000011,false,Rx,0,8,A6,15,00,00,68,76,00,00,
27798206,00000012,false,Rx,0,8,C2,CC,06,00,75,1F,07,00,
27799752,00000013,false,Rx,0,8,A7,1C,04,00,7A,EF,01,00,
27801061,00000014,false,Rx,0,4,88,06,13,03,00,00,00,00,
27853258,00000011,false,Rx,0,8,A6,15,00,00,A3,76,00,00,
27854690,00000012,false,Rx,0,8,C2,CC,06,00,0C,23,07,00,
27856257,00000013,false,Rx,0,8,A7,1C,04,00,1B,F0,01,00,
27857776,00000014,false,Rx,0,4,88,06,14,03,00,00,00,00,
27909497,00000011,false,Rx,0,8,AA,15,00,00,2C,76,00,00,
27911115,00000012,false,Rx,0,8,01,CE,06,00,DE,1B,07,00,
27912658,00000013,false,Rx,0,8,49,1D,04,00,D9,EE,01,00,
27913966,00000014,false,Rx,0,4,89,06,12,03,00,00,00,00,
27965945,00000011,false,Rx,0,8,AE,15,00,00,68,76,00,00,
27967531,00000012,false,Rx,0,8,41,CF,06,00,75,1F,07,00,
27969106,00000013,false,Rx,0,8,EA,1D,04,00,7A,EF,01,00,
27970407,00000014,false,Rx,0,4,8A,06,13,03,00,00,00,00,
28022411,00000011,false,Rx,0,8,AE,15,00,00,2C,76,00,00,
28024245,00000012,false,Rx,0,8,41,CF,06,00,DE,1B,07,00,
28025811,00000013,false,Rx,0,8,EA,1D,04,00,D9,EE,01,00,
28026957,00000014,false,Rx,0,4,8A,06,12,03,00,00,00,00,
28078830,00000011,false,Rx,0,8,B2,15,00,00,2C,76,00,00,
28080415,00000012,false,Rx,0,8,81,D0,06,00,DE,1B,07,00,
28082008,00000013,false,Rx,0,8,8B,1E,04,00,D9,EE,01,00,
28083280,00000014,false,Rx,0,4,8B,06,12,03,00,00,00,00,
28135265,00000011,false,Rx,0,8,B2,15,00,00,2C,76,00,00,
28137131,00000012,false,Rx,0,8,81,D0,06,00,DE,1B,07,00,
28138617,00000013,false,Rx,0,8,8B,1E,04,00,D9,EE,01,00,
28139758,00000014,false,Rx,0,4,8B,06,12,03,00,00,00,00,
28191740,00000011,false,Rx,0,8,B6,15,00,00,2C,76,00,00,
28193362,00000012,false,Rx,0,8,C1,D1,06,00,DE,1B,07,00,
28194920,00000013,false,Rx,0,8,2C,1F,04,00,D9,EE,01,00,
28196159,00000014,false,Rx,0,4,8C,06,12,03,00,00,00,00,
28248173,00000011,false,Rx,0,8,BA,15,00,00,F0,75,00,00,
28249793,00000012,false,Rx,0,8,01,D3,06,00,46,18,07,00,
28251392,00000013,false,Rx,0,8,CD,1F,04,00,38,EE,01,00,
28252672,00000014,false,Rx,0,4,8D,06,11,03,00,00,00,00,
28304660,00000011,false,Rx,0,8,BA,15,00,00,F0,75,00,00,
28306250,00000012,false,Rx,0,8,01,D3,06,00,46,18,07,00,
28307817,00000013,false,Rx,0,8,CD,1F,04,00,38,EE,01,00,
28309126,00000014,false,Rx,0,4,8D,06,11,03,00,00,00,00,
28361127,00000011,false,Rx,0,8,BE,15,00,00,F0,75,00,00,
28362689,00000012,false,Rx,0,8,41,D4,06,00,46,18,07,00,
28364264,00000013,false,Rx,0,8,6E,20,04,00,38,EE,01,00,
28365560,00000014,false,Rx,0,4,8E,06,11,03,00,00,00,00,
28417567,00000011,false,Rx,0,8,C2,15,00,00,F0,75,00,00,
28419190,00000012,false,Rx,0,8,81,D5,06,00,46,18,07,00,
28420779,00000013,false,Rx,0,8,10,21,04,00,38,EE,01,00,
28422234,00000014,false,Rx,0,4,8F,06,11,03,00,00,00,00,
28474312,00000011,false,Rx,0,8,C2,15,00,00,F0,75,00,00,
28475934,00000012,false,Rx,0,8,81,D5,06,00,46,18,07,00,
28477395,00000013,false,Rx,0,8,10,21,04,00,38,EE,01,00,
28478559,00000014,false,Rx,0,4,8F,06,11,03,00,00,00,00,
28530525,00000011,false,Rx,0,8,BE,15,00,00,B4,75,00,00,
28532146,00000012,false,Rx,0,8,41,D4,06,00,AF,14,07,00,
28533728,00000013,false,Rx,0,8,6E,20,04,00,96,ED,01,00,
28535002,00000014,false,Rx,0,4,8E,06,10,03,00,00,00,00,
28586974,00000011,false,Rx,0,8,C6,15,00,00,F0,75,00,00,
28588614,00000012,false,Rx,0,8,C1,D6,06,00,46,18,07,00,
28590344,00000013,false,Rx,0,8,B1,21,04,00,38,EE,01,00,
28591565,00000014,false,Rx,0,4,90,06,11,03,00,00,00,00,
28643639,00000011,false,Rx,0,8,CA,15,00,00,F0,75,00,00,
28645049,00000012,false,Rx,0,8,01,D8,06,00,46,18,07,00,
28646615,00000013,false,Rx,0,8,52,22,04,00,38,EE,01,00,
28647952,00000014,false,Rx,0,4,91,06,11,03,00,00,00,00,
28699946,00000011,false,Rx,0,8,CE,15,00,00,F0,75,00,00,
28701566,00000012,false,Rx,0,8,41,D9,06,00,46,18,07,00,
28703150,00000013,false,Rx,0,8,F3,22,04,00,38,EE,01,00,
28704670,00000014,false,Rx,0,4,92,06,11,03,00,00,00,00,
28756471,00000011,false,Rx,0,8,CE,15,00,00,F0,75,00,00,
28758078,00000012,false,Rx,0,8,41,D9,06,00,46,18,07,00,
28759890,00000013,false,Rx,0,8,F3,22,04,00,38,EE,01,00,
28760891,00000014,false,Rx,0,4,92,06,11,03,00,00,00,00,
28812949,00000011,false,Rx,0,8,D2,15,00,00,F0,75,00,00,
28814548,00000012,false,Rx,0,8,81,DA,06,00,46,18,07,00,
28816117,00000013,false,Rx,0,8,94,23,04,00,38,EE,01,00,
28817417,00000014,false,Rx,0,4,93,06,11,03,00,00,00,00,
28869451,00000011,false,Rx,0,8,CE,15,00,00,B4,75,00,00,
28871041,00000012,false,Rx,0,8,41,D9,06,00,AF,14,07,00,
28872639,00000013,false,Rx,0,8,F3,22,04,00,96,ED,01,00,
28874109,00000014,false,Rx,0,4,92,06,10,03,00,00,00,00,
28926147,00000011,false,Rx,0,8,D2,15,00,00,B4,75,00,00,
28927518,00000012,false,Rx,0,8,81,DA,06,00,AF,14,07,00,
28929165,00000013,false,Rx,0,8,94,23,04,00,96,ED,01,00,
28930423,00000014,false,Rx,0,4,93,06,10,03,00,00,00,00,
28982403,00000011,false,Rx,0,8,D6,15,00,00,B4,75,00,00,
28984018,00000012,false,Rx,0,8,C1,DB,06,00,AF,14,07,00,
28985596,00000013,false,Rx,0,8,35,24,04,00,96,ED,01,00,
28987029,00000014,false,Rx,0,4,94,06,10,03,00,00,00,00,
29038900,00000011,false,Rx,0,8,DA,15,00,00,B4,75,00,00,
29040541,00000012,false,Rx,0,8,01,DD,06,00,AF,14,07,00,
29042274,00000013,false,Rx,0,8,D7,24,04,00,96,ED,01,00,
29043539,00000014,false,Rx,0,4,95,06,10,03,00,00,00,00,
29095375,00000011,false,Rx,0,8,D6,15,00,00,B4,75,00,00,
29097007,00000012,false,Rx,0,8,C1,DB,06,00,AF,14,07,00,
29098608,00000013,false,Rx,0,8,35,24,04,00,96,ED,01,00,
29099886,00000014,false,Rx,0,4,94,06,10,03,00,00,00,00,
29151819,00000011,false,Rx,0,8,DA,15,00,00,79,75,00,00,
29153658,00000012,false,Rx,0,8,01,DD,06,00,18,11,07,00,
29155052,00000013,false,Rx,0,8,D7,24,04,00,F5,EC,01,00,
29156342,00000014,false,Rx,0,4,95,06,0F,03,00,00,00,00,
29208349,00000011,false,Rx,0,8,DA,15,00,00,B4,75,00,00,
29210095,00000012,false,Rx,0,8,01,DD,06,00,AF,14,07,00,
29211506,00000013,false,Rx,0,8,D7,24,04,00,96,ED,01,00,
29212795,00000014,false,Rx,0,4,95,06,10,03,00,00,00,00,
29264827,00000011,false,Rx,0,8,DE,15,00,00,B4,75,00,00,
29266422,00000012,false,Rx,0,8,41,DE,06,00,AF,14,07,00,
29268008,00000013,false,Rx,0,8,78,25,04,00,96,ED,01,00,
29269264,00000014,false,Rx,0,4,96,06,10,03,00,00,00,00,
29321372,00000011,false,Rx,0,8,DA,15,00,00,B4,75,00,00,
29322896,00000012,false,Rx,0,8,01,DD,06,00,AF,14,07,00,
29324497,00000013,false,Rx,0,8,D7,24,04,00,96,ED,01,00,
29326022,00000014,false,Rx,0,4,95,06,10,03,00,00,00,00,
29377747,00000011,false,Rx,0,8,DA,15,00,00,B4,75,00,00,
29379382,00000012,false,Rx,0,8,01,DD,06,00,AF,14,07,00,
29380921,00000013,false,Rx,0,8,D7,24,04,00,96,ED,01,00,
29382213,00000014,false,Rx,0,4,95,06,10,03,00,00,00,00,
29434225,00000011,false,Rx,0,8,DE,15,00,00,79,75,00,00,
29435851,00000012,false,Rx,0,8,41,DE,06,00,18,11,07,00,
29437628,00000013,false,Rx,0,8,78,25,04,00,F5,EC,01,00,
29438748,00000014,false,Rx,0,4,96,06,0F,03,00,00,00,00,
29490707,00000011,false,Rx,0,8,E2,15,00,00,79,75,00,00,
29492370,00000012,false,Rx,0,8,81,DF,06,00,18,11,07,00,
29493892,00000013,false,Rx,0,8,19,26,04,00,F5,EC,01,00,
29495225,00000014,false,Rx,0,4,97,06,0F,03,00,00,00,00,
29547226,00000011,false,Rx,0,8,E2,15,00,00,79,75,00,00,
29548846,00000012,false,Rx,0,8,81,DF,06,00,18,11,07,00,
29550396,00000013,false,Rx,0,8,19,26,04,00,F5,EC,01,00,
29551701,00000014,false,Rx,0,4,97,06,0F,03,00,00,00,00,
29603973,00000011,false,Rx,0,8,E2,15,00,00,79,75,00,00,
29605602,00000012,false,Rx,0,8,81,DF,06,00,18,11,07,00,
29606922,00000013,false,Rx,0,8,19,26,04,00,F5,EC,01,00,
29608196,00000014,false,Rx,0,4,97,06,0F,03,00,00,00,00,
29660345,00000011,false,Rx,0,8,E2,15,00,00,79,75,00,00,
29661826,00000012,false,Rx,0,8,81,DF,06,00,18,11,07,00,
29663400,00000013,false,Rx,0,8,19,26,04,00,F5,EC,01,00,
29664696,00000014,false,Rx,0,4,97,06,0F,03,00,00,00,00,
29716679,00000011,false,Rx,0,8,E6,15,00,00,79,75,00,00,
29718323,00000012,false,Rx,0,8,C1,E0,06,00,18,11,07,00,
29720129,00000013,false,Rx,0,8,BA,26,04,00,F5,EC,01,00,
29721426,00000014,false,Rx,0,4,98,06,0F,03,00,00,00,00,
29773210,00000011,false,Rx,0,8,E6,15,00,00,79,75,00,00,
29774836,00000012,false,Rx,0,8,C1,E0,06,00,18,11,07,00,
29776450,00000013,false,Rx,0,8,BA,26,04,00,F5,EC,01,00,
29777632,00000014,false,Rx,0,4,98,06,0F,03,00,00,00,00,
29829657,00000011,false,Rx,0,8,EA,15,00,00,79,75,00,00,
29831276,00000012,false,Rx,0,8,01,E2,06,00,18,11,07,00,
29832848,00000013,false,Rx,0,8,5B,27,04,00,F5,EC,01,00,
29834118,00000014,false,Rx,0,4,99,06,0F,03,00,00,00,00,
29886156,00000011,false,Rx,0,8,EA,15,00,00,79,75,00,00,
29887753,00000012,false,Rx,0,8,01,E2,06,00,18,11,07,00,
29889324,00000013,false,Rx,0,8,5B,27,04,00,F5,EC,01,00,
29890595,00000014,false,Rx,0,4,99,06,0F,03,00,00,00,00,
29942634,00000011,false,Rx,0,8,EA,15,00,00,79,75,00,00,
29944253,00000012,false,Rx,0,8,01,E2,06,00,18,11,07,00,
29945774,00000013,false,Rx,0,8,5B,27,04,00,F5,EC,01,00,
29947105,00000014,false,Rx,0,4,99,06,0F,03,00,00,00,00,
29999082,00000011,false,Rx,0,8,EA,15,00,00,79,75,00,00,
30000704,00000012,false,Rx,0,8,01,E2,06,00,18,11,07,00,
30002275,00000013,false,Rx,0,8,5B,27,04,00,F5,EC,01,00,
30003558,00000014,false,Rx,0,4,99,06,0F,03,00,00,00,00,
30055604,00000011,false,Rx,0,8,EA,15,00,00,79,75,00,00,
30057225,00000012,false,Rx,0,8,01,E2,06,00,18,11,07,00,
30058787,00000013,false,Rx,0,8,5B,27,04,00,F5,EC,01,00,
30060204,00000014,false,Rx,0,4,99,06,0F,03,00,00,00,00,
30112031,00000011,false,Rx,0,8,EA,15,00,00,79,75,00,00,
30113638,00000012,false,Rx,0,8,01,E2,06,00,18,11,07,00,
30115217,00000013,false,Rx,0,8,5B,27,04,00,F5,EC,01,00,
30116497,00000014,false,Rx,0,4,99,06,0F,03,00,00,00,00,
30168529,00000011,false,Rx,0,8,EA,15,00,00,3D,75,00,00,
30170146,00000012,false,Rx,0,8,01,E2,06,00,80,0D,07,00,
30171677,00000013,false,Rx,0,8,5B,27,04,00,54,EC,01,00,
30172979,00000014,false,Rx,0,4,99,06,0E,03,00,00,00,00,
30224985,00000011,false,Rx,0,8,EE,15,00,00,79,75,00,00,
30226737,00000012,false,Rx,0,8,41,E3,06,00,18,11,07,00,
30228193,00000013,false,Rx,0,8,FC,27,04,00,F5,EC,01,00,
30229432,00000014,false,Rx,0,4,9A,06,0F,03,00,00,00,00,
30281462,00000011,false,Rx,0,8,FE,15,00,00,79,75,00,00,
30283078,00000012,false,Rx,0,8,41,E8,06,00,18,11,07,00,
30284598,00000013,false,Rx,0,8,81,2A,04,00,F5,EC,01,00,
30285950,00000014,false,Rx,0,4,9E,06,0F,03,00,00,00,00,
30338085,00000011,false,Rx,0,8,EE,15,00,00,3D,75,00,00,
30339578,00000012,false,Rx,0,8,41,E3,06,00,80,0D,07,00,
30341163,00000013,false,Rx,0,8,FC,27,04,00,54,EC,01,00,
30342427,00000014,false,Rx,0,4,9A,06,0E,03,00,00,00,00,
30394423,00000011,false,Rx,0,8,EE,15,00,00,3D,75,00,00,
30396030,00000012,false,Rx,0,8,41,E3,06,00,80,0D,07,00,
30397610,00000013,false,Rx,0,8,FC,27,04,00,54,EC,01,00,
30398908,00000014,false,Rx,0,4,9A,06,0E,03,00,00,00,00,
30450932,00000011,false,Rx,0,8,EE,15,00,00,3D,75,00,00,
30452504,00000012,false,Rx,0,8,41,E3,06,00,80,0D,07,00,
30454110,00000013,false,Rx,0,8,FC,27,04,00,54,EC,01,00,
30455416,00000014,false,Rx,0,4,9A,06,0E,03,00,00,00,00,
30507383,00000011,false,Rx,0,8,EE,15,00,00,3D,75,00,00,
30508998,00000012,false,Rx,0,8,41,E3,06,00,80,0D,07,00,
30510557,00000013,false,Rx,0,8,FC,27,04,00,54,EC,01,00,
30511852,00000014,false,Rx,0,4,9A,06,0E,03,00,00,00,00,
30563888,00000011,false,Rx,0,8,EE,15,00,00,79,75,00,00,
30565506,00000012,false,Rx,0,8,41,E3,06,00,18,11,07,00,
30567262,00000013,false,Rx,0,8,FC,27,04,00,F5,EC,01,00,
30568366,00000014,false,Rx,0,4,9A,06,0F,03,00,00,00,00,
30620671,00000011,false,Rx,0,8,EE,15,00,00,3D,75,00,00,
30622241,00000012,false,Rx,0,8,41,E3,06,00,80,0D,07,00,
30623589,00000013,false,Rx,0,8,FC,27,04,00,54,EC,01,00,
30624885,00000014,false,Rx,0,4,9A,06,0E,03,00,00,00,00,
30676861,00000011,false,Rx,0,8,EE,15,00,00,3D,75,00,00,
30678509,00000012,false,Rx,0,8,41,E3,06,00,80,0D,07,00,
30680057,00000013,false,Rx,0,8,FC,27,04,00,54,EC,01,00,
30681353,00000014,false,Rx,0,4,9A,06,0E,03,00,00,00,00,
30733364,00000011,false,Rx,0,8,EE,15,00,00,3D,75,00,00,
30735229,00000012,false,Rx,0,8,41,E3,06,00,80,0D,07,00,
30736813,00000013,false,Rx,0,8,FC,27,04,00,54,EC,01,00,
30738089,00000014,false,Rx,0,4,9A,06,0E,03,00,00,00,00,
30789864,00000011,false,Rx,0,8,F2,15,00,00,3D,75,00,00,
30791487,00000012,false,Rx,0,8,81,E4,06,00,80,0D,07,00,
30793205,00000013,false,Rx,0,8,9E,28,04,00,54,EC,01,00,
30794319,00000014,false,Rx,0,4,9B,06,0E,03,00,00,00,00,
30846296,00000011,false,Rx,0,8,F6,15,00,00,79,75,00,00,
30847978,00000012,false,Rx,0,8,C1,E5,06,00,18,11,07,00,
30849514,00000013,false,Rx,0,8,3F,29,04,00,F5,EC,01,00,
30850812,00000014,false,Rx,0,4,9C,06,0F,03,00,00,00,00,
30902843,00000011,false,Rx,0,8,F2,15,00,00,3D,75,00,00,
30904690,00000012,false,Rx,0,8,81,E4,06,00,80,0D,07,00,
30906238,00000013,false,Rx,0,8,9E,28,04,00,54,EC,01,00,
30907284,00000014,false,Rx,0,4,9B,06,0E,03,00,00,00,00,
30959536,00000011,false,Rx,0,8,F2,15,00,00,3D,75,00,00,
30960923,00000012,false,Rx,0,8,81,E4,06,00,80,0D,07,00,
30962435,00000013,false,Rx,0,8,9E,28,04,00,54,EC,01,00,
30963764,00000014,false,Rx,0,4,9B,06,0E,03,00,00,00,00,
31015765,00000011,false,Rx,0,8,F2,15,00,00,3D,75,00,00,
31017411,00000012,false,Rx,0,8,81,E4,06,00,80,0D,07,00,
31018953,00000013,false,Rx,0,8,9E,28,04,00,54,EC,01,00,
31020252,00000014,false,Rx,0,4,9B,06,0E,03,00,00,00,00,
31072269,00000011,false,Rx,0,8,F2,15,00,00,01,75,00,00,
31073932,00000012,false,Rx,0,8,81,E4,06,00,E9,09,07,00,
31075640,00000013,false,Rx,0,8,9E,28,04,00,B3,EB,01,00,
31076713,00000014,false,Rx,0,4,9B,06,0D,03,00,00,00,00,
31128740,00000011,false,Rx,0,8,F2,15,00,00,01,75,00,00,
31130338,00000012,false,Rx,0,8,81,E4,06,00,E9,09,07,00,
31131882,00000013,false,Rx,0,8,9E,28,04,00,B3,EB,01,00,
31133208,00000014,false,Rx,0,4,9B,06,0D,03,00,00,00,00,
31185443,00000011,false,Rx,0,8,F2,15,00,00,01,75,00,00,
31186812,00000012,false,Rx,0,8,81,E4,06,00,E9,09,07,00,
31188387,00000013,false,Rx,0,8,9E,28,04,00,B3,EB,01,00,
31189632,00000014,false,Rx,0,4,9B,06,0D,03,00,00,00,00,
31241914,00000011,false,Rx,0,8,F2,15,00,00,01,75,00,00,
31243286,00000012,false,Rx,0,8,81,E4,06,00,E9,09,07,00,
31244857,00000013,false,Rx,0,8,9E,28,04,00,B3,EB,01,00,
31246136,00000014,false,Rx,0,4,9B,06,0D,03,00,00,00,00,
31298175,00000011,false,Rx,0,8,F2,15,00,00,3D,75,00,00,
31299763,00000012,false,Rx,0,8,81,E4,06,00,80,0D,07,00,
31301376,00000013,false,Rx,0,8,9E,28,04,00,54,EC,01,00,
31302683,00000014,false,Rx,0,4,9B,06,0E,03,00,00,00,00,
31354684,00000011,false,Rx,0,8,F6,15,00,00,01,75,00,00,
31356261,00000012,false,Rx,0,8,C1,E5,06,00,E9,09,07,00,
31358070,00000013,false,Rx,0,8,3F,29,04,00,B3,EB,01,00,
31359362,00000014,false,Rx,0,4,9C,06,0D,03,00,00,00,00,
31411089,00000011,false,Rx,0,8,F2,15,00,00,01,75,00,00,
31412717,00000012,false,Rx,0,8,81,E4,06,00,E9,09,07,00,
31414264,00000013,false,Rx,0,8,9E,28,04,00,B3,EB,01,00,
31415566,00000014,false,Rx,0,4,9B,06,0D,03,00,00,00,00,
31467572,00000011,false,Rx,0,8,FA,15,00,00,01,75,00,00,
31469204,00000012,false,Rx,0,8,01,E7,06,00,E9,09,07,00,
31470740,00000013,false,Rx,0,8,E0,29,04,00,B3,EB,01,00,
31472093,00000014,false,Rx,0,4,9D,06,0D,03,00,00,00,00,
31524020,00000011,false,Rx,0,8,F6,15,00,00,C6,74,00,00,
31525634,00000012,false,Rx,0,8,C1,E5,06,00,52,06,07,00,
31527214,00000013,false,Rx,0,8,3F,29,04,00,12,EB,01,00,
31528527,00000014,false,Rx,0,4,9C,06,0C,03,00,00,00,00,
31580522,00000011,false,Rx,0,8,F2,15,00,00,01,75,00,00,
31582113,00000012,false,Rx,0,8,81,E4,06,00,E9,09,07,00,
31583725,00000013,false,Rx,0,8,9E,28,04,00,B3,EB,01,00,
31585170,00000014,false,Rx,0,4,9B,06,0D,03,00,00,00,00,
31637255,00000011,false,Rx,0,8,F2,15,00,00,01,75,00,00,
31638618,00000012,false,Rx,0,8,81,E4,06,00,E9,09,07,00,
31640193,00000013,false,Rx,0,8,9E,28,04,00,B3,EB,01,00,
31641714,00000014,false,Rx,0,4,9B,06,0D,03,00,00,00,00,
31693496,00000011,false,Rx,0,8,F6,15,00,00,01,75,00,00,
31695092,00000012,false,Rx,0,8,C1,E5,06,00,E9,09,07,00,
31696669,00000013,false,Rx,0,8,3F,29,04,00,B3,EB,01,00,
31697964,00000014,false,Rx,0,4,9C,06,0D,03,00,00,00,00,
31750030,00000011,false,Rx,0,8,F6,15,00,00,01,75,00,00,
31751602,00000012,false,Rx,0,8,C1,E5,06,00,E9,09,07,00,
31753231,00000013,false,Rx,0,8,3F,29,04,00,B3,EB,01,00,
31754507,00000014,false,Rx,0,4,9C,06,0D,03,00,00,00,00,
31806679,00000011,false,Rx,0,8,F6,15,00,00,01,75,00,00,
31808118,00000012,false,Rx,0,8,C1,E5,06,00,E9,09,07,00,
31809615,00000013,false,Rx,0,8,3F,29,04,00,B3,EB,01,00,
31810958,00000014,false,Rx,0,4,9C,06,0D,03,00,00,00,00,
31862953,00000011,false,Rx,0,8,F2,15,00,00,01,75,00,00,
31864585,00000012,false,Rx,0,8,81,E4,06,00,E9,09,07,00,
31866159,00000013,false,Rx,0,8,9E,28,04,00,B3,EB,01,00,
31867464,00000014,false,Rx,0,4,9B,06,0D,03,00,00,00,00,
31919469,00000011,false,Rx,0,8,F6,15,00,00,3D,75,00,00,
31921111,00000012,false,Rx,0,8,C1,E5,06,00,80,0D,07,00,
31922695,00000013,false,Rx,0,8,3F,29,04,00,54,EC,01,00,
31923976,00000014,false,Rx,0,4,9C,06,0E,03,00,00,00,00,
31976214,00000011,false,Rx,0,8,FA,15,00,00,01,75,00,00,
31977563,00000012,false,Rx,0,8,01,E7,06,00,E9,09,07,00,
31979130,00000013,false,Rx,0,8,E0,29,04,00,B3,EB,01,00,
31980430,00000014,false,Rx,0,4,9D,06,0D,03,00,00,00,00,
32032428,00000011,false,Rx,0,8,F6,15,00,00,01,75,00,00,
32033995,00000012,false,Rx,0,8,C1,E5,06,00,E9,09,07,00,
32035566,00000013,false,Rx,0,8,3F,29,04,00,B3,EB,01,00,
32036868,00000014,false,Rx,0,4,9C,06,0D,03,00,00,00,00,
32088901,00000011,false,Rx,0,8,F6,15,00,00,01,75,00,00,
32090681,00000012,false,Rx,0,8,C1,E5,06,00,E9,09,07,00,
32092330,00000013,false,Rx,0,8,3F,29,04,00,B3,EB,01,00,
32093361,00000014,false,Rx,0,4,9C,06,0D,03,00,00,00,00,
32145359,00000011,false,Rx,0,8,FA,15,00,00,01,75,00,00,
32146951,00000012,false,Rx,0,8,01,E7,06,00,E9,09,07,00,
32148533,00000013,false,Rx,0,8,E0,29,04,00,B3,EB,01,00,
32149824,00000014,false,Rx,0,4,9D,06,0D,03,00,00,00,00,
32201804,00000011,false,Rx,0,8,F6,15,00,00,01,75,00,00,
32203452,00000012,false,Rx,0,8,C1,E5,06,00,E9,09,07,00,
32205042,00000013,false,Rx,0,8,3F,29,04,00,B3,EB,01,00,
32206408,00000014,false,Rx,0,4,9C,06,0D,03,00,00,00,00,
32258424,00000011,false,Rx,0,8,FA,15,00,00,01,75,00,00,
32259934,00000012,false,Rx,0,8,01,E7,06,00,E9,09,07,00,
32261505,00000013,false,Rx,0,8,E0,29,04,00,B3,EB,01,00,
32262802,00000014,false,Rx,0,4,9D,06,0D,03,00,00,00,00,
32314805,00000011,false,Rx,0,8,FA,15,00,00,C6,74,00,00,
32316425,00000012,false,Rx,0,8,01,E7,06,00,52,06,07,00,
32318001,00000013,false,Rx,0,8,E0,29,04,00,12,EB,01,00,
32319320,00000014,false,Rx,0,4,9D,06,0C,03,00,00,00,00,
32371333,00000011,false,Rx,0,8,FA,15,00,00,01,75,00,00,
32372922,00000012,false,Rx,0,8,01,E7,06,00,E9,09,07,00,
32374640,00000013,false,Rx,0,8,E0,29,04,00,B3,EB,01,00,
32376047,00000014,false,Rx,0,4,9D,06,0D,03,00,00,00,00,
32427756,00000011,false,Rx,0,8,F6,15,00,00,01,75,00,00,
32429349,00000012,false,Rx,0,8,C1,E5,06,00,E9,09,07,00,
32430951,00000013,false,Rx,0,8,3F,29,04,00,B3,EB,01,00,
32432225,00000014,false,Rx,0,4,9C,06,0D,03,00,00,00,00,
32484260,00000011,false,Rx,0,8,FA,15,00,00,01,75,00,00,
32485850,00000012,false,Rx,0,8,01,E7,06,00,E9,09,07,00,
32487453,00000013,false,Rx,0,8,E0,29,04,00,B3,EB,01,00,
32488760,00000014,false,Rx,0,4,9D,06,0D,03,00,00,00,00,
32540726,00000011,false,Rx,0,8,F6,15,00,00,C6,74,00,00,
32542327,00000012,false,Rx,0,8,C1,E5,06,00,52,06,07,00,
32543874,00000013,false,Rx,0,8,3F,29,04,00,12,EB,01,00,
32545173,00000014,false,Rx,0,4,9C,06,0C,03,00,00,00,00,
32597175,00000011,false,Rx,0,8,F6,15,00,00,C6,74,00,00,
32598823,00000012,false,Rx,0,8,C1,E5,06,00,52,06,07,00,
32600671,00000013,false,Rx,0,8,3F,29,04,00,12,EB,01,00,
32601859,00000014,false,Rx,0,4,9C,06,0C,03,00,00,00,00,
32653715,00000011,false,Rx,0,8,F6,15,00,00,01,75,00,00,
32655326,00000012,false,Rx,0,8,C1,E5,06,00,E9,09,07,00,
32656900,00000013,false,Rx,0,8,3F,29,04,00,B3,EB,01,00,
32658416,00000014,false,Rx,0,4,9C,06,0D,03,00,00,00,00,
32710194,00000011,false,Rx,0,8,FA,15,00,00,C6,74,00,00,
32711780,00000012,false,Rx,0,8,01,E7,06,00,52,06,07,00,
32713353,00000013,false,Rx,0,8,E0,29,04,00,12,EB,01,00,
32714657,00000014,false,Rx,0,4,9D,06,0C,03,00,00,00,00,
32766693,00000011,false,Rx,0,8,FA,15,00,00,01,75,00,00,
32768284,00000012,false,Rx,0,8,01,E7,06,00,E9,09,07,00,
32769853,00000013,false,Rx,0,8,E0,29,04,00,B3,EB,01,00,
32771129,00000014,false,Rx,0,4,9D,06,0D,03,00,00,00,00,
32823158,00000011,false,Rx,0,8,FA,15,00,00,C6,74,00,00,
32824775,00000012,false,Rx,0,8,01,E7,06,00,52,06,07,00,
32826327,00000013,false,Rx,0,8,E0,29,04,00,12,EB,01,00,
32827582,00000014,false,Rx,0,4,9D,06,0C,03,00,00,00,00,
32879609,00000011,false,Rx,0,8,FA,15,00,00,C6,74,00,00,
32881203,00000012,false,Rx,0,8,01,E7,06,00,52,06,07,00,
32882777,00000013,false,Rx,0,8,E0,29,04,00,12,EB,01,00,
32884085,00000014,false,Rx,0,4,9D,06,0C,03,00,00,00,00,
32936071,00000011,false,Rx,0,8,F6,15,00,00,C6,74,00,00,
32937857,00000012,false,Rx,0,8,C1,E5,06,00,52,06,07,00,
32939281,00000013,false,Rx,0,8,3F,29,04,00,12,EB,01,00,
32940578,00000014,false,Rx,0,4,9C,06,0C,03,00,00,00,00,
32992587,00000011,false,Rx,0,8,FA,15,00,00,C6,74,00,00,
32994131,00000012,false,Rx,0,8,01,E7,06,00,52,06,07,00,
32995730,00000013,false,Rx,0,8,E0,29,04,00,12,EB,01,00,
32997007,00000014,false,Rx,0,4,9D,06,0C,03,00,00,00,00,
33049065,00000011,false,Rx,0,8,FA,15,00,00,C6,74,00,00,
33050690,00000012,false,Rx,0,8,01,E7,06,00,52,06,07,00,
33052200,00000013,false,Rx,0,8,E0,29,04,00,12,EB,01,00,
33053710,00000014,false,Rx,0,4,9D,06,0C,03,00,00,00,00,
33105784,00000011,false,Rx,0,8,FA,15,00,00,C6,74,00,00,
33107166,00000012,false,Rx,0,8,01,E7,06,00,52,06,07,00,
33108688,00000013,false,Rx,0,8,E0,29,04,00,12,EB,01,00,
33109990,00000014,false,Rx,0,4,9D,06,0C,03,00,00,00,00,
33161992,00000011,false,Rx,0,8,FA,15,00,00,C6,74,00,00,
33163611,00000012,false,Rx,0,8,01,E7,06,00,52,06,07,00,
33165186,00000013,false,Rx,0,8,E0,29,04,00,12,EB,01,00,
33166458,00000014,false,Rx,0,4,9D,06,0C,03,00,00,00,00,
33218441,00000011,false,Rx,0,8,FA,15,00,00,C6,74,00,00,
33220290,00000012,false,Rx,0,8,01,E7,06,00,52,06,07,00,
33221886,00000013,false,Rx,0,8,E0,29,04,00,12,EB,01,00,
33222934,00000014,false,Rx,0,4,9D,06,0C,03,00,00,00,00,
33275155,00000011,false,Rx,0,8,FA,15,00,00,C6,74,00,00,
33276513,00000012,false,Rx,0,8,01,E7,06,00,52,06,07,00,
33278115,00000013,false,Rx,0,8,E0,29,04,00,12,EB,01,00,
33279410,00000014,false,Rx,0,4,9D,06,0C,03,00,00,00,00,
33331392,00000011,false,Rx,0,8,FA,15,00,00,8A,74,00,00,
33333010,00000012,false,Rx,0,8,01,E7,06,00,BB,02,07,00,
33334602,00000013,false,Rx,0,8,E0,29,04,00,71,EA,01,00,
33335831,00000014,false,Rx,0,4,9D,06,0B,03,00,00,00,00,
33387889,00000011,false,Rx,0,8,FA,15,00,00,8A,74,00,00,
33389730,00000012,false,Rx,0,8,01,E7,06,00,BB,02,07,00,
33391278,00000013,false,Rx,0,8,E0,29,04,00,71,EA,01,00,
33392433,00000014,false,Rx,0,4,9D,06,0B,03,00,00,00,00,
33444352,00000011,false,Rx,0,8,FA,15,00,00,8A,74,00,00,
33445932,00000012,false,Rx,0,8,01,E7,06,00,BB,02,07,00,
33447509,00000013,false,Rx,0,8,E0,29,04,00,71,EA,01,00,
33448808,00000014,false,Rx,0,4,9D,06,0B,03,00,00,00,00,
33500789,00000011,false,Rx,0,8,FA,15,00,00,C6,74,00,00,
33502406,00000012,false,Rx,0,8,01,E7,06,00,52,06,07,00,
33504045,00000013,false,Rx,0,8,E0,29,04,00,12,EB,01,00,
33505466,00000014,false,Rx,0,4,9D,06,0C,03,00,00,00,00,
33557290,00000011,false,Rx,0,8,FA,15,00,00,C6,74,00,00,
33559040,00000012,false,Rx,0,8,01,E7,06,00,52,06,07,00,
33560476,00000013,false,Rx,0,8,E0,29,04,00,12,EB,01,00,
33561766,00000014,false,Rx,0,4,9D,06,0C,03,00,00,00,00,
33613750,00000011,false,Rx,0,8,FA,15,00,00,C6,74,00,00,
33615362,00000012,false,Rx,0,8,01,E7,06,00,52,06,07,00,
33616937,00000013,false,Rx,0,8,E0,29,04,00,12,EB,01,00,
33618216,00000014,false,Rx,0,4,9D,06,0C,03,00,00,00,00,
33670223,00000011,false,Rx,0,8,FA,15,00,00,8A,74,00,00,
33671865,00000012,false,Rx,0,8,01,E7,06,00,BB,02,07,00,
33673682,00000013,false,Rx,0,8,E0,29,04,00,71,EA,01,00,
33674696,00000014,false,Rx,0,4,9D,06,0B,03,00,00,00,00,
33726655,00000011,false,Rx,0,8,FA,15,00,00,8A,74,00,00,
33728276,00000012,false,Rx,0,8,01,E7,06,00,BB,02,07,00,
33729840,00000013,false,Rx,0,8,E0,29,04,00,71,EA,01,00,
33731167,00000014,false,Rx,0,4,9D,06,0B,03,00,00,00,00,
33783145,00000011,false,Rx,0,8,F6,15,00,00,C6,74,00,00,
33784742,00000012,false,Rx,0,8,C1,E5,06,00,52,06,07,00,
33786286,00000013,false,Rx,0,8,3F,29,04,00,12,EB,01,00,
33787634,00000014,false,Rx,0,4,9C,06,0C,03,00,00,00,00,
33839617,00000011,false,Rx,0,8,F6,15,00,00,8A,74,00,00,
33841215,00000012,false,Rx,0,8,C1,E5,06,00,BB,02,07,00,
33842768,00000013,false,Rx,0,8,3F,29,04,00,71,EA,01,00,
33844066,00000014,false,Rx,0,4,9C,06,0B,03,00,00,00,00,
33896018,00000011,false,Rx,0,8,FA,15,00,00,8A,74,00,00,
33897667,00000012,false,Rx,0,8,01,E7,06,00,BB,02,07,00,
33899241,00000013,false,Rx,0,8,E0,29,04,00,71,EA,01,00,
33900512,00000014,false,Rx,0,4,9D,06,0B,03,00,00,00,00,
33952525,00000011,false,Rx,0,8,FA,15,00,00,8A,74,00,00,
33954392,00000012,false,Rx,0,8,01,E7,06,00,BB,02,07,00,
33955737,00000013,false,Rx,0,8,E0,29,04,00,71,EA,01,00,
33957014,00000014,false,Rx,0,4,9D,06,0B,03,00,00,00,00,
34008967,00000011,false,Rx,0,8,FE,15,00,00,8A,74,00,00,
34010565,00000012,false,Rx,0,8,41,E8,06,00,BB,02,07,00,
34012169,00000013,false,Rx,0,8,81,2A,04,00,71,EA,01,00,
34013470,00000014,false,Rx,0,4,9E,06,0B,03,00,00,00,00,
34065476,00000011,false,Rx,0,8,FA,15,00,00,8A,74,00,00,
34067047,00000012,false,Rx,0,8,01,E7,06,00,BB,02,07,00,
34068621,00000013,false,Rx,0,8,E0,29,04,00,71,EA,01,00,
34069887,00000014,false,Rx,0,4,9D,06,0B,03,00,00,00,00,
34122119,00000011,false,Rx,0,8,FA,15,00,00,8A,74,00,00,
34123768,00000012,false,Rx,0,8,01,E7,06,00,BB,02,07,00,
34125344,00000013,false,Rx,0,8,E0,29,04,00,71,EA,01,00,
34126382,00000014,false,Rx,0,4,9D,06,0B,03,00,00,00,00,
34178352,00000011,false,Rx,0,8,FE,15,00,00,C6,74,00,00,
34179974,00000012,false,Rx,0,8,41,E8,06,00,52,06,07,00,
34181554,00000013,false,Rx,0,8,81,2A,04,00,12,EB,01,00,
34182817,00000014,false,Rx,0,4,9E,06,0C,03,00,00,00,00,
34234825,00000011,false,Rx,0,8,FE,15,00,00,8A,74,00,00,
34236468,00000012,false,Rx,0,8,41,E8,06,00,BB,02,07,00,
34238207,00000013,false,Rx,0,8,81,2A,04,00,71,EA,01,00,
34239314,00000014,false,Rx,0,4,9E,06,0B,03,00,00,00,00,
34291416,00000011,false,Rx,0,8,FE,15,00,00,C6,74,00,00,
34292927,00000012,false,Rx,0,8,41,E8,06,00,52,06,07,00,
34294440,00000013,false,Rx,0,8,81,2A,04,00,12,EB,01,00,
34295745,00000014,false,Rx,0,4,9E,06,0C,03,00,00,00,00,
34347752,00000011,false,Rx,0,8,FE,15,00,00,8A,74,00,00,
34349344,00000012,false,Rx,0,8,41,E8,06,00,BB,02,07,00,
34350920,00000013,false,Rx,0,8,81,2A,04,00,71,EA,01,00,
34352219,00000014,false,Rx,0,4,9E,06,0B,03,00,00,00,00,
34404225,00000011,false,Rx,0,8,FE,15,00,00,4E,74,00,00,
34406067,00000012,false,Rx,0,8,41,E8,06,00,23,FF,06,00,
34407435,00000013,false,Rx,0,8,81,2A,04,00,CF,E9,01,00,
34408713,00000014,false,Rx,0,4,9E,06,0A,03,00,00,00,00,
34460686,00000011,false,Rx,0,8,FA,15,00,00,8A,74,00,00,
34462248,00000012,false,Rx,0,8,01,E7,06,00,BB,02,07,00,
34463848,00000013,false,Rx,0,8,E0,29,04,00,71,EA,01,00,
34465145,00000014,false,Rx,0,4,9D,06,0B,03,00,00,00,00,
34517129,00000011,false,Rx,0,8,FE,15,00,00,8A,74,00,00,
34518721,00000012,false,Rx,0,8,41,E8,06,00,BB,02,07,00,
34520342,00000013,false,Rx,0,8,81,2A,04,00,71,EA,01,00,
34521842,00000014,false,Rx,0,4,9E,06,0B,03,00,00,00,00,
34573818,00000011,false,Rx,0,8,FA,15,00,00,8A,74,00,00,
34575370,00000012,false,Rx,0,8,01,E7,06,00,BB,02,07,00,
34576763,00000013,false,Rx,0,8,E0,29,04,00,71,EA,01,00,
34578070,00000014,false,Rx,0,4,9D,06,0B,03,00,00,00,00,
34630031,00000011,false,Rx,0,8,FA,15,00,00,8A,74,00,00,
34631647,00000012,false,Rx,0,8,01,E7,06,00,BB,02,07,00,
34633196,00000013,false,Rx,0,8,E0,29,04,00,71,EA,01,00,
34634498,00000014,false,Rx,0,4,9D,06,0B,03,00,00,00,00,
34686518,00000011,false,Rx,0,8,FA,15,00,00,8A,74,00,00,
34688073,00000012,false,Rx,0,8,01,E7,06,00,BB,02,07,00,
34689653,00000013,false,Rx,0,8,E0,29,04,00,71,EA,01,00,
34690943,00000014,false,Rx,0,4,9D,06,0B,03,00,00,00,00,
34742922,00000011,false,Rx,0,8,FA,15,00,00,8A,74,00,00,
34744537,00000012,false,Rx,0,8,01,E7,06,00,BB,02,07,00,
34746134,00000013,false,Rx,0,8,E0,29,04,00,71,EA,01,00,
34747402,00000014,false,Rx,0,4,9D,06,0B,03,00,00,00,00,
34799382,00000011,false,Rx,0,8,FA,15,00,00,8A,74,00,00,
34800999,00000012,false,Rx,0,8,01,E7,06,00,BB,02,07,00,
34802586,00000013,false,Rx,0,8,E0,29,04,00,71,EA,01,00,
34803870,00000014,false,Rx,0,4,9D,06,0B,03,00,00,00,00,
34856103,00000011,false,Rx,0,8,FE,15,00,00,8A,74,00,00,
34857700,00000012,false,Rx,0,8,41,E8,06,00,BB,02,07,00,
34859027,00000013,false,Rx,0,8,81,2A,04,00,71,EA,01,00,
34860325,00000014,false,Rx,0,4,9E,06,0B,03,00,00,00,00,
34912281,00000011,false,Rx,0,8,FE,15,00,00,8A,74,00,00,
34913900,00000012,false,Rx,0,8,41,E8,06,00,BB,02,07,00,
34915474,00000013,false,Rx,0,8,81,2A,04,00,71,EA,01,00,
34916754,00000014,false,Rx,0,4,9E,06,0B,03,00,00,00,00,
34968759,00000011,false,Rx,0,8,FE,15,00,00,8A,74,00,00,
34970479,00000012,false,Rx,0,8,41,E8,06,00,BB,02,07,00,
34971947,00000013,false,Rx,0,8,81,2A,04,00,71,EA,01,00,
34973249,00000014,false,Rx,0,4,9E,06,0B,03,00,00,00,00,
35025217,00000011,false,Rx,0,8,FE,15,00,00,C6,74,00,00,
35026851,00000012,false,Rx,0,8,41,E8,06,00,52,06,07,00,
35028378,00000013,false,Rx,0,8,81,2A,04,00,12,EB,01,00,
35029704,00000014,false,Rx,0,4,9E,06,0C,03,00,00,00,00,
35081683,00000011,false,Rx,0,8,FE,15,00,00,8A,74,00,00,
35083301,00000012,false,Rx,0,8,41,E8,06,00,BB,02,07,00,
35084876,00000013,false,Rx,0,8,81,2A,04,00,71,EA,01,00,
35086171,00000014,false,Rx,0,4,9E,06,0B,03,00,00,00,00,
35138179,00000011,false,Rx,0,8,02,16,00,00,8A,74,00,00,
35139775,00000012,false,Rx,0,8,81,E9,06,00,BB,02,07,00,
35141357,00000013,false,Rx,0,8,22,2B,04,00,71,EA,01,00,
35142609,00000014,false,Rx,0,4,9F,06,0B,03,00,00,00,00,
35194578,00000011,false,Rx,0,8,FA,15,00,00,8A,74,00,00,
35196230,00000012,false,Rx,0,8,01,E7,06,00,BB,02,07,00,
35197803,00000013,false,Rx,0,8,E0,29,04,00,71,EA,01,00,
35199076,00000014,false,Rx,0,4,9D,06,0B,03,00,00,00,00,
35251070,00000011,false,Rx,0,8,FE,15,00,00,8A,74,00,00,
35252686,00000012,false,Rx,0,8,41,E8,06,00,BB,02,07,00,
35254286,00000013,false,Rx,0,8,81,2A,04,00,71,EA,01,00,
35255669,00000014,false,Rx,0,4,9E,06,0B,03,00,00,00,00,
35307649,00000011,false,Rx,0,8,02,16,00,00,C6,74,00,00,
35309116,00000012,false,Rx,0,8,81,E9,06,00,52,06,07,00,
35310685,00000013,false,Rx,0,8,22,2B,04,00,12,EB,01,00,
35311979,00000014,false,Rx,0,4,9F,06,0C,03,00,00,00,00,
35363943,00000011,false,Rx,0,8,FE,15,00,00,8A,74,00,00,
35365555,00000012,false,Rx,0,8,41,E8,06,00,BB,02,07,00,
35367129,00000013,false,Rx,0,8,81,2A,04,00,71,EA,01,00,
35368376,00000014,false,Rx,0,4,9E,06,0B,03,00,00,00,00,
35420409,00000011,false,Rx,0,8,02,16,00,00,4E,74,00,00,
35422255,00000012,false,Rx,0,8,81,E9,06,00,23,FF,06,00,
35423805,00000013,false,Rx,0,8,22,2B,04,00,CF,E9,01,00,
35425099,00000014,false,Rx,0,4,9F,06,0A,03,00,00,00,00,
35476809,00000011,false,Rx,0,8,FE,15,00,00,8A,74,00,00,
35478429,00000012,false,Rx,0,8,41,E8,06,00,BB,02,07,00,
35480009,00000013,false,Rx,0,8,81,2A,04,00,71,EA,01,00,
35481306,00000014,false,Rx,0,4,9E,06,0B,03,00,00,00,00,
35533264,00000011,false,Rx,0,8,FE,15,00,00,8A,74,00,00,
35534882,00000012,false,Rx,0,8,41,E8,06,00,BB,02,07,00,
35536477,00000013,false,Rx,0,8,81,2A,04,00,71,EA,01,00,
35538006,00000014,false,Rx,0,4,9E,06,0B,03,00,00,00,00,
35589958,00000011,false,Rx,0,8,FA,15,00,00,4E,74,00,00,
35591576,00000012,false,Rx,0,8,01,E7,06,00,23,FF,06,00,
35592886,00000013,false,Rx,0,8,E0,29,04,00,CF,E9,01,00,
35594152,00000014,false,Rx,0,4,9D,06,0A,03,00,00,00,00,
35646133,00000011,false,Rx,0,8,FE,15,00,00,8A,74,00,00,
35647732,00000012,false,Rx,0,8,41,E8,06,00,BB,02,07,00,
35649301,00000013,false,Rx,0,8,81,2A,04,00,71,EA,01,00,
35650646,00000014,false,Rx,0,4,9E,06,0B,03,00,00,00,00,
35702638,00000011,false,Rx,0,8,02,16,00,00,4E,74,00,00,
35704230,00000012,false,Rx,0,8,81,E9,06,00,23,FF,06,00,
35705924,00000013,false,Rx,0,8,22,2B,04,00,CF,E9,01,00,
35707204,00000014,false,Rx,0,4,9F,06,0A,03,00,00,00,00,
35759041,00000011,false,Rx,0,8,FE,15,00,00,4E,74,00,00,
35760628,00000012,false,Rx,0,8,41,E8,06,00,23,FF,06,00,
35762181,00000013,false,Rx,0,8,81,2A,04,00,CF,E9,01,00,
35763476,00000014,false,Rx,0,4,9E,06,0A,03,00,00,00,00,
35815434,00000011,false,Rx,0,8,FE,15,00,00,8A,74,00,00,
35817084,00000012,false,Rx,0,8,41,E8,06,00,BB,02,07,00,
35818631,00000013,false,Rx,0,8,81,2A,04,00,71,EA,01,00,
35819980,00000014,false,Rx,0,4,9E,06,0B,03,00,00,00,00,
35871938,00000011,false,Rx,0,8,FE,15,00,00,8A,74,00,00,
35873777,00000012,false,Rx,0,8,41,E8,06,00,BB,02,07,00,
35875095,00000013,false,Rx,0,8,81,2A,04,00,71,EA,01,00,
35876362,00000014,false,Rx,0,4,9E,06,0B,03,00,00,00,00,
35928334,00000011,false,Rx,0,8,FE,15,00,00,8A,74,00,00,
35929986,00000012,false,Rx,0,8,41,E8,06,00,BB,02,07,00,
35931537,00000013,false,Rx,0,8,81,2A,04,00,71,EA,01,00,
35932834,00000014,false,Rx,0,4,9E,06,0B,03,00,00,00,00,
35984818,00000011,false,Rx,0,8,FA,15,00,00,4E,74,00,00,
35986564,00000012,false,Rx,0,8,01,E7,06,00,23,FF,06,00,
35987962,00000013,false,Rx,0,8,E0,29,04,00,CF,E9,01,00,
35989256,00000014,false,Rx,0,4,9D,06,0A,03,00,00,00,00,
36041289,00000011,false,Rx,0,8,FE,15,00,00,8A,74,00,00,
36042860,00000012,false,Rx,0,8,41,E8,06,00,BB,02,07,00,
36044457,00000013,false,Rx,0,8,81,2A,04,00,71,EA,01,00,
36045729,00000014,false,Rx,0,4,9E,06,0B,03,00,00,00,00,
36097760,00000011,false,Rx,0,8,FE,15,00,00,8A,74,00,00,
36099376,00000012,false,Rx,0,8,41,E8,06,00,BB,02,07,00,
36100951,00000013,false,Rx,0,8,81,2A,04,00,71,EA,01,00,
36102250,00000014,false,Rx,0,4,9E,06,0B,03,00,00,00,00,
36154472,00000011,false,Rx,0,8,FE,15,00,00,4E,74,00,00,
36155857,00000012,false,Rx,0,8,41,E8,06,00,23,FF,06,00,
36157653,00000013,false,Rx,0,8,81,2A,04,00,CF,E9,01,00,
36158736,00000014,false,Rx,0,4,9E,06,0A,03,00,00,00,00,
36210670,00000011,false,Rx,0,8,FA,15,00,00,4E,74,00,00,
36212287,00000012,false,Rx,0,8,01,E7,06,00,23,FF,06,00,
36213831,00000013,false,Rx,0,8,E0,29,04,00,CF,E9,01,00,
36215132,00000014,false,Rx,0,4,9D,06,0A,03,00,00,00,00,
36267168,00000011,false,Rx,0,8,02,16,00,00,4E,74,00,00,
36268730,00000012,false,Rx,0,8,81,E9,06,00,23,FF,06,00,
36270278,00000013,false,Rx,0,8,22,2B,04,00,CF,E9,01,00,
36271583,00000014,false,Rx,0,4,9F,06,0A,03,00,00,00,00,
36323757,00000011,false,Rx,0,8,FE,15,00,00,8A,74,00,00,
36325212,00000012,false,Rx,0,8,41,E8,06,00,BB,02,07,00,
36326777,00000013,false,Rx,0,8,81,2A,04,00,71,EA,01,00,
36328073,00000014,false,Rx,0,4,9E,06,0B,03,00,00,00,00,
36380064,00000011,false,Rx,0,8,02,16,00,00,4E,74,00,00,
36381684,00000012,false,Rx,0,8,81,E9,06,00,23,FF,06,00,
36383507,00000013,false,Rx,0,8,22,2B,04,00,CF,E9,01,00,
36384786,00000014,false,Rx,0,4,9F,06,0A,03,00,00,00,00,
36436574,00000011,false,Rx,0,8,02,16,00,00,4E,74,00,00,
36438348,00000012,false,Rx,0,8,81,E9,06,00,23,FF,06,00,
36439989,00000013,false,Rx,0,8,22,2B,04,00,CF,E9,01,00,
36441265,00000014,false,Rx,0,4,9F,06,0A,03,00,00,00,00,
36492991,00000011,false,Rx,0,8,02,16,00,00,4E,74,00,00,
36494618,00000012,false,Rx,0,8,81,E9,06,00,23,FF,06,00,
36496162,00000013,false,Rx,0,8,22,2B,04,00,CF,E9,01,00,
36497458,00000014,false,Rx,0,4,9F,06,0A,03,00,00,00,00,
36549483,00000011,false,Rx,0,8,FE,15,00,00,4E,74,00,00,
36551082,00000012,false,Rx,0,8,41,E8,06,00,23,FF,06,00,
36552646,00000013,false,Rx,0,8,81,2A,04,00,CF,E9,01,00,
36554108,00000014,false,Rx,0,4,9E,06,0A,03,00,00,00,00,
36606037,00000011,false,Rx,0,8,FA,15,00,00,8A,74,00,00,
36607647,00000012,false,Rx,0,8,01,E7,06,00,BB,02,07,00,
36609119,00000013,false,Rx,0,8,E0,29,04,00,71,EA,01,00,
36610361,00000014,false,Rx,0,4,9D,06,0B,03,00,00,00,00,
36662384,00000011,false,Rx,0,8,FE,15,00,00,4E,74,00,00,
36664002,00000012,false,Rx,0,8,41,E8,06,00,23,FF,06,00,
36665578,00000013,false,Rx,0,8,81,2A,04,00,CF,E9,01,00,
36666852,00000014,false,Rx,0,4,9E,06,0A,03,00,00,00,00,
36718825,00000011,false,Rx,0,8,FE,15,00,00,4E,74,00,00,
36720493,00000012,false,Rx,0,8,41,E8,06,00,23,FF,06,00,
36722254,00000013,false,Rx,0,8,81,2A,04,00,CF,E9,01,00,
36723502,00000014,false,Rx,0,4,9E,06,0A,03,00,00,00,00,
36775261,00000011,false,Rx,0,8,FE,15,00,00,4E,74,00,00,
36776872,00000012,false,Rx,0,8,41,E8,06,00,23,FF,06,00,
36778472,00000013,false,Rx,0,8,81,2A,04,00,CF,E9,01,00,
36779756,00000014,false,Rx,0,4,9E,06,0A,03,00,00,00,00,
36831709,00000011,false,Rx,0,8,FE,15,00,00,8A,74,00,00,
36833292,00000012,false,Rx,0,8,41,E8,06,00,BB,02,07,00,
36834872,00000013,false,Rx,0,8,81,2A,04,00,71,EA,01,00,
36836190,00000014,false,Rx,0,4,9E,06,0B,03,00,00,00,00,
36888147,00000011,false,Rx,0,8,FE,15,00,00,4E,74,00,00,
36889977,00000012,false,Rx,0,8,41,E8,06,00,23,FF,06,00,
36891345,00000013,false,Rx,0,8,81,2A,04,00,CF,E9,01,00,
36892575,00000014,false,Rx,0,4,9E,06,0A,03,00,00,00,00,
36944552,00000011,false,Rx,0,8,02,16,00,00,4E,74,00,00,
36946180,00000012,false,Rx,0,8,81,E9,06,00,23,FF,06,00,
36947746,00000013,false,Rx,0,8,22,2B,04,00,CF,E9,01,00,
36949016,00000014,false,Rx,0,4,9F,06,0A,03,00,00,00,00,
37001008,00000011,false,Rx,0,8,02,16,00,00,4E,74,00,00,
37002594,00000012,false,Rx,0,8,81,E9,06,00,23,FF,06,00,
37004240,00000013,false,Rx,0,8,22,2B,04,00,CF,E9,01,00,
37005495,00000014,false,Rx,0,4,9F,06,0A,03,00,00,00,00,
37057507,00000011,false,Rx,0,8,FE,15,00,00,4E,74,00,00,
37059100,00000012,false,Rx,0,8,41,E8,06,00,23,FF,06,00,
37060623,00000013,false,Rx,0,8,81,2A,04,00,CF,E9,01,00,
37061896,00000014,false,Rx,0,4,9E,06,0A,03,00,00,00,00,
37113881,00000011,false,Rx,0,8,FE,15,00,00,8A,74,00,00,
37115494,00000012,false,Rx,0,8,41,E8,06,00,BB,02,07,00,
37117071,00000013,false,Rx,0,8,81,2A,04,00,71,EA,01,00,
37118372,00000014,false,Rx,0,4,9E,06,0B,03,00,00,00,00,
37170375,00000011,false,Rx,0,8,FE,15,00,00,4E,74,00,00,
37172018,00000012,false,Rx,0,8,41,E8,06,00,23,FF,06,00,
37173624,00000013,false,Rx,0,8,81,2A,04,00,CF,E9,01,00,
37174818,00000014,false,Rx,0,4,9E,06,0A,03,00,00,00,00,
37226855,00000011,false,Rx,0,8,FE,15,00,00,4E,74,00,00,
37228500,00000012,false,Rx,0,8,41,E8,06,00,23,FF,06,00,
37230049,00000013,false,Rx,0,8,81,2A,04,00,CF,E9,01,00,
37231316,00000014,false,Rx,0,4,9E,06,0A,03,00,00,00,00,
37283323,00000011,false,Rx,0,8,02,16,00,00,4E,74,00,00,
37284912,00000012,false,Rx,0,8,81,E9,06,00,23,FF,06,00,
37286489,00000013,false,Rx,0,8,22,2B,04,00,CF,E9,01,00,
37287773,00000014,false,Rx,0,4,9F,06,0A,03,00,00,00,00,
37339771,00000011,false,Rx,0,8,02,16,00,00,4E,74,00,00,
37341350,00000012,false,Rx,0,8,81,E9,06,00,23,FF,06,00,
37342950,00000013,false,Rx,0,8,22,2B,04,00,CF,E9,01,00,
37344202,00000014,false,Rx,0,4,9F,06,0A,03,00,00,00,00,
37396241,00000011,false,Rx,0,8,FE,15,00,00,4E,74,00,00,
37397868,00000012,false,Rx,0,8,41,E8,06,00,23,FF,06,00,
37399414,00000013,false,Rx,0,8,81,2A,04,00,CF,E9,01,00,
37400713,00000014,false,Rx,0,4,9E,06,0A,03,00,00,00,00,
37452710,00000011,false,Rx,0,8,02,16,00,00,4E,74,00,00,
37454331,00000012,false,Rx,0,8,81,E9,06,00,23,FF,06,00,
37455887,00000013,false,Rx,0,8,22,2B,04,00,CF,E9,01,00,
37457186,00000014,false,Rx,0,4,9F,06,0A,03,00,00,00,00,
37509158,00000011,false,Rx,0,8,FE,15,00,00,4E,74,00,00,
37510775,00000012,false,Rx,0,8,41,E8,06,00,23,FF,06,00,
37512292,00000013,false,Rx,0,8,81,2A,04,00,CF,E9,01,00,
37513623,00000014,false,Rx,0,4,9E,06,0A,03,00,00,00,00,
37565627,00000011,false,Rx,0,8,FE,15,00,00,4E,74,00,00,
37567398,00000012,false,Rx,0,8,41,E8,06,00,23,FF,06,00,
37568803,00000013,false,Rx,0,8,81,2A,04,00,CF,E9,01,00,
37570099,00000014,false,Rx,0,4,9E,06,0A,03,00,00,00,00,
37622121,00000011,false,Rx,0,8,FE,15,00,00,13,74,00,00,
37623715,00000012,false,Rx,0,8,41,E8,06,00,8C,FB,06,00,
37625291,00000013,false,Rx,0,8,81,2A,04,00,2E,E9,01,00,
37626567,00000014,false,Rx,0,4,9E,06,09,03,00,00,00,00,
37678565,00000011,false,Rx,0,8,02,16,00,00,4E,74,00,00,
37680179,00000012,false,Rx,0,8,81,E9,06,00,23,FF,06,00,
37681746,00000013,false,Rx,0,8,22,2B,04,00,CF,E9,01,00,
37683201,00000014,false,Rx,0,4,9F,06,0A,03,00,00,00,00,
37735062,00000011,false,Rx,0,8,FE,15,00,00,4E,74,00,00,
37736628,00000012,false,Rx,0,8,41,E8,06,00,23,FF,06,00,
37738244,00000013,false,Rx,0,8,81,2A,04,00,CF,E9,01,00,
37739518,00000014,false,Rx,0,4,9E,06,0A,03,00,00,00,00,
37791534,00000011,false,Rx,0,8,FE,15,00,00,13,74,00,00,
37793096,00000012,false,Rx,0,8,41,E8,06,00,8C,FB,06,00,
37794683,00000013,false,Rx,0,8,81,2A,04,00,2E,E9,01,00,
37795969,00000014,false,Rx,0,4,9E,06,09,03,00,00,00,00,
37847987,00000011,false,Rx,0,8,02,16,00,00,4E,74,00,00,
37849606,00000012,false,Rx,0,8,81,E9,06,00,23,FF,06,00,
37851177,00000013,false,Rx,0,8,22,2B,04,00,CF,E9,01,00,
37852476,00000014,false,Rx,0,4,9F,06,0A,03,00,00,00,00,
37904470,00000011,false,Rx,0,8,02,16,00,00,4E,74,00,00,
37906135,00000012,false,Rx,0,8,81,E9,06,00,23,FF,06,00,
37907664,00000013,false,Rx,0,8,22,2B,04,00,CF,E9,01,00,
37908974,00000014,false,Rx,0,4,9F,06,0A,03,00,00,00,00,
37960996,00000011,false,Rx,0,8,FE,15,00,00,4E,74,00,00,
37962643,00000012,false,Rx,0,8,41,E8,06,00,23,FF,06,00,
37964164,00000013,false,Rx,0,8,81,2A,04,00,CF,E9,01,00,
37965486,00000014,false,Rx,0,4,9E,06,0A,03,00,00,00,00,
38017516,00000011,false,Rx,0,8,02,16,00,00,4E,74,00,00,
38019091,00000012,false,Rx,0,8,81,E9,06,00,23,FF,06,00,
38020641,00000013,false,Rx,0,8,22,2B,04,00,CF,E9,01,00,
38021925,00000014,false,Rx,0,4,9F,06,0A,03,00,00,00,00,
38073919,00000011,false,Rx,0,8,02,16,00,00,4E,74,00,00,
38075538,00000012,false,Rx,0,8,81,E9,06,00,23,FF,06,00,
38077112,00000013,false,Rx,0,8,22,2B,04,00,CF,E9,01,00,
38078423,00000014,false,Rx,0,4,9F,06,0A,03,00,00,00,00,
38130408,00000011,false,Rx,0,8,FE,15,00,00,4E,74,00,00,
38132024,00000012,false,Rx,0,8,41,E8,06,00,23,FF,06,00,
38133591,00000013,false,Rx,0,8,81,2A,04,00,CF,E9,01,00,
38134901,00000014,false,Rx,0,4,9E,06,0A,03,00,00,00,00,
38187038,00000011,false,Rx,0,8,FE,15,00,00,4E,74,00,00,
38188483,00000012,false,Rx,0,8,41,E8,06,00,23,FF,06,00,
38190059,00000013,false,Rx,0,8,81,2A,04,00,CF,E9,01,00,
38191361,00000014,false,Rx,0,4,9E,06,0A,03,00,00,00,00,
38243338,00000011,false,Rx,0,8,02,16,00,00,13,74,00,00,
38244957,00000012,false,Rx,0,8,81,E9,06,00,8C,FB,06,00,
38246504,00000013,false,Rx,0,8,22,2B,04,00,2E,E9,01,00,
38247802,00000014,false,Rx,0,4,9F,06,09,03,00,00,00,00,
38299785,00000011,false,Rx,0,8,FE,15,00,00,13,74,00,00,
38301496,00000012,false,Rx,0,8,41,E8,06,00,8C,FB,06,00,
38303000,00000013,false,Rx,0,8,81,2A,04,00,2E,E9,01,00,
38304295,00000014,false,Rx,0,4,9E,06,09,03,00,00,00,00,
38356316,00000011,false,Rx,0,8,FA,15,00,00,4E,74,00,00,
38357900,00000012,false,Rx,0,8,01,E7,06,00,23,FF,06,00,
38359490,00000013,false,Rx,0,8,E0,29,04,00,CF,E9,01,00,
38360729,00000014,false,Rx,0,4,9D,06,0A,03,00,00,00,00,
38412731,00000011,false,Rx,0,8,02,16,00,00,13,74,00,00,
38414398,00000012,false,Rx,0,8,81,E9,06,00,8C,FB,06,00,
38416108,00000013,false,Rx,0,8,22,2B,04,00,2E,E9,01,00,
38417409,00000014,false,Rx,0,4,9F,06,09,03,00,00,00,00,
38469168,00000011,false,Rx,0,8,02,16,00,00,13,74,00,00,
38470834,00000012,false,Rx,0,8,81,E9,06,00,8C,FB,06,00,
38472409,00000013,false,Rx,0,8,22,2B,04,00,2E,E9,01,00,
38473702,00000014,false,Rx,0,4,9F,06,09,03,00,00,00,00,
38525609,00000011,false,Rx,0,8,02,16,00,00,13,74,00,00,
38527285,00000012,false,Rx,0,8,81,E9,06,00,8C,FB,06,00,
38528807,00000013,false,Rx,0,8,22,2B,04,00,2E,E9,01,00,
38530107,00000014,false,Rx,0,4,9F,06,09,03,00,00,00,00,
38582133,00000011,false,Rx,0,8,FE,15,00,00,13,74,00,00,
38583724,00000012,false,Rx,0,8,41,E8,06,00,8C,FB,06,00,
38585282,00000013,false,Rx,0,8,81,2A,04,00,2E,E9,01,00,
38586586,00000014,false,Rx,0,4,9E,06,09,03,00,00,00,00,
38638534,00000011,false,Rx,0,8,02,16,00,00,4E,74,00,00,
38640197,00000012,false,Rx,0,8,81,E9,06,00,23,FF,06,00,
38641760,00000013,false,Rx,0,8,22,2B,04,00,CF,E9,01,00,
38643058,00000014,false,Rx,0,4,9F,06,0A,03,00,00,00,00,
