Time Stamp,ID,Extended,Dir,Bus,LEN,D1,D2,D3,D4,D5,D6,D7,D8
17242862,00000011,false,Rx,0,8,BF,11,00,00,59,01,00,00,
17244478,00000012,false,Rx,0,8,0C,93,05,00,CF,14,00,00,
17246016,00000013,false,Rx,0,8,A1,7E,03,00,6E,B3,00,00,
17247318,00000014,false,Rx,0,4,8D,05,1D,01,00,00,00,00,
17299383,00000011,false,Rx,0,8,BB,11,00,00,59,01,00,00,
17300982,00000012,false,Rx,0,8,CD,91,05,00,CF,14,00,00,
17302549,00000013,false,Rx,0,8,00,7E,03,00,6E,B3,00,00,
17303803,00000014,false,Rx,0,4,8C,05,1D,01,00,00,00,00,
17355886,00000011,false,Rx,0,8,BF,11,00,00,59,01,00,00,
17357474,00000012,false,Rx,0,8,0C,93,05,00,CF,14,00,00,
17359016,00000013,false,Rx,0,8,A1,7E,03,00,6E,B3,00,00,
17360379,00000014,false,Rx,0,4,8D,05,1D,01,00,00,00,00,
17412400,00000011,false,Rx,0,8,BF,11,00,00,59,01,00,00,
17413975,00000012,false,Rx,0,8,0C,93,05,00,CF,14,00,00,
17415558,00000013,false,Rx,0,8,A1,7E,03,00,6E,B3,00,00,
17416859,00000014,false,Rx,0,4,8D,05,1D,01,00,00,00,00,
17468872,00000011,false,Rx,0,8,BF,11,00,00,59,01,00,00,
17470421,00000012,false,Rx,0,8,0C,93,05,00,CF,14,00,00,
17471989,00000013,false,Rx,0,8,A1,7E,03,00,6E,B3,00,00,
17473330,00000014,false,Rx,0,4,8D,05,1D,01,00,00,00,00,
17525292,00000011,false,Rx,0,8,BF,11,00,00,59,01,00,00,
17526869,00000012,false,Rx,0,8,0C,93,05,00,CF,14,00,00,
17528459,00000013,false,Rx,0,8,A1,7E,03,00,6E,B3,00,00,
17529791,00000014,false,Rx,0,4,8D,05,1D,01,00,00,00,00,
17581791,00000011,false,Rx,0,8,BF,11,00,00,95,01,00,00,
17583587,00000012,false,Rx,0,8,0C,93,05,00,66,18,00,00,
17584964,00000013,false,Rx,0,8,A1,7E,03,00,0F,B4,00,00,
17586261,00000014,false,Rx,0,4,8D,05,1E,01,00,00,00,00,
17638285,00000011,false,Rx,0,8,BF,11,00,00,95,01,00,00,
17639889,00000012,false,Rx,0,8,0C,93,05,00,66,18,00,00,
17641462,00000013,false,Rx,0,8,A1,7E,03,00,0F,B4,00,00,
17642739,00000014,false,Rx,0,4,8D,05,1E,01,00,00,00,00,
17694764,00000011,false,Rx,0,8,BF,11,00,00,95,01,00,00,
17696387,00000012,false,Rx,0,8,0C,93,05,00,66,18,00,00,
17697954,00000013,false,Rx,0,8,A1,7E,03,00,0F,B4,00,00,
17699230,00000014,false,Rx,0,4,8D,05,1E,01,00,00,00,00,
17751261,00000011,false,Rx,0,8,BB,11,00,00,59,01,00,00,
17752869,00000012,false,Rx,0,8,CD,91,05,00,CF,14,00,00,
17754458,00000013,false,Rx,0,8,00,7E,03,00,6E,B3,00,00,
17755730,00000014,false,Rx,0,4,8C,05,1D,01,00,00,00,00,
17807744,00000011,false,Rx,0,8,BF,11,00,00,59,01,00,00,
17809374,00000012,false,Rx,0,8,0C,93,05,00,CF,14,00,00,
17810943,00000013,false,Rx,0,8,A1,7E,03,00,6E,B3,00,00,
17812243,00000014,false,Rx,0,4,8D,05,1D,01,00,00,00,00,
17864222,00000011,false,Rx,0,8,BB,11,00,00,59,01,00,00,
17865844,00000012,false,Rx,0,8,CD,91,05,00,CF,14,00,00,
17867411,00000013,false,Rx,0,8,00,7E,03,00,6E,B3,00,00,
17868712,00000014,false,Rx,0,4,8C,05,1D,01,00,00,00,00,
17920759,00000011,false,Rx,0,8,BB,11,00,00,59,01,00,00,
17922361,00000012,false,Rx,0,8,CD,91,05,00,CF,14,00,00,
17923939,00000013,false,Rx,0,8,00,7E,03,00,6E,B3,00,00,
17925190,00000014,false,Rx,0,4,8C,05,1D,01,00,00,00,00,
17977270,00000011,false,Rx,0,8,BF,11,00,00,59,01,00,00,
17978987,00000012,false,Rx,0,8,0C,93,05,00,CF,14,00,00,
17980462,00000013,false,Rx,0,8,A1,7E,03,00,6E,B3,00,00,
17981738,00000014,false,Rx,0,4,8D,05,1D,01,00,00,00,00,
18033818,00000011,false,Rx,0,8,BF,11,00,00,59,01,00,00,
18035658,00000012,false,Rx,0,8,0C,93,05,00,CF,14,00,00,
18036971,00000013,false,Rx,0,8,A1,7E,03,00,6E,B3,00,00,
18038250,00000014,false,Rx,0,4,8D,05,1D,01,00,00,00,00,
18090289,00000011,false,Rx,0,8,BF,11,00,00,95,01,00,00,
18091886,00000012,false,Rx,0,8,0C,93,05,00,66,18,00,00,
18093436,00000013,false,Rx,0,8,A1,7E,03,00,0F,B4,00,00,
18094868,00000014,false,Rx,0,4,8D,05,1E,01,00,00,00,00,
18147051,00000011,false,Rx,0,8,BF,11,00,00,59,01,00,00,
18148422,00000012,false,Rx,0,8,0C,93,05,00,CF,14,00,00,
18149990,00000013,false,Rx,0,8,A1,7E,03,00,6E,B3,00,00,
18151414,00000014,false,Rx,0,4,8D,05,1D,01,00,00,00,00,
18203344,00000011,false,Rx,0,8,BB,11,00,00,59,01,00,00,
18204863,00000012,false,Rx,0,8,CD,91,05,00,CF,14,00,00,
18206466,00000013,false,Rx,0,8,00,7E,03,00,6E,B3,00,00,
18207742,00000014,false,Rx,0,4,8C,05,1D,01,00,00,00,00,
18259768,00000011,false,Rx,0,8,BF,11,00,00,59,01,00,00,
18261468,00000012,false,Rx,0,8,0C,93,05,00,CF,14,00,00,
18262969,00000013,false,Rx,0,8,A1,7E,03,00,6E,B3,00,00,
18264239,00000014,false,Rx,0,4,8D,05,1D,01,00,00,00,00,
18316300,00000011,false,Rx,0,8,BF,11,00,00,59,01,00,00,
18317890,00000012,false,Rx,0,8,0C,93,05,00,CF,14,00,00,
18319671,00000013,false,Rx,0,8,A1,7E,03,00,6E,B3,00,00,
18320731,00000014,false,Rx,0,4,8D,05,1D,01,00,00,00,00,
18372728,00000011,false,Rx,0,8,BB,11,00,00,59,01,00,00,
18374489,00000012,false,Rx,0,8,CD,91,05,00,CF,14,00,00,
18376086,00000013,false,Rx,0,8,00,7E,03,00,6E,B3,00,00,
18377385,00000014,false,Rx,0,4,8C,05,1D,01,00,00,00,00,
18429367,00000011,false,Rx,0,8,BF,11,00,00,E2,00,00,00,
18431035,00000012,false,Rx,0,8,0C,93,05,00,A1,0D,00,00,
18432589,00000013,false,Rx,0,8,A1,7E,03,00,2B,B2,00,00,
18433893,00000014,false,Rx,0,4,8D,05,1B,01,00,00,00,00,
18486077,00000011,false,Rx,0,8,BF,11,00,00,59,01,00,00,
18487485,00000012,false,Rx,0,8,0C,93,05,00,CF,14,00,00,
18489070,00000013,false,Rx,0,8,A1,7E,03,00,6E,B3,00,00,
18490369,00000014,false,Rx,0,4,8D,05,1D,01,00,00,00,00,
18542392,00000011,false,Rx,0,8,BF,11,00,00,95,01,00,00,
18543969,00000012,false,Rx,0,8,0C,93,05,00,66,18,00,00,
18545528,00000013,false,Rx,0,8,A1,7E,03,00,0F,B4,00,00,
18546846,00000014,false,Rx,0,4,8D,05,1E,01,00,00,00,00,
18599103,00000011,false,Rx,0,8,C3,11,00,00,95,01,00,00,
18600466,00000012,false,Rx,0,8,4C,94,05,00,66,18,00,00,
18602066,00000013,false,Rx,0,8,42,7F,03,00,0F,B4,00,00,
18603328,00000014,false,Rx,0,4,8E,05,1E,01,00,00,00,00,
18655297,00000011,false,Rx,0,8,BF,11,00,00,95,01,00,00,
18656920,00000012,false,Rx,0,8,0C,93,05,00,66,18,00,00,
18658520,00000013,false,Rx,0,8,A1,7E,03,00,0F,B4,00,00,
18659823,00000014,false,Rx,0,4,8D,05,1E,01,00,00,00,00,
18711822,00000011,false,Rx,0,8,BF,11,00,00,59,01,00,00,
18713690,00000012,false,Rx,0,8,0C,93,05,00,CF,14,00,00,
18715277,00000013,false,Rx,0,8,A1,7E,03,00,6E,B3,00,00,
18716393,00000014,false,Rx,0,4,8D,05,1D,01,00,00,00,00,
18768350,00000011,false,Rx,0,8,BF,11,00,00,59,01,00,00,
18769925,00000012,false,Rx,0,8,0C,93,05,00,CF,14,00,00,
18771535,00000013,false,Rx,0,8,A1,7E,03,00,6E,B3,00,00,
18772792,00000014,false,Rx,0,4,8D,05,1D,01,00,00,00,00,
18824867,00000011,false,Rx,0,8,AF,11,00,00,95,01,00,00,
18826486,00000012,false,Rx,0,8,0D,8E,05,00,66,18,00,00,
18828049,00000013,false,Rx,0,8,1C,7C,03,00,0F,B4,00,00,
18829333,00000014,false,Rx,0,4,89,05,1E,01,00,00,00,00,
18881352,00000011,false,Rx,0,8,04,0E,00,00,1B,43,00,00,
18883125,00000012,false,Rx,0,8,17,67,04,00,74,09,04,00,
18884606,00000013,false,Rx,0,8,88,E7,02,00,F8,64,01,00,
18885797,00000014,false,Rx,0,4,9D,04,37,02,00,00,00,00,
18937777,00000011,false,Rx,0,8,AB,11,00,00,49,63,00,00,
18939412,00000012,false,Rx,0,8,CD,8C,05,00,00,F9,05,00,
18940968,00000013,false,Rx,0,8,7B,7B,03,00,DA,BB,01,00,
18942274,00000014,false,Rx,0,4,88,05,C1,02,00,00,00,00,
18994275,00000011,false,Rx,0,8,07,12,00,00,84,63,00,00,
18995997,00000012,false,Rx,0,8,8C,A9,05,00,97,FC,05,00,
18997725,00000013,false,Rx,0,8,F6,89,03,00,7B,BC,01,00,
18999023,00000014,false,Rx,0,4,9F,05,C2,02,00,00,00,00,
19051018,00000011,false,Rx,0,8,03,12,00,00,0D,63,00,00,
19052576,00000012,false,Rx,0,8,4C,A8,05,00,69,F5,05,00,
19053965,00000013,false,Rx,0,8,55,89,03,00,39,BB,01,00,
19055246,00000014,false,Rx,0,4,9E,05,C0,02,00,00,00,00,
19107259,00000011,false,Rx,0,8,EB,11,00,00,5A,62,00,00,
19108852,00000012,false,Rx,0,8,CC,A0,05,00,A3,EA,05,00,
19110451,00000013,false,Rx,0,8,8E,85,03,00,55,B9,01,00,
19111762,00000014,false,Rx,0,4,98,05,BD,02,00,00,00,00,
19163770,00000011,false,Rx,0,8,E3,11,00,00,1E,62,00,00,
19165392,00000012,false,Rx,0,8,4C,9E,05,00,0C,E7,05,00,
19166962,00000013,false,Rx,0,8,4C,84,03,00,B4,B8,01,00,
19168228,00000014,false,Rx,0,4,96,05,BC,02,00,00,00,00,
19220238,00000011,false,Rx,0,8,DB,11,00,00,E3,61,00,00,
19221824,00000012,false,Rx,0,8,CC,9B,05,00,74,E3,05,00,
19223430,00000013,false,Rx,0,8,09,83,03,00,13,B8,01,00,
19224741,00000014,false,Rx,0,4,94,05,BB,02,00,00,00,00,
19276719,00000011,false,Rx,0,8,D7,11,00,00,E3,61,00,00,
19278335,00000012,false,Rx,0,8,8C,9A,05,00,74,E3,05,00,
19279874,00000013,false,Rx,0,8,68,82,03,00,13,B8,01,00,
19281211,00000014,false,Rx,0,4,93,05,BB,02,00,00,00,00,
19333233,00000011,false,Rx,0,8,D7,11,00,00,2F,61,00,00,
19335045,00000012,false,Rx,0,8,8C,9A,05,00,AE,D8,05,00,
19336413,00000013,false,Rx,0,8,68,82,03,00,2F,B6,01,00,
19337650,00000014,false,Rx,0,4,93,05,B8,02,00,00,00,00,
19389688,00000011,false,Rx,0,8,CF,11,00,00,6B,61,00,00,
19391321,00000012,false,Rx,0,8,0C,98,05,00,46,DC,05,00,
19392871,00000013,false,Rx,0,8,26,81,03,00,D0,B6,01,00,
19394162,00000014,false,Rx,0,4,91,05,B9,02,00,00,00,00,
19446197,00000011,false,Rx,0,8,D3,11,00,00,2F,61,00,00,
19447746,00000012,false,Rx,0,8,4C,99,05,00,AE,D8,05,00,
19449402,00000013,false,Rx,0,8,C7,81,03,00,2F,B6,01,00,
19450894,00000014,false,Rx,0,4,92,05,B8,02,00,00,00,00,
19502921,00000011,false,Rx,0,8,CF,11,00,00,F4,60,00,00,
19504255,00000012,false,Rx,0,8,0C,98,05,00,17,D5,05,00,
19505875,00000013,false,Rx,0,8,26,81,03,00,8E,B5,01,00,
19507173,00000014,false,Rx,0,4,91,05,B7,02,00,00,00,00,
19559197,00000011,false,Rx,0,8,CF,11,00,00,F4,60,00,00,
19560789,00000012,false,Rx,0,8,0C,98,05,00,17,D5,05,00,
19562389,00000013,false,Rx,0,8,26,81,03,00,8E,B5,01,00,
19563660,00000014,false,Rx,0,4,91,05,B7,02,00,00,00,00,
19615664,00000011,false,Rx,0,8,CF,11,00,00,F4,60,00,00,
19617307,00000012,false,Rx,0,8,0C,98,05,00,17,D5,05,00,
19619029,00000013,false,Rx,0,8,26,81,03,00,8E,B5,01,00,
19620141,00000014,false,Rx,0,4,91,05,B7,02,00,00,00,00,
19672142,00000011,false,Rx,0,8,CF,11,00,00,B8,60,00,00,
19673785,00000012,false,Rx,0,8,0C,98,05,00,80,D1,05,00,
19675345,00000013,false,Rx,0,8,26,81,03,00,ED,B4,01,00,
19676646,00000014,false,Rx,0,4,91,05,B6,02,00,00,00,00,
19728624,00000011,false,Rx,0,8,CF,11,00,00,B8,60,00,00,
19730240,00000012,false,Rx,0,8,0C,98,05,00,80,D1,05,00,
19731814,00000013,false,Rx,0,8,26,81,03,00,ED,B4,01,00,
19733128,00000014,false,Rx,0,4,91,05,B6,02,00,00,00,00,
19785088,00000011,false,Rx,0,8,D3,11,00,00,7C,60,00,00,
19786681,00000012,false,Rx,0,8,4C,99,05,00,E9,CD,05,00,
19788228,00000013,false,Rx,0,8,C7,81,03,00,4C,B4,01,00,
19789530,00000014,false,Rx,0,4,92,05,B5,02,00,00,00,00,
19841510,00000011,false,Rx,0,8,D7,11,00,00,7C,60,00,00,
19843127,00000012,false,Rx,0,8,8C,9A,05,00,E9,CD,05,00,
19844739,00000013,false,Rx,0,8,68,82,03,00,4C,B4,01,00,
19846019,00000014,false,Rx,0,4,93,05,B5,02,00,00,00,00,
19898138,00000011,false,Rx,0,8,D3,11,00,00,7C,60,00,00,
19899625,00000012,false,Rx,0,8,4C,99,05,00,E9,CD,05,00,
19901206,00000013,false,Rx,0,8,C7,81,03,00,4C,B4,01,00,
19902730,00000014,false,Rx,0,4,92,05,B5,02,00,00,00,00,
19954433,00000011,false,Rx,0,8,CF,11,00,00,7C,60,00,00,
19956058,00000012,false,Rx,0,8,0C,98,05,00,E9,CD,05,00,
19957629,00000013,false,Rx,0,8,26,81,03,00,4C,B4,01,00,
19958901,00000014,false,Rx,0,4,91,05,B5,02,00,00,00,00,
20010919,00000011,false,Rx,0,8,D7,11,00,00,41,60,00,00,
20012535,00000012,false,Rx,0,8,8C,9A,05,00,51,CA,05,00,
20014078,00000013,false,Rx,0,8,68,82,03,00,AB,B3,01,00,
20015422,00000014,false,Rx,0,4,93,05,B4,02,00,00,00,00,
20067669,00000011,false,Rx,0,8,D7,11,00,00,7C,60,00,00,
20069303,00000012,false,Rx,0,8,8C,9A,05,00,E9,CD,05,00,
20070581,00000013,false,Rx,0,8,68,82,03,00,4C,B4,01,00,
20071876,00000014,false,Rx,0,4,93,05,B5,02,00,00,00,00,
20123890,00000011,false,Rx,0,8,D7,11,00,00,41,60,00,00,
20125485,00000012,false,Rx,0,8,8C,9A,05,00,51,CA,05,00,
20127080,00000013,false,Rx,0,8,68,82,03,00,AB,B3,01,00,
20128353,00000014,false,Rx,0,4,93,05,B4,02,00,00,00,00,
20180383,00000011,false,Rx,0,8,DB,11,00,00,05,60,00,00,
20182173,00000012,false,Rx,0,8,CC,9B,05,00,BA,C6,05,00,
20183687,00000013,false,Rx,0,8,09,83,03,00,09,B3,01,00,
20184906,00000014,false,Rx,0,4,94,05,B3,02,00,00,00,00,
20236903,00000011,false,Rx,0,8,D7,11,00,00,05,60,00,00,
20238479,00000012,false,Rx,0,8,8C,9A,05,00,BA,C6,05,00,
20240035,00000013,false,Rx,0,8,68,82,03,00,09,B3,01,00,
20241356,00000014,false,Rx,0,4,93,05,B3,02,00,00,00,00,
20293404,00000011,false,Rx,0,8,DF,11,00,00,05,60,00,00,
20294985,00000012,false,Rx,0,8,0C,9D,05,00,BA,C6,05,00,
20296555,00000013,false,Rx,0,8,AB,83,03,00,09,B3,01,00,
20297872,00000014,false,Rx,0,4,95,05,B3,02,00,00,00,00,
20349888,00000011,false,Rx,0,8,DB,11,00,00,05,60,00,00,
20351549,00000012,false,Rx,0,8,CC,9B,05,00,BA,C6,05,00,
20353053,00000013,false,Rx,0,8,09,83,03,00,09,B3,01,00,
20354307,00000014,false,Rx,0,4,94,05,B3,02,00,00,00,00,
20406359,00000011,false,Rx,0,8,DF,11,00,00,05,60,00,00,
20407971,00000012,false,Rx,0,8,0C,9D,05,00,BA,C6,05,00,
20409544,00000013,false,Rx,0,8,AB,83,03,00,09,B3,01,00,
20410834,00000014,false,Rx,0,4,95,05,B3,02,00,00,00,00,
20462854,00000011,false,Rx,0,8,DF,11,00,00,05,60,00,00,
20464460,00000012,false,Rx,0,8,0C,9D,05,00,BA,C6,05,00,
20466024,00000013,false,Rx,0,8,AB,83,03,00,09,B3,01,00,
20467319,00000014,false,Rx,0,4,95,05,B3,02,00,00,00,00,
20519343,00000011,false,Rx,0,8,E3,11,00,00,C9,5F,00,00,
20520910,00000012,false,Rx,0,8,4C,9E,05,00,23,C3,05,00,
20522484,00000013,false,Rx,0,8,4C,84,03,00,68,B2,01,00,
20523828,00000014,false,Rx,0,4,96,05,B2,02,00,00,00,00,
20575832,00000011,false,Rx,0,8,E3,11,00,00,C9,5F,00,00,
20577424,00000012,false,Rx,0,8,4C,9E,05,00,23,C3,05,00,
20578996,00000013,false,Rx,0,8,4C,84,03,00,68,B2,01,00,
20580286,00000014,false,Rx,0,4,96,05,B2,02,00,00,00,00,
20632290,00000011,false,Rx,0,8,DF,11,00,00,C9,5F,00,00,
20633907,00000012,false,Rx,0,8,0C,9D,05,00,23,C3,05,00,
20635629,00000013,false,Rx,0,8,AB,83,03,00,68,B2,01,00,
20636748,00000014,false,Rx,0,4,95,05,B2,02,00,00,00,00,
20688723,00000011,false,Rx,0,8,E7,11,00,00,C9,5F,00,00,
20690340,00000012,false,Rx,0,8,8C,9F,05,00,23,C3,05,00,
20691920,00000013,false,Rx,0,8,ED,84,03,00,68,B2,01,00,
20693227,00000014,false,Rx,0,4,97,05,B2,02,00,00,00,00,
20745207,00000011,false,Rx,0,8,E7,11,00,00,C9,5F,00,00,
20746822,00000012,false,Rx,0,8,8C,9F,05,00,23,C3,05,00,
20748624,00000013,false,Rx,0,8,ED,84,03,00,68,B2,01,00,
20749903,00000014,false,Rx,0,4,97,05,B2,02,00,00,00,00,
20801666,00000011,false,Rx,0,8,E7,11,00,00,C9,5F,00,00,
20803252,00000012,false,Rx,0,8,8C,9F,05,00,23,C3,05,00,
20804814,00000013,false,Rx,0,8,ED,84,03,00,68,B2,01,00,
20806119,00000014,false,Rx,0,4,97,05,B2,02,00,00,00,00,
20858115,00000011,false,Rx,0,8,E7,11,00,00,8E,5F,00,00,
20859735,00000012,false,Rx,0,8,8C,9F,05,00,8C,BF,05,00,
20861284,00000013,false,Rx,0,8,ED,84,03,00,C7,B1,01,00,
20862580,00000014,false,Rx,0,4,97,05,B1,02,00,00,00,00,
20914872,00000011,false,Rx,0,8,EB,11,00,00,8E,5F,00,00,
20916237,00000012,false,Rx,0,8,CC,A0,05,00,8C,BF,05,00,
20917810,00000013,false,Rx,0,8,8E,85,03,00,C7,B1,01,00,
20919115,00000014,false,Rx,0,4,98,05,B1,02,00,00,00,00,
20971110,00000011,false,Rx,0,8,E7,11,00,00,8E,5F,00,00,
20972692,00000012,false,Rx,0,8,8C,9F,05,00,8C,BF,05,00,
20974277,00000013,false,Rx,0,8,ED,84,03,00,C7,B1,01,00,
20975631,00000014,false,Rx,0,4,97,05,B1,02,00,00,00,00,
21027593,00000011,false,Rx,0,8,EB,11,00,00,C9,5F,00,00,
21029202,00000012,false,Rx,0,8,CC,A0,05,00,23,C3,05,00,
21030753,00000013,false,Rx,0,8,8E,85,03,00,68,B2,01,00,
21032052,00000014,false,Rx,0,4,98,05,B2,02,00,00,00,00,
21084244,00000011,false,Rx,0,8,EF,11,00,00,8E,5F,00,00,
21085673,00000012,false,Rx,0,8,0C,A2,05,00,8C,BF,05,00,
21087224,00000013,false,Rx,0,8,2F,86,03,00,C7,B1,01,00,
21088513,00000014,false,Rx,0,4,99,05,B1,02,00,00,00,00,
21140560,00000011,false,Rx,0,8,EF,11,00,00,8E,5F,00,00,
21142177,00000012,false,Rx,0,8,0C,A2,05,00,8C,BF,05,00,
21143752,00000013,false,Rx,0,8,2F,86,03,00,C7,B1,01,00,
21144982,00000014,false,Rx,0,4,99,05,B1,02,00,00,00,00,
21197036,00000011,false,Rx,0,8,EF,11,00,00,8E,5F,00,00,
21198811,00000012,false,Rx,0,8,0C,A2,05,00,8C,BF,05,00,
21200232,00000013,false,Rx,0,8,2F,86,03,00,C7,B1,01,00,
21201505,00000014,false,Rx,0,4,99,05,B1,02,00,00,00,00,
21253517,00000011,false,Rx,0,8,EF,11,00,00,52,5F,00,00,
21255061,00000012,false,Rx,0,8,0C,A2,05,00,F4,BB,05,00,
21256644,00000013,false,Rx,0,8,2F,86,03,00,26,B1,01,00,
21257980,00000014,false,Rx,0,4,99,05,B0,02,00,00,00,00,
21309934,00000011,false,Rx,0,8,EF,11,00,00,8E,5F,00,00,
21311562,00000012,false,Rx,0,8,0C,A2,05,00,8C,BF,05,00,
21313127,00000013,false,Rx,0,8,2F,86,03,00,C7,B1,01,00,
21314404,00000014,false,Rx,0,4,99,05,B1,02,00,00,00,00,
21366646,00000011,false,Rx,0,8,F3,11,00,00,52,5F,00,00,
21368009,00000012,false,Rx,0,8,4C,A3,05,00,F4,BB,05,00,
21369534,00000013,false,Rx,0,8,D0,86,03,00,26,B1,01,00,
21370878,00000014,false,Rx,0,4,9A,05,B0,02,00,00,00,00,
21422817,00000011,false,Rx,0,8,F3,11,00,00,8E,5F,00,00,
21424460,00000012,false,Rx,0,8,4C,A3,05,00,8C,BF,05,00,
21426024,00000013,false,Rx,0,8,D0,86,03,00,C7,B1,01,00,
21427320,00000014,false,Rx,0,4,9A,05,B1,02,00,00,00,00,
21479315,00000011,false,Rx,0,8,F3,11,00,00,52,5F,00,00,
21480897,00000012,false,Rx,0,8,4C,A3,05,00,F4,BB,05,00,
21482624,00000013,false,Rx,0,8,D0,86,03,00,26,B1,01,00,
21483788,00000014,false,Rx,0,4,9A,05,B0,02,00,00,00,00,
21535748,00000011,false,Rx,0,8,F3,11,00,00,52,5F,00,00,
21537361,00000012,false,Rx,0,8,4C,A3,05,00,F4,BB,05,00,
21538910,00000013,false,Rx,0,8,D0,86,03,00,26,B1,01,00,
21540217,00000014,false,Rx,0,4,9A,05,B0,02,00,00,00,00,
21592198,00000011,false,Rx,0,8,F7,11,00,00,52,5F,00,00,
21593792,00000012,false,Rx,0,8,8C,A4,05,00,F4,BB,05,00,
21595363,00000013,false,Rx,0,8,72,87,03,00,26,B1,01,00,
21596687,00000014,false,Rx,0,4,9B,05,B0,02,00,00,00,00,
21648687,00000011,false,Rx,0,8,C5,10,00,00,52,5F,00,00,
21650486,00000012,false,Rx,0,8,4F,44,05,00,F4,BB,05,00,
21651907,00000013,false,Rx,0,8,F7,56,03,00,26,B1,01,00,
21653150,00000014,false,Rx,0,4,4E,05,B0,02,00,00,00,00,
21705067,00000011,false,Rx,0,8,F4,10,00,00,A2,49,00,00,
21706663,00000012,false,Rx,0,8,4F,53,05,00,FF,6D,04,00,
21708232,00000013,false,Rx,0,8,85,5E,03,00,99,76,01,00,
21709559,00000014,false,Rx,0,4,5A,05,53,02,00,00,00,00,
21761732,00000011,false,Rx,0,8,2C,11,00,00,51,32,00,00,
21763108,00000012,false,Rx,0,8,CE,64,05,00,E8,06,03,00,
21764681,00000013,false,Rx,0,8,56,67,03,00,A4,37,01,00,
21765981,00000014,false,Rx,0,4,68,05,EF,01,00,00,00,00,
21818151,00000011,false,Rx,0,8,54,11,00,00,FF,21,00,00,
21819574,00000012,false,Rx,0,8,4E,71,05,00,8A,0B,02,00,
21821168,00000013,false,Rx,0,8,A1,6D,03,00,92,0B,01,00,
21822466,00000014,false,Rx,0,4,72,05,A9,01,00,00,00,00,
21874421,00000011,false,Rx,0,8,70,11,00,00,A3,15,00,00,
21876038,00000012,false,Rx,0,8,0D,7A,05,00,38,4D,01,00,
21877795,00000013,false,Rx,0,8,0A,72,03,00,34,EA,00,00,
21879068,00000014,false,Rx,0,4,79,05,74,01,00,00,00,00,
21931125,00000011,false,Rx,0,8,88,11,00,00,D8,0B,00,00,
21932521,00000012,false,Rx,0,8,8D,81,05,00,67,B6,00,00,
21934087,00000013,false,Rx,0,8,D1,75,03,00,C2,CF,00,00,
21935430,00000014,false,Rx,0,4,7F,05,4A,01,00,00,00,00,
21987403,00000011,false,Rx,0,8,94,11,00,00,C8,05,00,00,
21988946,00000012,false,Rx,0,8,4D,85,05,00,09,59,00,00,
21990522,00000013,false,Rx,0,8,B4,77,03,00,64,BF,00,00,
21991838,00000014,false,Rx,0,4,82,05,30,01,00,00,00,00,
22043848,00000011,false,Rx,0,8,A3,11,00,00,E2,00,00,00,
22045419,00000012,false,Rx,0,8,4D,8A,05,00,A1,0D,00,00,
22046991,00000013,false,Rx,0,8,39,7A,03,00,2B,B2,00,00,
22048264,00000014,false,Rx,0,4,86,05,1B,01,00,00,00,00,
22100522,00000011,false,Rx,0,8,AB,11,00,00,48,02,00,00,
22102058,00000012,false,Rx,0,8,CD,8C,05,00,2C,23,00,00,
22103479,00000013,false,Rx,0,8,7B,7B,03,00,F2,B5,00,00,
22104754,00000014,false,Rx,0,4,88,05,21,01,00,00,00,00,
22156747,00000011,false,Rx,0,8,B3,11,00,00,48,02,00,00,
22158340,00000012,false,Rx,0,8,4D,8F,05,00,2C,23,00,00,
22159940,00000013,false,Rx,0,8,BE,7C,03,00,F2,B5,00,00,
22161263,00000014,false,Rx,0,4,8A,05,21,01,00,00,00,00,
22213334,00000011,false,Rx,0,8,B3,11,00,00,48,02,00,00,
22215086,00000012,false,Rx,0,8,4D,8F,05,00,2C,23,00,00,
22216494,00000013,false,Rx,0,8,BE,7C,03,00,F2,B5,00,00,
22217944,00000014,false,Rx,0,4,8A,05,21,01,00,00,00,00,
22269700,00000011,false,Rx,0,8,BF,11,00,00,48,02,00,00,
22271276,00000012,false,Rx,0,8,0C,93,05,00,2C,23,00,00,
22272862,00000013,false,Rx,0,8,A1,7E,03,00,F2,B5,00,00,
22274181,00000014,false,Rx,0,4,8D,05,21,01,00,00,00,00,
22326177,00000011,false,Rx,0,8,C3,11,00,00,84,02,00,00,
22327770,00000012,false,Rx,0,8,4C,94,05,00,C4,26,00,00,
22329392,00000013,false,Rx,0,8,42,7F,03,00,93,B6,00,00,
22330682,00000014,false,Rx,0,4,8E,05,22,01,00,00,00,00,
22382849,00000011,false,Rx,0,8,C3,11,00,00,48,02,00,00,
22384266,00000012,false,Rx,0,8,4C,94,05,00,2C,23,00,00,
22385828,00000013,false,Rx,0,8,42,7F,03,00,F2,B5,00,00,
22387066,00000014,false,Rx,0,4,8E,05,21,01,00,00,00,00,
22439105,00000011,false,Rx,0,8,CB,11,00,00,48,02,00,00,
22440721,00000012,false,Rx,0,8,CC,96,05,00,2C,23,00,00,
22442297,00000013,false,Rx,0,8,85,80,03,00,F2,B5,00,00,
22443577,00000014,false,Rx,0,4,90,05,21,01,00,00,00,00,
22495550,00000011,false,Rx,0,8,CF,11,00,00,84,02,00,00,
22497217,00000012,false,Rx,0,8,0C,98,05,00,C4,26,00,00,
22499012,00000013,false,Rx,0,8,26,81,03,00,93,B6,00,00,
22500293,00000014,false,Rx,0,4,91,05,22,01,00,00,00,00,
22552081,00000011,false,Rx,0,8,D7,11,00,00,48,02,00,00,
22553643,00000012,false,Rx,0,8,8C,9A,05,00,2C,23,00,00,
22555222,00000013,false,Rx,0,8,68,82,03,00,F2,B5,00,00,
22556549,00000014,false,Rx,0,4,93,05,21,01,00,00,00,00,
22608553,00000011,false,Rx,0,8,DB,11,00,00,48,02,00,00,
22610171,00000012,false,Rx,0,8,CC,9B,05,00,2C,23,00,00,
22611714,00000013,false,Rx,0,8,09,83,03,00,F2,B5,00,00,
22613044,00000014,false,Rx,0,4,94,05,21,01,00,00,00,00,
22665074,00000011,false,Rx,0,8,DB,11,00,00,0D,02,00,00,
22666785,00000012,false,Rx,0,8,CC,9B,05,00,95,1F,00,00,
22668244,00000013,false,Rx,0,8,09,83,03,00,51,B5,00,00,
22669502,00000014,false,Rx,0,4,94,05,20,01,00,00,00,00,
22721476,00000011,false,Rx,0,8,DB,11,00,00,0D,02,00,00,
22723125,00000012,false,Rx,0,8,CC,9B,05,00,95,1F,00,00,
22724696,00000013,false,Rx,0,8,09,83,03,00,51,B5,00,00,
22726002,00000014,false,Rx,0,4,94,05,20,01,00,00,00,00,
22777980,00000011,false,Rx,0,8,E3,11,00,00,D1,01,00,00,
22779546,00000012,false,Rx,0,8,4C,9E,05,00,FE,1B,00,00,
22781402,00000013,false,Rx,0,8,4C,84,03,00,B0,B4,00,00,
22782698,00000014,false,Rx,0,4,96,05,1F,01,00,00,00,00,
22834696,00000011,false,Rx,0,8,E3,11,00,00,D1,01,00,00,
22836025,00000012,false,Rx,0,8,4C,9E,05,00,FE,1B,00,00,
22837598,00000013,false,Rx,0,8,4C,84,03,00,B0,B4,00,00,
22838907,00000014,false,Rx,0,4,96,05,1F,01,00,00,00,00,
22890915,00000011,false,Rx,0,8,E7,11,00,00,D1,01,00,00,
22892527,00000012,false,Rx,0,8,8C,9F,05,00,FE,1B,00,00,
22894076,00000013,false,Rx,0,8,ED,84,03,00,B0,B4,00,00,
22895403,00000014,false,Rx,0,4,97,05,1F,01,00,00,00,00,
22947512,00000011,false,Rx,0,8,EB,11,00,00,D1,01,00,00,
22948996,00000012,false,Rx,0,8,CC,A0,05,00,FE,1B,00,00,
22950733,00000013,false,Rx,0,8,8E,85,03,00,B0,B4,00,00,
22951853,00000014,false,Rx,0,4,98,05,1F,01,00,00,00,00,
23003832,00000011,false,Rx,0,8,EB,11,00,00,D1,01,00,00,
23005428,00000012,false,Rx,0,8,CC,A0,05,00,FE,1B,00,00,
23007004,00000013,false,Rx,0,8,8E,85,03,00,B0,B4,00,00,
23008300,00000014,false,Rx,0,4,98,05,1F,01,00,00,00,00,
23060306,00000011,false,Rx,0,8,EF,11,00,00,95,01,00,00,
23061926,00000012,false,Rx,0,8,0C,A2,05,00,66,18,00,00,
23063575,00000013,false,Rx,0,8,2F,86,03,00,0F,B4,00,00,
23064766,00000014,false,Rx,0,4,99,05,1E,01,00,00,00,00,
23116950,00000011,false,Rx,0,8,F3,11,00,00,95,01,00,00,
23118411,00000012,false,Rx,0,8,4C,A3,05,00,66,18,00,00,
23119930,00000013,false,Rx,0,8,D0,86,03,00,0F,B4,00,00,
23121224,00000014,false,Rx,0,4,9A,05,1E,01,00,00,00,00,
23173226,00000011,false,Rx,0,8,F3,11,00,00,0D,02,00,00,
23174820,00000012,false,Rx,0,8,4C,A3,05,00,95,1F,00,00,
23176393,00000013,false,Rx,0,8,D0,86,03,00,51,B5,00,00,
23177698,00000014,false,Rx,0,4,9A,05,20,01,00,00,00,00,
23229957,00000011,false,Rx,0,8,F3,11,00,00,0D,02,00,00,
23231586,00000012,false,Rx,0,8,4C,A3,05,00,95,1F,00,00,
23232924,00000013,false,Rx,0,8,D0,86,03,00,51,B5,00,00,
23234225,00000014,false,Rx,0,4,9A,05,20,01,00,00,00,00,
23286163,00000011,false,Rx,0,8,F7,11,00,00,95,01,00,00,
23287746,00000012,false,Rx,0,8,8C,A4,05,00,66,18,00,00,
23289319,00000013,false,Rx,0,8,72,87,03,00,0F,B4,00,00,
23290619,00000014,false,Rx,0,4,9B,05,1E,01,00,00,00,00,
23342679,00000011,false,Rx,0,8,F7,11,00,00,0D,02,00,00,
23344300,00000012,false,Rx,0,8,8C,A4,05,00,95,1F,00,00,
23345928,00000013,false,Rx,0,8,72,87,03,00,51,B5,00,00,
23347289,00000014,false,Rx,0,4,9B,05,20,01,00,00,00,00,
23399306,00000011,false,Rx,0,8,F7,11,00,00,D1,01,00,00,
23401154,00000012,false,Rx,0,8,8C,A4,05,00,FE,1B,00,00,
23402506,00000013,false,Rx,0,8,72,87,03,00,B0,B4,00,00,
23403726,00000014,false,Rx,0,4,9B,05,1F,01,00,00,00,00,
23455759,00000011,false,Rx,0,8,FF,11,00,00,95,01,00,00,
23457376,00000012,false,Rx,0,8,0C,A7,05,00,66,18,00,00,
23458926,00000013,false,Rx,0,8,B4,88,03,00,0F,B4,00,00,
23460266,00000014,false,Rx,0,4,9D,05,1E,01,00,00,00,00,
23512264,00000011,false,Rx,0,8,FF,11,00,00,95,01,00,00,
23513865,00000012,false,Rx,0,8,0C,A7,05,00,66,18,00,00,
23515431,00000013,false,Rx,0,8,B4,88,03,00,0F,B4,00,00,
23516743,00000014,false,Rx,0,4,9D,05,1E,01,00,00,00,00,
23568720,00000011,false,Rx,0,8,FF,11,00,00,D1,01,00,00,
23570324,00000012,false,Rx,0,8,0C,A7,05,00,FE,1B,00,00,
23571906,00000013,false,Rx,0,8,B4,88,03,00,B0,B4,00,00,
23573216,00000014,false,Rx,0,4,9D,05,1F,01,00,00,00,00,
23625249,00000011,false,Rx,0,8,03,12,00,00,FB,02,00,00,
23626831,00000012,false,Rx,0,8,4C,A8,05,00,F2,2D,00,00,
23628377,00000013,false,Rx,0,8,55,89,03,00,D6,B7,00,00,
23629874,00000014,false,Rx,0,4,9E,05,24,01,00,00,00,00,
23681749,00000011,false,Rx,0,8,03,12,00,00,95,01,00,00,
23683590,00000012,false,Rx,0,8,4C,A8,05,00,66,18,00,00,
23684879,00000013,false,Rx,0,8,55,89,03,00,0F,B4,00,00,
23686198,00000014,false,Rx,0,4,9E,05,1E,01,00,00,00,00,
23738217,00000011,false,Rx,0,8,07,12,00,00,D1,01,00,00,
23739822,00000012,false,Rx,0,8,8C,A9,05,00,FE,1B,00,00,
23741424,00000013,false,Rx,0,8,F6,89,03,00,B0,B4,00,00,
23742691,00000014,false,Rx,0,4,9F,05,1F,01,00,00,00,00,
23794700,00000011,false,Rx,0,8,07,12,00,00,0D,02,00,00,
23796396,00000012,false,Rx,0,8,8C,A9,05,00,95,1F,00,00,
23798101,00000013,false,Rx,0,8,F6,89,03,00,51,B5,00,00,
23799401,00000014,false,Rx,0,4,9F,05,20,01,00,00,00,00,
23851147,00000011,false,Rx,0,8,0B,12,00,00,D1,01,00,00,
23852773,00000012,false,Rx,0,8,CC,AA,05,00,FE,1B,00,00,
23854372,00000013,false,Rx,0,8,97,8A,03,00,B0,B4,00,00,
23855636,00000014,false,Rx,0,4,A0,05,1F,01,00,00,00,00,
23907606,00000011,false,Rx,0,8,0F,12,00,00,95,01,00,00,
23909227,00000012,false,Rx,0,8,0C,AC,05,00,66,18,00,00,
23910952,00000013,false,Rx,0,8,39,8B,03,00,0F,B4,00,00,
23912127,00000014,false,Rx,0,4,A1,05,1E,01,00,00,00,00,
23964107,00000011,false,Rx,0,8,0F,12,00,00,0D,02,00,00,
23965717,00000012,false,Rx,0,8,0C,AC,05,00,95,1F,00,00,
23967274,00000013,false,Rx,0,8,39,8B,03,00,51,B5,00,00,
23968583,00000014,false,Rx,0,4,A1,05,20,01,00,00,00,00,
24020582,00000011,false,Rx,0,8,0B,12,00,00,0D,02,00,00,
24022179,00000012,false,Rx,0,8,CC,AA,05,00,95,1F,00,00,
24023750,00000013,false,Rx,0,8,97,8A,03,00,51,B5,00,00,
24025051,00000014,false,Rx,0,4,A0,05,20,01,00,00,00,00,
24077263,00000011,false,Rx,0,8,0F,12,00,00,D1,01,00,00,
24078931,00000012,false,Rx,0,8,0C,AC,05,00,FE,1B,00,00,
24080260,00000013,false,Rx,0,8,39,8B,03,00,B0,B4,00,00,
24081557,00000014,false,Rx,0,4,A1,05,1F,01,00,00,00,00,
24133787,00000011,false,Rx,0,8,0F,12,00,00,0D,02,00,00,
24135133,00000012,false,Rx,0,8,0C,AC,05,00,95,1F,00,00,
24136681,00000013,false,Rx,0,8,39,8B,03,00,51,B5,00,00,
24137977,00000014,false,Rx,0,4,A1,05,20,01,00,00,00,00,
24189954,00000011,false,Rx,0,8,13,12,00,00,0D,02,00,00,
24191590,00000012,false,Rx,0,8,4C,AD,05,00,95,1F,00,00,
24193289,00000013,false,Rx,0,8,DA,8B,03,00,51,B5,00,00,
24194705,00000014,false,Rx,0,4,A2,05,20,01,00,00,00,00,
24246686,00000011,false,Rx,0,8,17,12,00,00,D1,01,00,00,
24248304,00000012,false,Rx,0,8,8C,AE,05,00,FE,1B,00,00,
24249862,00000013,false,Rx,0,8,7B,8C,03,00,B0,B4,00,00,
24251157,00000014,false,Rx,0,4,A3,05,1F,01,00,00,00,00,
24302883,00000011,false,Rx,0,8,13,12,00,00,0D,02,00,00,
24304503,00000012,false,Rx,0,8,4C,AD,05,00,95,1F,00,00,
24306106,00000013,false,Rx,0,8,DA,8B,03,00,51,B5,00,00,
24307404,00000014,false,Rx,0,4,A2,05,20,01,00,00,00,00,
24359387,00000011,false,Rx,0,8,17,12,00,00,0D,02,00,00,
24361265,00000012,false,Rx,0,8,8C,AE,05,00,95,1F,00,00,
24362832,00000013,false,Rx,0,8,7B,8C,03,00,51,B5,00,00,
24363878,00000014,false,Rx,0,4,A3,05,20,01,00,00,00,00,
24416126,00000011,false,Rx,0,8,17,12,00,00,D1,01,00,00,
24417734,00000012,false,Rx,0,8,8C,AE,05,00,FE,1B,00,00,
24419034,00000013,false,Rx,0,8,7B,8C,03,00,B0,B4,00,00,
24420358,00000014,false,Rx,0,4,A3,05,1F,01,00,00,00,00,
24472360,00000011,false,Rx,0,8,17,12,00,00,95,01,00,00,
24473955,00000012,false,Rx,0,8,8C,AE,05,00,66,18,00,00,
24475545,00000013,false,Rx,0,8,7B,8C,03,00,0F,B4,00,00,
24476952,00000014,false,Rx,0,4,A3,05,1E,01,00,00,00,00,
24528855,00000011,false,Rx,0,8,17,12,00,00,0D,02,00,00,
24530471,00000012,false,Rx,0,8,8C,AE,05,00,95,1F,00,00,
24532065,00000013,false,Rx,0,8,7B,8C,03,00,51,B5,00,00,
24533330,00000014,false,Rx,0,4,A3,05,20,01,00,00,00,00,
24585329,00000011,false,Rx,0,8,1B,12,00,00,95,01,00,00,
24586942,00000012,false,Rx,0,8,CB,AF,05,00,66,18,00,00,
24588508,00000013,false,Rx,0,8,1C,8D,03,00,0F,B4,00,00,
24589781,00000014,false,Rx,0,4,A4,05,1E,01,00,00,00,00,
24641900,00000011,false,Rx,0,8,1B,12,00,00,D1,01,00,00,
24643545,00000012,false,Rx,0,8,CB,AF,05,00,FE,1B,00,00,
24644975,00000013,false,Rx,0,8,1C,8D,03,00,B0,B4,00,00,
24646263,00000014,false,Rx,0,4,A4,05,1F,01,00,00,00,00,
24698272,00000011,false,Rx,0,8,1B,12,00,00,0D,02,00,00,
24700045,00000012,false,Rx,0,8,CB,AF,05,00,95,1F,00,00,
24701436,00000013,false,Rx,0,8,1C,8D,03,00,51,B5,00,00,
24702730,00000014,false,Rx,0,4,A4,05,20,01,00,00,00,00,
24754685,00000011,false,Rx,0,8,1B,12,00,00,D1,01,00,00,
24756304,00000012,false,Rx,0,8,CB,AF,05,00,FE,1B,00,00,
24757879,00000013,false,Rx,0,8,1C,8D,03,00,B0,B4,00,00,
24759436,00000014,false,Rx,0,4,A4,05,1F,01,00,00,00,00,
24811346,00000011,false,Rx,0,8,1B,12,00,00,0D,02,00,00,
24813029,00000012,false,Rx,0,8,CB,AF,05,00,95,1F,00,00,
24814585,00000013,false,Rx,0,8,1C,8D,03,00,51,B5,00,00,
24815693,00000014,false,Rx,0,4,A4,05,20,01,00,00,00,00,
24867814,00000011,false,Rx,0,8,1B,12,00,00,FB,02,00,00,
24869250,00000012,false,Rx,0,8,CB,AF,05,00,F2,2D,00,00,
24870813,00000013,false,Rx,0,8,1C,8D,03,00,D6,B7,00,00,
24872112,00000014,false,Rx,0,4,A4,05,24,01,00,00,00,00,
24924117,00000011,false,Rx,0,8,1F,12,00,00,95,01,00,00,
24925694,00000012,false,Rx,0,8,0B,B1,05,00,66,18,00,00,
24927286,00000013,false,Rx,0,8,BD,8D,03,00,0F,B4,00,00,
24928587,00000014,false,Rx,0,4,A5,05,1E,01,00,00,00,00,
24980606,00000011,false,Rx,0,8,1F,12,00,00,D1,01,00,00,
24982208,00000012,false,Rx,0,8,0B,B1,05,00,FE,1B,00,00,
24983788,00000013,false,Rx,0,8,BD,8D,03,00,B0,B4,00,00,
24985032,00000014,false,Rx,0,4,A5,05,1F,01,00,00,00,00,
25037039,00000011,false,Rx,0,8,1F,12,00,00,0D,02,00,00,
25038683,00000012,false,Rx,0,8,0B,B1,05,00,95,1F,00,00,
25040229,00000013,false,Rx,0,8,BD,8D,03,00,51,B5,00,00,
25041540,00000014,false,Rx,0,4,A5,05,20,01,00,00,00,00,
25093694,00000011,false,Rx,0,8,1F,12,00,00,D1,01,00,00,
25095245,00000012,false,Rx,0,8,0B,B1,05,00,FE,1B,00,00,
25096736,00000013,false,Rx,0,8,BD,8D,03,00,B0,B4,00,00,
25098034,00000014,false,Rx,0,4,A5,05,1F,01,00,00,00,00,
25150071,00000011,false,Rx,0,8,1F,12,00,00,D1,01,00,00,
25151625,00000012,false,Rx,0,8,0B,B1,05,00,FE,1B,00,00,
25153213,00000013,false,Rx,0,8,BD,8D,03,00,B0,B4,00,00,
25154520,00000014,false,Rx,0,4,A5,05,1F,01,00,00,00,00,
25206518,00000011,false,Rx,0,8,1F,12,00,00,D1,01,00,00,
25208145,00000012,false,Rx,0,8,0B,B1,05,00,FE,1B,00,00,
25209660,00000013,false,Rx,0,8,BD,8D,03,00,B0,B4,00,00,
25211165,00000014,false,Rx,0,4,A5,05,1F,01,00,00,00,00,
25263007,00000011,false,Rx,0,8,23,12,00,00,D1,01,00,00,
25264604,00000012,false,Rx,0,8,4B,B2,05,00,FE,1B,00,00,
25266181,00000013,false,Rx,0,8,5E,8E,03,00,B0,B4,00,00,
25267474,00000014,false,Rx,0,4,A6,05,1F,01,00,00,00,00,
25319473,00000011,false,Rx,0,8,1F,12,00,00,0D,02,00,00,
25321072,00000012,false,Rx,0,8,0B,B1,05,00,95,1F,00,00,
25322653,00000013,false,Rx,0,8,BD,8D,03,00,51,B5,00,00,
25323951,00000014,false,Rx,0,4,A5,05,20,01,00,00,00,00,
25375960,00000011,false,Rx,0,8,23,12,00,00,0D,02,00,00,
25377551,00000012,false,Rx,0,8,4B,B2,05,00,95,1F,00,00,
25379280,00000013,false,Rx,0,8,5E,8E,03,00,51,B5,00,00,
25380542,00000014,false,Rx,0,4,A6,05,20,01,00,00,00,00,
25432512,00000011,false,Rx,0,8,23,12,00,00,D1,01,00,00,
25434287,00000012,false,Rx,0,8,4B,B2,05,00,FE,1B,00,00,
25435572,00000013,false,Rx,0,8,5E,8E,03,00,B0,B4,00,00,
25436867,00000014,false,Rx,0,4,A6,05,1F,01,00,00,00,00,
25488894,00000011,false,Rx,0,8,1F,12,00,00,D1,01,00,00,
25490514,00000012,false,Rx,0,8,0B,B1,05,00,FE,1B,00,00,
25492088,00000013,false,Rx,0,8,BD,8D,03,00,B0,B4,00,00,
25493507,00000014,false,Rx,0,4,A5,05,1F,01,00,00,00,00,
25545472,00000011,false,Rx,0,8,23,12,00,00,D1,01,00,00,
25547129,00000012,false,Rx,0,8,4B,B2,05,00,FE,1B,00,00,
25548643,00000013,false,Rx,0,8,5E,8E,03,00,B0,B4,00,00,
25550092,00000014,false,Rx,0,4,A6,05,1F,01,00,00,00,00,
25601840,00000011,false,Rx,0,8,23,12,00,00,95,01,00,00,
25603467,00000012,false,Rx,0,8,4B,B2,05,00,66,18,00,00,
25605015,00000013,false,Rx,0,8,5E,8E,03,00,0F,B4,00,00,
25606285,00000014,false,Rx,0,4,A6,05,1E,01,00,00,00,00,
25658324,00000011,false,Rx,0,8,27,12,00,00,D1,01,00,00,
25659906,00000012,false,Rx,0,8,8B,B3,05,00,FE,1B,00,00,
25661742,00000013,false,Rx,0,8,00,8F,03,00,B0,B4,00,00,
25662970,00000014,false,Rx,0,4,A7,05,1F,01,00,00,00,00,
25715016,00000011,false,Rx,0,8,23,12,00,00,95,01,00,00,
25716474,00000012,false,Rx,0,8,4B,B2,05,00,66,18,00,00,
25717962,00000013,false,Rx,0,8,5E,8E,03,00,0F,B4,00,00,
25719240,00000014,false,Rx,0,4,A6,05,1E,01,00,00,00,00,
25771237,00000011,false,Rx,0,8,23,12,00,00,D1,01,00,00,
25772847,00000012,false,Rx,0,8,4B,B2,05,00,FE,1B,00,00,
25774416,00000013,false,Rx,0,8,5E,8E,03,00,B0,B4,00,00,
25775692,00000014,false,Rx,0,4,A6,05,1F,01,00,00,00,00,
25827646,00000011,false,Rx,0,8,23,12,00,00,95,01,00,00,
25829314,00000012,false,Rx,0,8,4B,B2,05,00,66,18,00,00,
25830944,00000013,false,Rx,0,8,5E,8E,03,00,0F,B4,00,00,
25832413,00000014,false,Rx,0,4,A6,05,1E,01,00,00,00,00,
25884151,00000011,false,Rx,0,8,23,12,00,00,D1,01,00,00,
25885769,00000012,false,Rx,0,8,4B,B2,05,00,FE,1B,00,00,
25887290,00000013,false,Rx,0,8,5E,8E,03,00,B0,B4,00,00,
25888612,00000014,false,Rx,0,4,A6,05,1F,01,00,00,00,00,
25940639,00000011,false,Rx,0,8,23,12,00,00,95,01,00,00,
25942232,00000012,false,Rx,0,8,4B,B2,05,00,66,18,00,00,
25943768,00000013,false,Rx,0,8,5E,8E,03,00,0F,B4,00,00,
25945064,00000014,false,Rx,0,4,A6,05,1E,01,00,00,00,00,
25997316,00000011,false,Rx,0,8,23,12,00,00,95,01,00,00,
25998917,00000012,false,Rx,0,8,4B,B2,05,00,66,18,00,00,
26000279,00000013,false,Rx,0,8,5E,8E,03,00,0F,B4,00,00,
26001559,00000014,false,Rx,0,4,A6,05,1E,01,00,00,00,00,
26053536,00000011,false,Rx,0,8,27,12,00,00,95,01,00,00,
26055151,00000012,false,Rx,0,8,8B,B3,05,00,66,18,00,00,
26056724,00000013,false,Rx,0,8,00,8F,03,00,0F,B4,00,00,
26057998,00000014,false,Rx,0,4,A7,05,1E,01,00,00,00,00,
26109976,00000011,false,Rx,0,8,2B,12,00,00,FB,02,00,00,
26111568,00000012,false,Rx,0,8,CB,B4,05,00,F2,2D,00,00,
26113138,00000013,false,Rx,0,8,A1,8F,03,00,D6,B7,00,00,
26114434,00000014,false,Rx,0,4,A8,05,24,01,00,00,00,00,
26166469,00000011,false,Rx,0,8,27,12,00,00,95,01,00,00,
26168077,00000012,false,Rx,0,8,8B,B3,05,00,66,18,00,00,
26169615,00000013,false,Rx,0,8,00,8F,03,00,0F,B4,00,00,
26170889,00000014,false,Rx,0,4,A7,05,1E,01,00,00,00,00,
26222898,00000011,false,Rx,0,8,27,12,00,00,D1,01,00,00,
26224467,00000012,false,Rx,0,8,8B,B3,05,00,FE,1B,00,00,
26226070,00000013,false,Rx,0,8,00,8F,03,00,B0,B4,00,00,
26227365,00000014,false,Rx,0,4,A7,05,1F,01,00,00,00,00,
26279522,00000011,false,Rx,0,8,27,12,00,00,00,00,00,00,
26281125,00000012,false,Rx,0,8,8B,B3,05,00,00,00,00,00,
26282699,00000013,false,Rx,0,8,00,8F,03,00,64,AE,00,00,
26283849,00000014,false,Rx,0,4,A7,05,15,01,00,00,00,00,
26335795,00000011,false,Rx,0,8,27,12,00,00,95,01,00,00,
26337464,00000012,false,Rx,0,8,8B,B3,05,00,66,18,00,00,
26339020,00000013,false,Rx,0,8,00,8F,03,00,0F,B4,00,00,
26340291,00000014,false,Rx,0,4,A7,05,1E,01,00,00,00,00,
26392541,00000011,false,Rx,0,8,27,12,00,00,95,01,00,00,
26394156,00000012,false,Rx,0,8,8B,B3,05,00,66,18,00,00,
26395622,00000013,false,Rx,0,8,00,8F,03,00,0F,B4,00,00,
26396820,00000014,false,Rx,0,4,A7,05,1E,01,00,00,00,00,
26448973,00000011,false,Rx,0,8,27,12,00,00,95,01,00,00,
26450619,00000012,false,Rx,0,8,8B,B3,05,00,66,18,00,00,
26451978,00000013,false,Rx,0,8,00,8F,03,00,0F,B4,00,00,
26453241,00000014,false,Rx,0,4,A7,05,1E,01,00,00,00,00,
26505248,00000011,false,Rx,0,8,27,12,00,00,95,01,00,00,
26506866,00000012,false,Rx,0,8,8B,B3,05,00,66,18,00,00,
26508692,00000013,false,Rx,0,8,00,8F,03,00,0F,B4,00,00,
26509973,00000014,false,Rx,0,4,A7,05,1E,01,00,00,00,00,
26561979,00000011,false,Rx,0,8,27,12,00,00,95,01,00,00,
26563494,00000012,false,Rx,0,8,8B,B3,05,00,66,18,00,00,
26564891,00000013,false,Rx,0,8,00,8F,03,00,0F,B4,00,00,
26566191,00000014,false,Rx,0,4,A7,05,1E,01,00,00,00,00,
26618162,00000011,false,Rx,0,8,27,12,00,00,D1,01,00,00,
26619797,00000012,false,Rx,0,8,8B,B3,05,00,FE,1B,00,00,
26621419,00000013,false,Rx,0,8,00,8F,03,00,B0,B4,00,00,
26622641,00000014,false,Rx,0,4,A7,05,1F,01,00,00,00,00,
26674650,00000011,false,Rx,0,8,23,12,00,00,D1,01,00,00,
26676496,00000012,false,Rx,0,8,4B,B2,05,00,FE,1B,00,00,
26678074,00000013,false,Rx,0,8,5E,8E,03,00,B0,B4,00,00,
26679372,00000014,false,Rx,0,4,A6,05,1F,01,00,00,00,00,
26731126,00000011,false,Rx,0,8,27,12,00,00,95,01,00,00,
26732678,00000012,false,Rx,0,8,8B,B3,05,00,66,18,00,00,
26734250,00000013,false,Rx,0,8,00,8F,03,00,0F,B4,00,00,
26735533,00000014,false,Rx,0,4,A7,05,1E,01,00,00,00,00,
26787501,00000011,false,Rx,0,8,23,12,00,00,95,01,00,00,
26789125,00000012,false,Rx,0,8,4B,B2,05,00,66,18,00,00,
26790702,00000013,false,Rx,0,8,5E,8E,03,00,0F,B4,00,00,
26791974,00000014,false,Rx,0,4,A6,05,1E,01,00,00,00,00,
26843957,00000011,false,Rx,0,8,27,12,00,00,95,01,00,00,
26845581,00000012,false,Rx,0,8,8B,B3,05,00,66,18,00,00,
26847150,00000013,false,Rx,0,8,00,8F,03,00,0F,B4,00,00,
26848425,00000014,false,Rx,0,4,A7,05,1E,01,00,00,00,00,
26900461,00000011,false,Rx,0,8,27,12,00,00,95,01,00,00,
26902028,00000012,false,Rx,0,8,8B,B3,05,00,66,18,00,00,
26903595,00000013,false,Rx,0,8,00,8F,03,00,0F,B4,00,00,
26904879,00000014,false,Rx,0,4,A7,05,1E,01,00,00,00,00,
26956859,00000011,false,Rx,0,8,27,12,00,00,D1,01,00,00,
26958476,00000012,false,Rx,0,8,8B,B3,05,00,FE,1B,00,00,
26960026,00000013,false,Rx,0,8,00,8F,03,00,B0,B4,00,00,
26961435,00000014,false,Rx,0,4,A7,05,1F,01,00,00,00,00,
27013308,00000011,false,Rx,0,8,2B,12,00,00,0D,02,00,00,
27014927,00000012,false,Rx,0,8,CB,B4,05,00,95,1F,00,00,
27016476,00000013,false,Rx,0,8,A1,8F,03,00,51,B5,00,00,
27017784,00000014,false,Rx,0,4,A8,05,20,01,00,00,00,00,
27069782,00000011,false,Rx,0,8,27,12,00,00,D1,01,00,00,
27071351,00000012,false,Rx,0,8,8B,B3,05,00,FE,1B,00,00,
27072922,00000013,false,Rx,0,8,00,8F,03,00,B0,B4,00,00,
27074222,00000014,false,Rx,0,4,A7,05,1F,01,00,00,00,00,
27126258,00000011,false,Rx,0,8,27,12,00,00,D1,01,00,00,
27127853,00000012,false,Rx,0,8,8B,B3,05,00,FE,1B,00,00,
27129450,00000013,false,Rx,0,8,00,8F,03,00,B0,B4,00,00,
27130972,00000014,false,Rx,0,4,A7,05,1F,01,00,00,00,00,
27182950,00000011,false,Rx,0,8,23,12,00,00,95,01,00,00,
27184336,00000012,false,Rx,0,8,4B,B2,05,00,66,18,00,00,
27185876,00000013,false,Rx,0,8,5E,8E,03,00,0F,B4,00,00,
27187166,00000014,false,Rx,0,4,A6,05,1E,01,00,00,00,00,
27239159,00000011,false,Rx,0,8,27,12,00,00,95,01,00,00,
27240777,00000012,false,Rx,0,8,8B,B3,05,00,66,18,00,00,
27242333,00000013,false,Rx,0,8,00,8F,03,00,0F,B4,00,00,
27243599,00000014,false,Rx,0,4,A7,05,1E,01,00,00,00,00,
27295692,00000011,false,Rx,0,8,27,12,00,00,95,01,00,00,
27297227,00000012,false,Rx,0,8,8B,B3,05,00,66,18,00,00,
27298952,00000013,false,Rx,0,8,00,8F,03,00,0F,B4,00,00,
27300319,00000014,false,Rx,0,4,A7,05,1E,01,00,00,00,00,
27352032,00000011,false,Rx,0,8,27,12,00,00,95,01,00,00,
27353661,00000012,false,Rx,0,8,8B,B3,05,00,66,18,00,00,
27355231,00000013,false,Rx,0,8,00,8F,03,00,0F,B4,00,00,
27356506,00000014,false,Rx,0,4,A7,05,1E,01,00,00,00,00,
27408468,00000011,false,Rx,0,8,27,12,00,00,95,01,00,00,
27410050,00000012,false,Rx,0,8,8B,B3,05,00,66,18,00,00,
27411632,00000013,false,Rx,0,8,00,8F,03,00,0F,B4,00,00,
27412984,00000014,false,Rx,0,4,A7,05,1E,01,00,00,00,00,
27464959,00000011,false,Rx,0,8,27,12,00,00,95,01,00,00,
27466768,00000012,false,Rx,0,8,8B,B3,05,00,66,18,00,00,
27468110,00000013,false,Rx,0,8,00,8F,03,00,0F,B4,00,00,
27469432,00000014,false,Rx,0,4,A7,05,1E,01,00,00,00,00,
27521369,00000011,false,Rx,0,8,27,12,00,00,95,01,00,00,
27523002,00000012,false,Rx,0,8,8B,B3,05,00,66,18,00,00,
27524575,00000013,false,Rx,0,8,00,8F,03,00,0F,B4,00,00,
27525833,00000014,false,Rx,0,4,A7,05,1E,01,00,00,00,00,
27578111,00000011,false,Rx,0,8,27,12,00,00,D1,01,00,00,
27579681,00000012,false,Rx,0,8,8B,B3,05,00,FE,1B,00,00,
27581052,00000013,false,Rx,0,8,00,8F,03,00,B0,B4,00,00,
27582365,00000014,false,Rx,0,4,A7,05,1F,01,00,00,00,00,
27634320,00000011,false,Rx,0,8,27,12,00,00,D1,01,00,00,
27635904,00000012,false,Rx,0,8,8B,B3,05,00,FE,1B,00,00,
27637476,00000013,false,Rx,0,8,00,8F,03,00,B0,B4,00,00,
27638777,00000014,false,Rx,0,4,A7,05,1F,01,00,00,00,00,
27690800,00000011,false,Rx,0,8,27,12,00,00,95,01,00,00,
27692395,00000012,false,Rx,0,8,8B,B3,05,00,66,18,00,00,
27693965,00000013,false,Rx,0,8,00,8F,03,00,0F,B4,00,00,
27695363,00000014,false,Rx,0,4,A7,05,1E,01,00,00,00,00,
27747481,00000011,false,Rx,0,8,27,12,00,00,95,01,00,00,
27749102,00000012,false,Rx,0,8,8B,B3,05,00,66,18,00,00,
27750412,00000013,false,Rx,0,8,00,8F,03,00,0F,B4,00,00,
27751720,00000014,false,Rx,0,4,A7,05,1E,01,00,00,00,00,
27803711,00000011,false,Rx,0,8,2B,12,00,00,95,01,00,00,
27805305,00000012,false,Rx,0,8,CB,B4,05,00,66,18,00,00,
27806880,00000013,false,Rx,0,8,A1,8F,03,00,0F,B4,00,00,
27808185,00000014,false,Rx,0,4,A8,05,1E,01,00,00,00,00,
27860405,00000011,false,Rx,0,8,27,12,00,00,95,01,00,00,
27861929,00000012,false,Rx,0,8,8B,B3,05,00,66,18,00,00,
27863611,00000013,false,Rx,0,8,00,8F,03,00,0F,B4,00,00,
27864633,00000014,false,Rx,0,4,A7,05,1E,01,00,00,00,00,
27916787,00000011,false,Rx,0,8,27,12,00,00,95,01,00,00,
27918243,00000012,false,Rx,0,8,8B,B3,05,00,66,18,00,00,
27919784,00000013,false,Rx,0,8,00,8F,03,00,0F,B4,00,00,
27921084,00000014,false,Rx,0,4,A7,05,1E,01,00,00,00,00,
27973087,00000011,false,Rx,0,8,23,12,00,00,D1,01,00,00,
27974680,00000012,false,Rx,0,8,4B,B2,05,00,FE,1B,00,00,
27976498,00000013,false,Rx,0,8,5E,8E,03,00,B0,B4,00,00,
27977806,00000014,false,Rx,0,4,A6,05,1F,01,00,00,00,00,
28029814,00000011,false,Rx,0,8,61,0D,00,00,24,3F,00,00,
28031412,00000012,false,Rx,0,8,D9,33,04,00,68,CC,03,00,
28032754,00000013,false,Rx,0,8,B8,CD,02,00,44,5A,01,00,
28034006,00000014,false,Rx,0,4,74,04,26,02,00,00,00,00,
28086015,00000011,false,Rx,0,8,7C,11,00,00,1E,62,00,00,
28087610,00000012,false,Rx,0,8,CD,7D,05,00,0C,E7,05,00,
28089188,00000013,false,Rx,0,8,ED,73,03,00,B4,B8,01,00,
28090482,00000014,false,Rx,0,4,7C,05,BC,02,00,00,00,00,
28142463,00000011,false,Rx,0,8,2F,12,00,00,AF,64,00,00,
28144242,00000012,false,Rx,0,8,0B,B6,05,00,8C,0E,06,00,
28145664,00000013,false,Rx,0,8,42,90,03,00,A1,BF,01,00,
28146912,00000014,false,Rx,0,4,A9,05,C7,02,00,00,00,00,
28199105,00000011,false,Rx,0,8,0F,12,00,00,0D,63,00,00,
28200513,00000012,false,Rx,0,8,0C,AC,05,00,69,F5,05,00,
28202054,00000013,false,Rx,0,8,39,8B,03,00,39,BB,01,00,
28203330,00000014,false,Rx,0,4,A1,05,C0,02,00,00,00,00,
28255360,00000011,false,Rx,0,8,F3,11,00,00,D1,62,00,00,
28256975,00000012,false,Rx,0,8,4C,A3,05,00,D1,F1,05,00,
28258554,00000013,false,Rx,0,8,D0,86,03,00,98,BA,01,00,
28259810,00000014,false,Rx,0,4,9A,05,BF,02,00,00,00,00,
28311822,00000011,false,Rx,0,8,E7,11,00,00,5A,62,00,00,
28313454,00000012,false,Rx,0,8,8C,9F,05,00,A3,EA,05,00,
28315054,00000013,false,Rx,0,8,ED,84,03,00,55,B9,01,00,
28316525,00000014,false,Rx,0,4,97,05,BD,02,00,00,00,00,
28368339,00000011,false,Rx,0,8,DF,11,00,00,E3,61,00,00,
28369995,00000012,false,Rx,0,8,0C,9D,05,00,74,E3,05,00,
28371593,00000013,false,Rx,0,8,AB,83,03,00,13,B8,01,00,
28372850,00000014,false,Rx,0,4,95,05,BB,02,00,00,00,00,
28424835,00000011,false,Rx,0,8,D7,11,00,00,E3,61,00,00,
28426414,00000012,false,Rx,0,8,8C,9A,05,00,74,E3,05,00,
28428016,00000013,false,Rx,0,8,68,82,03,00,13,B8,01,00,
28429331,00000014,false,Rx,0,4,93,05,BB,02,00,00,00,00,
28481316,00000011,false,Rx,0,8,D3,11,00,00,A7,61,00,00,
28483195,00000012,false,Rx,0,8,4C,99,05,00,DD,DF,05,00,
28484470,00000013,false,Rx,0,8,C7,81,03,00,72,B7,01,00,
28485773,00000014,false,Rx,0,4,92,05,BA,02,00,00,00,00,
28537769,00000011,false,Rx,0,8,CF,11,00,00,A7,61,00,00,
28539362,00000012,false,Rx,0,8,0C,98,05,00,DD,DF,05,00,
28540936,00000013,false,Rx,0,8,26,81,03,00,72,B7,01,00,
28542235,00000014,false,Rx,0,4,91,05,BA,02,00,00,00,00,
28594463,00000011,false,Rx,0,8,D3,11,00,00,6B,61,00,00,
28595819,00000012,false,Rx,0,8,4C,99,05,00,46,DC,05,00,
28597409,00000013,false,Rx,0,8,C7,81,03,00,D0,B6,01,00,
28598932,00000014,false,Rx,0,4,92,05,B9,02,00,00,00,00,
28650685,00000011,false,Rx,0,8,D3,11,00,00,6B,61,00,00,
28652257,00000012,false,Rx,0,8,4C,99,05,00,46,DC,05,00,
28653833,00000013,false,Rx,0,8,C7,81,03,00,D0,B6,01,00,
28655129,00000014,false,Rx,0,4,92,05,B9,02,00,00,00,00,
28707144,00000011,false,Rx,0,8,CF,11,00,00,2F,61,00,00,
28708764,00000012,false,Rx,0,8,0C,98,05,00,AE,D8,05,00,
28710337,00000013,false,Rx,0,8,26,81,03,00,2F,B6,01,00,
28711678,00000014,false,Rx,0,4,91,05,B8,02,00,00,00,00,
28763590,00000011,false,Rx,0,8,CF,11,00,00,2F,61,00,00,
28765185,00000012,false,Rx,0,8,0C,98,05,00,AE,D8,05,00,
28766755,00000013,false,Rx,0,8,26,81,03,00,2F,B6,01,00,
28768061,00000014,false,Rx,0,4,91,05,B8,02,00,00,00,00,
28820076,00000011,false,Rx,0,8,D3,11,00,00,2F,61,00,00,
28821692,00000012,false,Rx,0,8,4C,99,05,00,AE,D8,05,00,
28823263,00000013,false,Rx,0,8,C7,81,03,00,2F,B6,01,00,
28824537,00000014,false,Rx,0,4,92,05,B8,02,00,00,00,00,
28876520,00000011,false,Rx,0,8,D7,11,00,00,F4,60,00,00,
28878417,00000012,false,Rx,0,8,8C,9A,05,00,17,D5,05,00,
28879734,00000013,false,Rx,0,8,68,82,03,00,8E,B5,01,00,
28881264,00000014,false,Rx,0,4,93,05,B7,02,00,00,00,00,
28933122,00000011,false,Rx,0,8,D7,11,00,00,F4,60,00,00,
28934597,00000012,false,Rx,0,8,8C,9A,05,00,17,D5,05,00,
28936193,00000013,false,Rx,0,8,68,82,03,00,8E,B5,01,00,
28937465,00000014,false,Rx,0,4,93,05,B7,02,00,00,00,00,
28989446,00000011,false,Rx,0,8,D3,11,00,00,B8,60,00,00,
28991033,00000012,false,Rx,0,8,4C,99,05,00,80,D1,05,00,
28992585,00000013,false,Rx,0,8,C7,81,03,00,ED,B4,01,00,
28994091,00000014,false,Rx,0,4,92,05,B6,02,00,00,00,00,
29046117,00000011,false,Rx,0,8,D7,11,00,00,B8,60,00,00,
29047693,00000012,false,Rx,0,8,8C,9A,05,00,80,D1,05,00,
29049319,00000013,false,Rx,0,8,68,82,03,00,ED,B4,01,00,
29050377,00000014,false,Rx,0,4,93,05,B6,02,00,00,00,00,
29102319,00000011,false,Rx,0,8,DB,11,00,00,B8,60,00,00,
29103941,00000012,false,Rx,0,8,CC,9B,05,00,80,D1,05,00,
29105485,00000013,false,Rx,0,8,09,83,03,00,ED,B4,01,00,
29106782,00000014,false,Rx,0,4,94,05,B6,02,00,00,00,00,
29158796,00000011,false,Rx,0,8,DB,11,00,00,B8,60,00,00,
29160461,00000012,false,Rx,0,8,CC,9B,05,00,80,D1,05,00,
29162011,00000013,false,Rx,0,8,09,83,03,00,ED,B4,01,00,
29163530,00000014,false,Rx,0,4,94,05,B6,02,00,00,00,00,
29215518,00000011,false,Rx,0,8,DF,11,00,00,B8,60,00,00,
29216903,00000012,false,Rx,0,8,0C,9D,05,00,80,D1,05,00,
29218446,00000013,false,Rx,0,8,AB,83,03,00,ED,B4,01,00,
29219717,00000014,false,Rx,0,4,95,05,B6,02,00,00,00,00,
29271694,00000011,false,Rx,0,8,DF,11,00,00,7C,60,00,00,
29273348,00000012,false,Rx,0,8,0C,9D,05,00,E9,CD,05,00,
29274916,00000013,false,Rx,0,8,AB,83,03,00,4C,B4,01,00,
29276206,00000014,false,Rx,0,4,95,05,B5,02,00,00,00,00,
29328181,00000011,false,Rx,0,8,DF,11,00,00,7C,60,00,00,
29329796,00000012,false,Rx,0,8,0C,9D,05,00,E9,CD,05,00,
29331592,00000013,false,Rx,0,8,AB,83,03,00,4C,B4,01,00,
29332920,00000014,false,Rx,0,4,95,05,B5,02,00,00,00,00,
29384575,00000011,false,Rx,0,8,E3,11,00,00,41,60,00,00,
29386226,00000012,false,Rx,0,8,4C,9E,05,00,51,CA,05,00,
29387801,00000013,false,Rx,0,8,4C,84,03,00,AB,B3,01,00,
29389105,00000014,false,Rx,0,4,96,05,B4,02,00,00,00,00,
29441014,00000011,false,Rx,0,8,E7,11,00,00,7C,60,00,00,
29442634,00000012,false,Rx,0,8,8C,9F,05,00,E9,CD,05,00,
29444181,00000013,false,Rx,0,8,ED,84,03,00,4C,B4,01,00,
29445482,00000014,false,Rx,0,4,97,05,B5,02,00,00,00,00,
29497517,00000011,false,Rx,0,8,E7,11,00,00,41,60,00,00,
29499114,00000012,false,Rx,0,8,8C,9F,05,00,51,CA,05,00,
29500690,00000013,false,Rx,0,8,ED,84,03,00,AB,B3,01,00,
29501961,00000014,false,Rx,0,4,97,05,B4,02,00,00,00,00,
29553944,00000011,false,Rx,0,8,E7,11,00,00,41,60,00,00,
29555560,00000012,false,Rx,0,8,8C,9F,05,00,51,CA,05,00,
29557372,00000013,false,Rx,0,8,ED,84,03,00,AB,B3,01,00,
29558699,00000014,false,Rx,0,4,97,05,B4,02,00,00,00,00,
29610662,00000011,false,Rx,0,8,E7,11,00,00,41,60,00,00,
29611991,00000012,false,Rx,0,8,8C,9F,05,00,51,CA,05,00,
29613595,00000013,false,Rx,0,8,ED,84,03,00,AB,B3,01,00,
29614925,00000014,false,Rx,0,4,97,05,B4,02,00,00,00,00,
29666858,00000011,false,Rx,0,8,EB,11,00,00,41,60,00,00,
29668486,00000012,false,Rx,0,8,CC,A0,05,00,51,CA,05,00,
29670026,00000013,false,Rx,0,8,8E,85,03,00,AB,B3,01,00,
29671355,00000014,false,Rx,0,4,98,05,B4,02,00,00,00,00,
29723290,00000011,false,Rx,0,8,E7,11,00,00,41,60,00,00,
29724895,00000012,false,Rx,0,8,8C,9F,05,00,51,CA,05,00,
29726487,00000013,false,Rx,0,8,ED,84,03,00,AB,B3,01,00,
29727788,00000014,false,Rx,0,4,97,05,B4,02,00,00,00,00,
29779776,00000011,false,Rx,0,8,EF,11,00,00,05,60,00,00,
29781390,00000012,false,Rx,0,8,0C,A2,05,00,BA,C6,05,00,
29782938,00000013,false,Rx,0,8,2F,86,03,00,09,B3,01,00,
29784240,00000014,false,Rx,0,4,99,05,B3,02,00,00,00,00,
29836219,00000011,false,Rx,0,8,EF,11,00,00,41,60,00,00,
29837812,00000012,false,Rx,0,8,0C,A2,05,00,51,CA,05,00,
29839361,00000013,false,Rx,0,8,2F,86,03,00,AB,B3,01,00,
29840940,00000014,false,Rx,0,4,99,05,B4,02,00,00,00,00,
29892920,00000011,false,Rx,0,8,EF,11,00,00,05,60,00,00,
29894549,00000012,false,Rx,0,8,0C,A2,05,00,BA,C6,05,00,
29895839,00000013,false,Rx,0,8,2F,86,03,00,09,B3,01,00,
29897167,00000014,false,Rx,0,4,99,05,B3,02,00,00,00,00,
29949377,00000011,false,Rx,0,8,EF,11,00,00,05,60,00,00,
29950701,00000012,false,Rx,0,8,0C,A2,05,00,BA,C6,05,00,
29952297,00000013,false,Rx,0,8,2F,86,03,00,09,B3,01,00,
29953571,00000014,false,Rx,0,4,99,05,B3,02,00,00,00,00,
30005570,00000011,false,Rx,0,8,F3,11,00,00,05,60,00,00,
30007166,00000012,false,Rx,0,8,4C,A3,05,00,BA,C6,05,00,
30008736,00000013,false,Rx,0,8,D0,86,03,00,09,B3,01,00,
30010013,00000014,false,Rx,0,4,9A,05,B3,02,00,00,00,00,
30061974,00000011,false,Rx,0,8,F7,11,00,00,C9,5F,00,00,
30063679,00000012,false,Rx,0,8,8C,A4,05,00,23,C3,05,00,
30065148,00000013,false,Rx,0,8,72,87,03,00,68,B2,01,00,
30066414,00000014,false,Rx,0,4,9B,05,B2,02,00,00,00,00,
30118373,00000011,false,Rx,0,8,F3,11,00,00,C9,5F,00,00,
30119992,00000012,false,Rx,0,8,4C,A3,05,00,23,C3,05,00,
30121570,00000013,false,Rx,0,8,D0,86,03,00,68,B2,01,00,
30122865,00000014,false,Rx,0,4,9A,05,B2,02,00,00,00,00,
30175005,00000011,false,Rx,0,8,F7,11,00,00,C9,5F,00,00,
30176468,00000012,false,Rx,0,8,8C,A4,05,00,23,C3,05,00,
30178017,00000013,false,Rx,0,8,72,87,03,00,68,B2,01,00,
30179547,00000014,false,Rx,0,4,9B,05,B2,02,00,00,00,00,
30231498,00000011,false,Rx,0,8,F7,11,00,00,05,60,00,00,
30232844,00000012,false,Rx,0,8,8C,A4,05,00,BA,C6,05,00,
30234448,00000013,false,Rx,0,8,72,87,03,00,09,B3,01,00,
30235694,00000014,false,Rx,0,4,9B,05,B3,02,00,00,00,00,
30287719,00000011,false,Rx,0,8,FF,11,00,00,05,60,00,00,
30289295,00000012,false,Rx,0,8,0C,A7,05,00,BA,C6,05,00,
30290869,00000013,false,Rx,0,8,B4,88,03,00,09,B3,01,00,
30292350,00000014,false,Rx,0,4,9D,05,B3,02,00,00,00,00,
30344175,00000011,false,Rx,0,8,FB,11,00,00,C9,5F,00,00,
30345689,00000012,false,Rx,0,8,CC,A5,05,00,23,C3,05,00,
30347237,00000013,false,Rx,0,8,13,88,03,00,68,B2,01,00,
30348537,00000014,false,Rx,0,4,9C,05,B2,02,00,00,00,00,
30400548,00000011,false,Rx,0,8,FB,11,00,00,C9,5F,00,00,
30402128,00000012,false,Rx,0,8,CC,A5,05,00,23,C3,05,00,
30403716,00000013,false,Rx,0,8,13,88,03,00,68,B2,01,00,
30404970,00000014,false,Rx,0,4,9C,05,B2,02,00,00,00,00,
30456973,00000011,false,Rx,0,8,FF,11,00,00,C9,5F,00,00,
30458552,00000012,false,Rx,0,8,0C,A7,05,00,23,C3,05,00,
30460139,00000013,false,Rx,0,8,B4,88,03,00,68,B2,01,00,
30461465,00000014,false,Rx,0,4,9D,05,B2,02,00,00,00,00,
30513397,00000011,false,Rx,0,8,FB,11,00,00,C9,5F,00,00,
30514995,00000012,false,Rx,0,8,CC,A5,05,00,23,C3,05,00,
30516559,00000013,false,Rx,0,8,13,88,03,00,68,B2,01,00,
30517858,00000014,false,Rx,0,4,9C,05,B2,02,00,00,00,00,
30569834,00000011,false,Rx,0,8,FF,11,00,00,C9,5F,00,00,
30571446,00000012,false,Rx,0,8,0C,A7,05,00,23,C3,05,00,
30573076,00000013,false,Rx,0,8,B4,88,03,00,68,B2,01,00,
30574479,00000014,false,Rx,0,4,9D,05,B2,02,00,00,00,00,
30626455,00000011,false,Rx,0,8,03,12,00,00,C9,5F,00,00,
30627896,00000012,false,Rx,0,8,4C,A8,05,00,23,C3,05,00,
30629500,00000013,false,Rx,0,8,55,89,03,00,68,B2,01,00,
30631025,00000014,false,Rx,0,4,9E,05,B2,02,00,00,00,00,
30682753,00000011,false,Rx,0,8,03,12,00,00,C9,5F,00,00,
30684373,00000012,false,Rx,0,8,4C,A8,05,00,23,C3,05,00,
30685899,00000013,false,Rx,0,8,55,89,03,00,68,B2,01,00,
30687192,00000014,false,Rx,0,4,9E,05,B2,02,00,00,00,00,
30739234,00000011,false,Rx,0,8,03,12,00,00,C9,5F,00,00,
30740825,00000012,false,Rx,0,8,4C,A8,05,00,23,C3,05,00,
30742579,00000013,false,Rx,0,8,55,89,03,00,68,B2,01,00,
30743727,00000014,false,Rx,0,4,9E,05,B2,02,00,00,00,00,
30795655,00000011,false,Rx,0,8,03,12,00,00,C9,5F,00,00,
30797324,00000012,false,Rx,0,8,4C,A8,05,00,23,C3,05,00,
30799111,00000013,false,Rx,0,8,55,89,03,00,68,B2,01,00,
30800127,00000014,false,Rx,0,4,9E,05,B2,02,00,00,00,00,
30852143,00000011,false,Rx,0,8,03,12,00,00,8E,5F,00,00,
30853754,00000012,false,Rx,0,8,4C,A8,05,00,8C,BF,05,00,
30855325,00000013,false,Rx,0,8,55,89,03,00,C7,B1,01,00,
30856603,00000014,false,Rx,0,4,9E,05,B1,02,00,00,00,00,
30908587,00000011,false,Rx,0,8,78,11,00,00,C9,5F,00,00,
30910380,00000012,false,Rx,0,8,8D,7C,05,00,23,C3,05,00,
30911749,00000013,false,Rx,0,8,4C,73,03,00,68,B2,01,00,
30913073,00000014,false,Rx,0,4,7B,05,B2,02,00,00,00,00,
30965003,00000011,false,Rx,0,8,E4,10,00,00,29,57,00,00,
30966644,00000012,false,Rx,0,8,4F,4E,05,00,45,3E,05,00,
30968204,00000013,false,Rx,0,8,01,5C,03,00,1D,9B,01,00,
30969506,00000014,false,Rx,0,4,56,05,8D,02,00,00,00,00,
31021445,00000011,false,Rx,0,8,20,11,00,00,58,3C,00,00,
31023096,00000012,false,Rx,0,8,0E,61,05,00,51,A1,03,00,
31024633,00000013,false,Rx,0,8,72,65,03,00,B6,52,01,00,
31025898,00000014,false,Rx,0,4,65,05,1A,02,00,00,00,00,
31077930,00000011,false,Rx,0,8,54,11,00,00,FD,28,00,00,
31079678,00000012,false,Rx,0,8,4E,71,05,00,44,77,02,00,
31081331,00000013,false,Rx,0,8,A1,6D,03,00,75,1E,01,00,
31082416,00000014,false,Rx,0,4,72,05,C7,01,00,00,00,00,
31134359,00000011,false,Rx,0,8,74,11,00,00,3B,1B,00,00,
31135956,00000012,false,Rx,0,8,4D,7B,05,00,67,A3,01,00,
31137531,00000013,false,Rx,0,8,AB,72,03,00,50,F9,00,00,
31138826,00000014,false,Rx,0,4,7A,05,8C,01,00,00,00,00,
31190810,00000011,false,Rx,0,8,8C,11,00,00,CE,0F,00,00,
31192405,00000012,false,Rx,0,8,CD,82,05,00,72,F3,00,00,
31194248,00000013,false,Rx,0,8,72,76,03,00,76,DA,00,00,
31195499,00000014,false,Rx,0,4,80,05,5B,01,00,00,00,00,
31247412,00000011,false,Rx,0,8,A0,11,00,00,1D,08,00,00,
31248897,00000012,false,Rx,0,8,0D,89,05,00,F2,7C,00,00,
31250383,00000013,false,Rx,0,8,98,79,03,00,B0,C5,00,00,
31251727,00000014,false,Rx,0,4,85,05,3A,01,00,00,00,00,
31303675,00000011,false,Rx,0,8,AF,11,00,00,EA,03,00,00,
31305251,00000012,false,Rx,0,8,0D,8E,05,00,4F,3C,00,00,
31306823,00000013,false,Rx,0,8,1C,7C,03,00,5A,BA,00,00,
31308097,00000014,false,Rx,0,4,89,05,28,01,00,00,00,00,
31360148,00000011,false,Rx,0,8,BB,11,00,00,84,02,00,00,
31361752,00000012,false,Rx,0,8,CD,91,05,00,C4,26,00,00,
31363404,00000013,false,Rx,0,8,00,7E,03,00,93,B6,00,00,
31364677,00000014,false,Rx,0,4,8C,05,22,01,00,00,00,00,
31416557,00000011,false,Rx,0,8,C3,11,00,00,48,02,00,00,
31418182,00000012,false,Rx,0,8,4C,94,05,00,2C,23,00,00,
31419757,00000013,false,Rx,0,8,42,7F,03,00,F2,B5,00,00,
31421054,00000014,false,Rx,0,4,8E,05,21,01,00,00,00,00,
31473049,00000011,false,Rx,0,8,C7,11,00,00,48,02,00,00,
31474668,00000012,false,Rx,0,8,8C,95,05,00,2C,23,00,00,
31476208,00000013,false,Rx,0,8,E4,7F,03,00,F2,B5,00,00,
31477556,00000014,false,Rx,0,4,8F,05,21,01,00,00,00,00,
31529536,00000011,false,Rx,0,8,CF,11,00,00,48,02,00,00,
31531144,00000012,false,Rx,0,8,0C,98,05,00,2C,23,00,00,
31532694,00000013,false,Rx,0,8,26,81,03,00,F2,B5,00,00,
31533951,00000014,false,Rx,0,4,91,05,21,01,00,00,00,00,
31585975,00000011,false,Rx,0,8,D3,11,00,00,48,02,00,00,
31587592,00000012,false,Rx,0,8,4C,99,05,00,2C,23,00,00,
31589142,00000013,false,Rx,0,8,C7,81,03,00,F2,B5,00,00,
31590468,00000014,false,Rx,0,4,92,05,21,01,00,00,00,00,
31642403,00000011,false,Rx,0,8,DB,11,00,00,48,02,00,00,
31643977,00000012,false,Rx,0,8,CC,9B,05,00,2C,23,00,00,
31645564,00000013,false,Rx,0,8,09,83,03,00,F2,B5,00,00,
31646868,00000014,false,Rx,0,4,94,05,21,01,00,00,00,00,
31698875,00000011,false,Rx,0,8,DF,11,00,00,48,02,00,00,
31700434,00000012,false,Rx,0,8,0C,9D,05,00,2C,23,00,00,
31702038,00000013,false,Rx,0,8,AB,83,03,00,F2,B5,00,00,
31703338,00000014,false,Rx,0,4,95,05,21,01,00,00,00,00,
31755265,00000011,false,Rx,0,8,E7,11,00,00,48,02,00,00,
31756880,00000012,false,Rx,0,8,8C,9F,05,00,2C,23,00,00,
31758453,00000013,false,Rx,0,8,ED,84,03,00,F2,B5,00,00,
31759754,00000014,false,Rx,0,4,97,05,21,01,00,00,00,00,
31811765,00000011,false,Rx,0,8,E7,11,00,00,48,02,00,00,
31813403,00000012,false,Rx,0,8,8C,9F,05,00,2C,23,00,00,
31815167,00000013,false,Rx,0,8,ED,84,03,00,F2,B5,00,00,
31816246,00000014,false,Rx,0,4,97,05,21,01,00,00,00,00,
31868188,00000011,false,Rx,0,8,EB,11,00,00,48,02,00,00,
31869776,00000012,false,Rx,0,8,CC,A0,05,00,2C,23,00,00,
31871350,00000013,false,Rx,0,8,8E,85,03,00,F2,B5,00,00,
31872680,00000014,false,Rx,0,4,98,05,21,01,00,00,00,00,
31924633,00000011,false,Rx,0,8,EF,11,00,00,84,02,00,00,
31926483,00000012,false,Rx,0,8,0C,A2,05,00,C4,26,00,00,
31927811,00000013,false,Rx,0,8,2F,86,03,00,93,B6,00,00,
31929103,00000014,false,Rx,0,4,99,05,22,01,00,00,00,00,
31981248,00000011,false,Rx,0,8,F3,11,00,00,48,02,00,00,
31982662,00000012,false,Rx,0,8,4C,A3,05,00,2C,23,00,00,
31984203,00000013,false,Rx,0,8,D0,86,03,00,F2,B5,00,00,
31985489,00000014,false,Rx,0,4,9A,05,21,01,00,00,00,00,
32037491,00000011,false,Rx,0,8,F7,11,00,00,D1,01,00,00,
32039130,00000012,false,Rx,0,8,8C,A4,05,00,FE,1B,00,00,
32040625,00000013,false,Rx,0,8,72,87,03,00,B0,B4,00,00,
32042190,00000014,false,Rx,0,4,9B,05,1F,01,00,00,00,00,
32094190,00000011,false,Rx,0,8,EF,11,00,00,0D,02,00,00,
32095619,00000012,false,Rx,0,8,0C,A2,05,00,95,1F,00,00,
32097104,00000013,false,Rx,0,8,2F,86,03,00,51,B5,00,00,
32098662,00000014,false,Rx,0,4,99,05,20,01,00,00,00,00,
32150307,00000011,false,Rx,0,8,FF,11,00,00,95,01,00,00,
32151937,00000012,false,Rx,0,8,0C,A7,05,00,66,18,00,00,
32153510,00000013,false,Rx,0,8,B4,88,03,00,0F,B4,00,00,
32154806,00000014,false,Rx,0,4,9D,05,1E,01,00,00,00,00,
32206762,00000011,false,Rx,0,8,FB,11,00,00,0D,02,00,00,
32208559,00000012,false,Rx,0,8,CC,A5,05,00,95,1F,00,00,
32210180,00000013,false,Rx,0,8,13,88,03,00,51,B5,00,00,
32211457,00000014,false,Rx,0,4,9C,05,20,01,00,00,00,00,
32263147,00000011,false,Rx,0,8,03,12,00,00,D1,01,00,00,
32264763,00000012,false,Rx,0,8,4C,A8,05,00,FE,1B,00,00,
32266320,00000013,false,Rx,0,8,55,89,03,00,B0,B4,00,00,
32267638,00000014,false,Rx,0,4,9E,05,1F,01,00,00,00,00,
32319545,00000011,false,Rx,0,8,03,12,00,00,95,01,00,00,
32321167,00000012,false,Rx,0,8,4C,A8,05,00,66,18,00,00,
32322737,00000013,false,Rx,0,8,55,89,03,00,0F,B4,00,00,
32324037,00000014,false,Rx,0,4,9E,05,1E,01,00,00,00,00,
32375960,00000011,false,Rx,0,8,07,12,00,00,95,01,00,00,
32377758,00000012,false,Rx,0,8,8C,A9,05,00,66,18,00,00,
32379308,00000013,false,Rx,0,8,F6,89,03,00,0F,B4,00,00,
32380483,00000014,false,Rx,0,4,9F,05,1E,01,00,00,00,00,
32432478,00000011,false,Rx,0,8,07,12,00,00,D1,01,00,00,
32434006,00000012,false,Rx,0,8,8C,A9,05,00,FE,1B,00,00,
32435579,00000013,false,Rx,0,8,F6,89,03,00,B0,B4,00,00,
32436888,00000014,false,Rx,0,4,9F,05,1F,01,00,00,00,00,
32488840,00000011,false,Rx,0,8,0B,12,00,00,95,01,00,00,
32490460,00000012,false,Rx,0,8,CC,AA,05,00,66,18,00,00,
32492032,00000013,false,Rx,0,8,97,8A,03,00,0F,B4,00,00,
32493336,00000014,false,Rx,0,4,A0,05,1E,01,00,00,00,00,
32545289,00000011,false,Rx,0,8,0F,12,00,00,95,01,00,00,
32547115,00000012,false,Rx,0,8,0C,AC,05,00,66,18,00,00,
32548584,00000013,false,Rx,0,8,39,8B,03,00,0F,B4,00,00,
32549748,00000014,false,Rx,0,4,A1,05,1E,01,00,00,00,00,
32601667,00000011,false,Rx,0,8,0F,12,00,00,D1,01,00,00,
32603283,00000012,false,Rx,0,8,0C,AC,05,00,FE,1B,00,00,
32604892,00000013,false,Rx,0,8,39,8B,03,00,B0,B4,00,00,
32606161,00000014,false,Rx,0,4,A1,05,1F,01,00,00,00,00,
32658174,00000011,false,Rx,0,8,0F,12,00,00,D1,01,00,00,
32659775,00000012,false,Rx,0,8,0C,AC,05,00,FE,1B,00,00,
32661394,00000013,false,Rx,0,8,39,8B,03,00,B0,B4,00,00,
32662764,00000014,false,Rx,0,4,A1,05,1F,01,00,00,00,00,
32714784,00000011,false,Rx,0,8,13,12,00,00,D1,01,00,00,
32716184,00000012,false,Rx,0,8,4C,AD,05,00,FE,1B,00,00,
32717686,00000013,false,Rx,0,8,DA,8B,03,00,B0,B4,00,00,
32718987,00000014,false,Rx,0,4,A2,05,1F,01,00,00,00,00,
32771010,00000011,false,Rx,0,8,13,12,00,00,95,01,00,00,
32772579,00000012,false,Rx,0,8,4C,AD,05,00,66,18,00,00,
32774165,00000013,false,Rx,0,8,DA,8B,03,00,0F,B4,00,00,
32775435,00000014,false,Rx,0,4,A2,05,1E,01,00,00,00,00,
32827526,00000011,false,Rx,0,8,17,12,00,00,D1,01,00,00,
32829013,00000012,false,Rx,0,8,8C,AE,05,00,FE,1B,00,00,
32830786,00000013,false,Rx,0,8,7B,8C,03,00,B0,B4,00,00,
32831815,00000014,false,Rx,0,4,A3,05,1F,01,00,00,00,00,
32883761,00000011,false,Rx,0,8,17,12,00,00,95,01,00,00,
32885407,00000012,false,Rx,0,8,8C,AE,05,00,66,18,00,00,
32886989,00000013,false,Rx,0,8,7B,8C,03,00,0F,B4,00,00,
32888261,00000014,false,Rx,0,4,A3,05,1E,01,00,00,00,00,
32940219,00000011,false,Rx,0,8,1B,12,00,00,D1,01,00,00,
32942084,00000012,false,Rx,0,8,CB,AF,05,00,FE,1B,00,00,
32943644,00000013,false,Rx,0,8,1C,8D,03,00,B0,B4,00,00,
32944689,00000014,false,Rx,0,4,A4,05,1F,01,00,00,00,00,
32996915,00000011,false,Rx,0,8,17,12,00,00,0D,02,00,00,
32998438,00000012,false,Rx,0,8,8C,AE,05,00,95,1F,00,00,
32999850,00000013,false,Rx,0,8,7B,8C,03,00,51,B5,00,00,
33001143,00000014,false,Rx,0,4,A3,05,20,01,00,00,00,00,
33053097,00000011,false,Rx,0,8,79,0D,00,00,9C,3F,00,00,
33054689,00000012,false,Rx,0,8,58,3B,04,00,96,D3,03,00,
33056264,00000013,false,Rx,0,8,7F,D1,02,00,87,5B,01,00,
33057565,00000014,false,Rx,0,4,7A,04,28,02,00,00,00,00,
33109795,00000011,false,Rx,0,8,80,11,00,00,E3,61,00,00,
33111391,00000012,false,Rx,0,8,0D,7F,05,00,74,E3,05,00,
33112736,00000013,false,Rx,0,8,8E,74,03,00,13,B8,01,00,
33114035,00000014,false,Rx,0,4,7D,05,BB,02,00,00,00,00,
33165978,00000011,false,Rx,0,8,2F,12,00,00,49,63,00,00,
33167591,00000012,false,Rx,0,8,0B,B6,05,00,00,F9,05,00,
33169168,00000013,false,Rx,0,8,42,90,03,00,DA,BB,01,00,
33170465,00000014,false,Rx,0,4,A9,05,C1,02,00,00,00,00,
33222443,00000011,false,Rx,0,8,0F,12,00,00,D1,62,00,00,
33224055,00000012,false,Rx,0,8,0C,AC,05,00,D1,F1,05,00,
33225581,00000013,false,Rx,0,8,39,8B,03,00,98,BA,01,00,
33226870,00000014,false,Rx,0,4,A1,05,BF,02,00,00,00,00,
33279012,00000011,false,Rx,0,8,FB,11,00,00,96,62,00,00,
33280602,00000012,false,Rx,0,8,CC,A5,05,00,3A,EE,05,00,
33282044,00000013,false,Rx,0,8,13,88,03,00,F6,B9,01,00,
33283313,00000014,false,Rx,0,4,9C,05,BE,02,00,00,00,00,
33335269,00000011,false,Rx,0,8,EF,11,00,00,5A,62,00,00,
33336889,00000012,false,Rx,0,8,0C,A2,05,00,A3,EA,05,00,
33338462,00000013,false,Rx,0,8,2F,86,03,00,55,B9,01,00,
33339765,00000014,false,Rx,0,4,99,05,BD,02,00,00,00,00,
33391759,00000011,false,Rx,0,8,E3,11,00,00,E3,61,00,00,
33393359,00000012,false,Rx,0,8,4C,9E,05,00,74,E3,05,00,
33395160,00000013,false,Rx,0,8,4C,84,03,00,13,B8,01,00,
33396460,00000014,false,Rx,0,4,96,05,BB,02,00,00,00,00,
33448301,00000011,false,Rx,0,8,DF,11,00,00,E3,61,00,00,
33449836,00000012,false,Rx,0,8,0C,9D,05,00,74,E3,05,00,
33451406,00000013,false,Rx,0,8,AB,83,03,00,13,B8,01,00,
33452703,00000014,false,Rx,0,4,95,05,BB,02,00,00,00,00,
33504691,00000011,false,Rx,0,8,DF,11,00,00,A7,61,00,00,
33506282,00000012,false,Rx,0,8,0C,9D,05,00,DD,DF,05,00,
33507843,00000013,false,Rx,0,8,AB,83,03,00,72,B7,01,00,
33509118,00000014,false,Rx,0,4,95,05,BA,02,00,00,00,00,
33561109,00000011,false,Rx,0,8,DB,11,00,00,6B,61,00,00,
33562849,00000012,false,Rx,0,8,CC,9B,05,00,46,DC,05,00,
33564472,00000013,false,Rx,0,8,09,83,03,00,D0,B6,01,00,
33565578,00000014,false,Rx,0,4,94,05,B9,02,00,00,00,00,
33617599,00000011,false,Rx,0,8,D7,11,00,00,6B,61,00,00,
33619193,00000012,false,Rx,0,8,8C,9A,05,00,46,DC,05,00,
33620768,00000013,false,Rx,0,8,68,82,03,00,D0,B6,01,00,
33622040,00000014,false,Rx,0,4,93,05,B9,02,00,00,00,00,
33674203,00000011,false,Rx,0,8,D7,11,00,00,6B,61,00,00,
33675630,00000012,false,Rx,0,8,8C,9A,05,00,46,DC,05,00,
33677242,00000013,false,Rx,0,8,68,82,03,00,D0,B6,01,00,
33678735,00000014,false,Rx,0,4,93,05,B9,02,00,00,00,00,
33730712,00000011,false,Rx,0,8,D7,11,00,00,2F,61,00,00,
33732081,00000012,false,Rx,0,8,8C,9A,05,00,AE,D8,05,00,
33733620,00000013,false,Rx,0,8,68,82,03,00,2F,B6,01,00,
33734921,00000014,false,Rx,0,4,93,05,B8,02,00,00,00,00,
33786940,00000011,false,Rx,0,8,DB,11,00,00,2F,61,00,00,
33788534,00000012,false,Rx,0,8,CC,9B,05,00,AE,D8,05,00,
33790108,00000013,false,Rx,0,8,09,83,03,00,2F,B6,01,00,
33791408,00000014,false,Rx,0,4,94,05,B8,02,00,00,00,00,
33843593,00000011,false,Rx,0,8,DF,11,00,00,2F,61,00,00,
33844967,00000012,false,Rx,0,8,0C,9D,05,00,AE,D8,05,00,
33846533,00000013,false,Rx,0,8,AB,83,03,00,2F,B6,01,00,
33847832,00000014,false,Rx,0,4,95,05,B8,02,00,00,00,00,
33899747,00000011,false,Rx,0,8,DF,11,00,00,2F,61,00,00,
33901378,00000012,false,Rx,0,8,0C,9D,05,00,AE,D8,05,00,
33902952,00000013,false,Rx,0,8,AB,83,03,00,2F,B6,01,00,
33904258,00000014,false,Rx,0,4,95,05,B8,02,00,00,00,00,
33956227,00000011,false,Rx,0,8,DF,11,00,00,F4,60,00,00,
33957841,00000012,false,Rx,0,8,0C,9D,05,00,17,D5,05,00,
33959405,00000013,false,Rx,0,8,AB,83,03,00,8E,B5,01,00,
33960698,00000014,false,Rx,0,4,95,05,B7,02,00,00,00,00,
34012599,00000011,false,Rx,0,8,DF,11,00,00,F4,60,00,00,
34014216,00000012,false,Rx,0,8,0C,9D,05,00,17,D5,05,00,
34015773,00000013,false,Rx,0,8,AB,83,03,00,8E,B5,01,00,
34017068,00000014,false,Rx,0,4,95,05,B7,02,00,00,00,00,
34069083,00000011,false,Rx,0,8,DF,11,00,00,F4,60,00,00,
34070712,00000012,false,Rx,0,8,0C,9D,05,00,17,D5,05,00,
34072260,00000013,false,Rx,0,8,AB,83,03,00,8E,B5,01,00,
34073553,00000014,false,Rx,0,4,95,05,B7,02,00,00,00,00,
34125546,00000011,false,Rx,0,8,E3,11,00,00,B8,60,00,00,
34127148,00000012,false,Rx,0,8,4C,9E,05,00,80,D1,05,00,
34128714,00000013,false,Rx,0,8,4C,84,03,00,ED,B4,01,00,
34130013,00000014,false,Rx,0,4,96,05,B6,02,00,00,00,00,
34181999,00000011,false,Rx,0,8,E3,11,00,00,B8,60,00,00,
34183590,00000012,false,Rx,0,8,4C,9E,05,00,80,D1,05,00,
34185123,00000013,false,Rx,0,8,4C,84,03,00,ED,B4,01,00,
34186452,00000014,false,Rx,0,4,96,05,B6,02,00,00,00,00,
34238430,00000011,false,Rx,0,8,E7,11,00,00,B8,60,00,00,
34240024,00000012,false,Rx,0,8,8C,9F,05,00,80,D1,05,00,
34241619,00000013,false,Rx,0,8,ED,84,03,00,ED,B4,01,00,
34243152,00000014,false,Rx,0,4,97,05,B6,02,00,00,00,00,
34295116,00000011,false,Rx,0,8,EB,11,00,00,B8,60,00,00,
34296724,00000012,false,Rx,0,8,CC,A0,05,00,80,D1,05,00,
34298072,00000013,false,Rx,0,8,8E,85,03,00,ED,B4,01,00,
34299377,00000014,false,Rx,0,4,98,05,B6,02,00,00,00,00,
34351340,00000011,false,Rx,0,8,E7,11,00,00,7C,60,00,00,
34352931,00000012,false,Rx,0,8,8C,9F,05,00,E9,CD,05,00,
34354478,00000013,false,Rx,0,8,ED,84,03,00,4C,B4,01,00,
34355788,00000014,false,Rx,0,4,97,05,B5,02,00,00,00,00,
34407734,00000011,false,Rx,0,8,EB,11,00,00,7C,60,00,00,
34409390,00000012,false,Rx,0,8,CC,A0,05,00,E9,CD,05,00,
34410994,00000013,false,Rx,0,8,8E,85,03,00,4C,B4,01,00,
34412250,00000014,false,Rx,0,4,98,05,B5,02,00,00,00,00,
34464470,00000011,false,Rx,0,8,EF,11,00,00,41,60,00,00,
34465824,00000012,false,Rx,0,8,0C,A2,05,00,51,CA,05,00,
34467373,00000013,false,Rx,0,8,2F,86,03,00,AB,B3,01,00,
34468648,00000014,false,Rx,0,4,99,05,B4,02,00,00,00,00,
34520686,00000011,false,Rx,0,8,EF,11,00,00,7C,60,00,00,
34522296,00000012,false,Rx,0,8,0C,A2,05,00,E9,CD,05,00,
34523845,00000013,false,Rx,0,8,2F,86,03,00,4C,B4,01,00,
34525112,00000014,false,Rx,0,4,99,05,B5,02,00,00,00,00,
34577155,00000011,false,Rx,0,8,EF,11,00,00,41,60,00,00,
34578901,00000012,false,Rx,0,8,0C,A2,05,00,51,CA,05,00,
34580530,00000013,false,Rx,0,8,2F,86,03,00,AB,B3,01,00,
34581601,00000014,false,Rx,0,4,99,05,B4,02,00,00,00,00,
34633577,00000011,false,Rx,0,8,F3,11,00,00,41,60,00,00,
34635172,00000012,false,Rx,0,8,4C,A3,05,00,51,CA,05,00,
34636744,00000013,false,Rx,0,8,D0,86,03,00,AB,B3,01,00,
34638020,00000014,false,Rx,0,4,9A,05,B4,02,00,00,00,00,
34690188,00000011,false,Rx,0,8,F7,11,00,00,7C,60,00,00,
34691687,00000012,false,Rx,0,8,8C,A4,05,00,E9,CD,05,00,
34693225,00000013,false,Rx,0,8,72,87,03,00,4C,B4,01,00,
34694744,00000014,false,Rx,0,4,9B,05,B5,02,00,00,00,00,
34746746,00000011,false,Rx,0,8,F7,11,00,00,7C,60,00,00,
34748102,00000012,false,Rx,0,8,8C,A4,05,00,E9,CD,05,00,
34749681,00000013,false,Rx,0,8,72,87,03,00,4C,B4,01,00,
34750958,00000014,false,Rx,0,4,9B,05,B5,02,00,00,00,00,
34802927,00000011,false,Rx,0,8,F7,11,00,00,41,60,00,00,
34804526,00000012,false,Rx,0,8,8C,A4,05,00,51,CA,05,00,
34806068,00000013,false,Rx,0,8,72,87,03,00,AB,B3,01,00,
34807365,00000014,false,Rx,0,4,9B,05,B4,02,00,00,00,00,
34859534,00000011,false,Rx,0,8,F7,11,00,00,7C,60,00,00,
34861024,00000012,false,Rx,0,8,8C,A4,05,00,E9,CD,05,00,
34862821,00000013,false,Rx,0,8,72,87,03,00,4C,B4,01,00,
34864058,00000014,false,Rx,0,4,9B,05,B5,02,00,00,00,00,
34915873,00000011,false,Rx,0,8,FF,11,00,00,41,60,00,00,
34917478,00000012,false,Rx,0,8,0C,A7,05,00,51,CA,05,00,
34919051,00000013,false,Rx,0,8,B4,88,03,00,AB,B3,01,00,
34920300,00000014,false,Rx,0,4,9D,05,B4,02,00,00,00,00,
34972363,00000011,false,Rx,0,8,FF,11,00,00,41,60,00,00,
34974105,00000012,false,Rx,0,8,0C,A7,05,00,51,CA,05,00,
34975573,00000013,false,Rx,0,8,B4,88,03,00,AB,B3,01,00,
34976800,00000014,false,Rx,0,4,9D,05,B4,02,00,00,00,00,
35028784,00000011,false,Rx,0,8,FF,11,00,00,41,60,00,00,
35030477,00000012,false,Rx,0,8,0C,A7,05,00,51,CA,05,00,
35031959,00000013,false,Rx,0,8,B4,88,03,00,AB,B3,01,00,
35033227,00000014,false,Rx,0,4,9D,05,B4,02,00,00,00,00,
35085231,00000011,false,Rx,0,8,03,12,00,00,41,60,00,00,
35086822,00000012,false,Rx,0,8,4C,A8,05,00,51,CA,05,00,
35088400,00000013,false,Rx,0,8,55,89,03,00,AB,B3,01,00,
35089879,00000014,false,Rx,0,4,9E,05,B4,02,00,00,00,00,
35141936,00000011,false,Rx,0,8,03,12,00,00,41,60,00,00,
35143558,00000012,false,Rx,0,8,4C,A8,05,00,51,CA,05,00,
35144844,00000013,false,Rx,0,8,55,89,03,00,AB,B3,01,00,
35146118,00000014,false,Rx,0,4,9E,05,B4,02,00,00,00,00,
35198155,00000011,false,Rx,0,8,03,12,00,00,41,60,00,00,
35199758,00000012,false,Rx,0,8,4C,A8,05,00,51,CA,05,00,
35201326,00000013,false,Rx,0,8,55,89,03,00,AB,B3,01,00,
35202623,00000014,false,Rx,0,4,9E,05,B4,02,00,00,00,00,
35254607,00000011,false,Rx,0,8,03,12,00,00,41,60,00,00,
35256477,00000012,false,Rx,0,8,4C,A8,05,00,51,CA,05,00,
35258032,00000013,false,Rx,0,8,55,89,03,00,AB,B3,01,00,
35259327,00000014,false,Rx,0,4,9E,05,B4,02,00,00,00,00,
35311188,00000011,false,Rx,0,8,07,12,00,00,05,60,00,00,
35312931,00000012,false,Rx,0,8,8C,A9,05,00,BA,C6,05,00,
35314330,00000013,false,Rx,0,8,F6,89,03,00,09,B3,01,00,
35315531,00000014,false,Rx,0,4,9F,05,B3,02,00,00,00,00,
35367557,00000011,false,Rx,0,8,07,12,00,00,41,60,00,00,
35369149,00000012,false,Rx,0,8,8C,A9,05,00,51,CA,05,00,
35370726,00000013,false,Rx,0,8,F6,89,03,00,AB,B3,01,00,
35371996,00000014,false,Rx,0,4,9F,05,B4,02,00,00,00,00,
35424218,00000011,false,Rx,0,8,07,12,00,00,41,60,00,00,
35425633,00000012,false,Rx,0,8,8C,A9,05,00,51,CA,05,00,
35427171,00000013,false,Rx,0,8,F6,89,03,00,AB,B3,01,00,
35428471,00000014,false,Rx,0,4,9F,05,B4,02,00,00,00,00,
35480783,00000011,false,Rx,0,8,E0,10,00,00,05,60,00,00,
35482140,00000012,false,Rx,0,8,0F,4D,05,00,BA,C6,05,00,
35483716,00000013,false,Rx,0,8,60,5B,03,00,09,B3,01,00,
35484950,00000014,false,Rx,0,4,55,05,B3,02,00,00,00,00,
35536985,00000011,false,Rx,0,8,0C,11,00,00,33,4C,00,00,
35538605,00000012,false,Rx,0,8,CE,5A,05,00,7F,95,04,00,
35540158,00000013,false,Rx,0,8,4C,62,03,00,86,7D,01,00,
35541501,00000014,false,Rx,0,4,60,05,5E,02,00,00,00,00,
35593585,00000011,false,Rx,0,8,4C,11,00,00,6A,34,00,00,
35595243,00000012,false,Rx,0,8,CE,6E,05,00,39,27,03,00,
35596678,00000013,false,Rx,0,8,5F,6C,03,00,4E,3D,01,00,
35597969,00000014,false,Rx,0,4,70,05,F8,01,00,00,00,00,
35649987,00000011,false,Rx,0,8,78,11,00,00,29,23,00,00,
35651604,00000012,false,Rx,0,8,8D,7C,05,00,7E,1D,02,00,
35653155,00000013,false,Rx,0,8,4C,73,03,00,B8,0E,01,00,
35654454,00000014,false,Rx,0,4,7B,05,AE,01,00,00,00,00,
35706494,00000011,false,Rx,0,8,98,11,00,00,92,16,00,00,
35708105,00000012,false,Rx,0,8,8D,86,05,00,95,5B,01,00,
35709676,00000013,false,Rx,0,8,55,78,03,00,B8,EC,00,00,
35711176,00000014,false,Rx,0,4,83,05,78,01,00,00,00,00,
35762991,00000011,false,Rx,0,8,AF,11,00,00,C6,0C,00,00,
35764550,00000012,false,Rx,0,8,0D,8E,05,00,C4,C4,00,00,
35766126,00000013,false,Rx,0,8,1C,7C,03,00,47,D2,00,00,
35767454,00000014,false,Rx,0,4,89,05,4E,01,00,00,00,00,
35819489,00000011,false,Rx,0,8,BB,11,00,00,03,06,00,00,
35821055,00000012,false,Rx,0,8,CD,91,05,00,A1,5C,00,00,
35822658,00000013,false,Rx,0,8,00,7E,03,00,05,C0,00,00,
35824135,00000014,false,Rx,0,4,8C,05,31,01,00,00,00,00,
35875976,00000011,false,Rx,0,8,C7,11,00,00,FB,02,00,00,
35877580,00000012,false,Rx,0,8,8C,95,05,00,F2,2D,00,00,
35879383,00000013,false,Rx,0,8,E4,7F,03,00,D6,B7,00,00,
35880757,00000014,false,Rx,0,4,8F,05,24,01,00,00,00,00,
35932463,00000011,false,Rx,0,8,D3,11,00,00,0D,02,00,00,
35934036,00000012,false,Rx,0,8,4C,99,05,00,95,1F,00,00,
35935590,00000013,false,Rx,0,8,C7,81,03,00,51,B5,00,00,
35936906,00000014,false,Rx,0,4,92,05,20,01,00,00,00,00,
35988946,00000011,false,Rx,0,8,DB,11,00,00,0D,02,00,00,
35990506,00000012,false,Rx,0,8,CC,9B,05,00,95,1F,00,00,
35992111,00000013,false,Rx,0,8,09,83,03,00,51,B5,00,00,
35993405,00000014,false,Rx,0,4,94,05,20,01,00,00,00,00,
36045437,00000011,false,Rx,0,8,E3,11,00,00,48,02,00,00,
36047167,00000012,false,Rx,0,8,4C,9E,05,00,2C,23,00,00,
36048603,00000013,false,Rx,0,8,4C,84,03,00,F2,B5,00,00,
36049889,00000014,false,Rx,0,4,96,05,21,01,00,00,00,00,
36101893,00000011,false,Rx,0,8,E7,11,00,00,0D,02,00,00,
36103489,00000012,false,Rx,0,8,8C,9F,05,00,95,1F,00,00,
36105060,00000013,false,Rx,0,8,ED,84,03,00,51,B5,00,00,
36106351,00000014,false,Rx,0,4,97,05,20,01,00,00,00,00,
36158547,00000011,false,Rx,0,8,EF,11,00,00,48,02,00,00,
36160004,00000012,false,Rx,0,8,0C,A2,05,00,2C,23,00,00,
36161557,00000013,false,Rx,0,8,2F,86,03,00,F2,B5,00,00,
36163067,00000014,false,Rx,0,4,99,05,21,01,00,00,00,00,
36214799,00000011,false,Rx,0,8,EF,11,00,00,48,02,00,00,
36216440,00000012,false,Rx,0,8,0C,A2,05,00,2C,23,00,00,
36218015,00000013,false,Rx,0,8,2F,86,03,00,F2,B5,00,00,
36219287,00000014,false,Rx,0,4,99,05,21,01,00,00,00,00,
36271302,00000011,false,Rx,0,8,F7,11,00,00,48,02,00,00,
36272896,00000012,false,Rx,0,8,8C,A4,05,00,2C,23,00,00,
36274522,00000013,false,Rx,0,8,72,87,03,00,F2,B5,00,00,
36275734,00000014,false,Rx,0,4,9B,05,21,01,00,00,00,00,
36327777,00000011,false,Rx,0,8,F7,11,00,00,84,02,00,00,
36329389,00000012,false,Rx,0,8,8C,A4,05,00,C4,26,00,00,
36330945,00000013,false,Rx,0,8,72,87,03,00,93,B6,00,00,
36332212,00000014,false,Rx,0,4,9B,05,22,01,00,00,00,00,
36384243,00000011,false,Rx,0,8,FB,11,00,00,48,02,00,00,
36385810,00000012,false,Rx,0,8,CC,A5,05,00,2C,23,00,00,
36387381,00000013,false,Rx,0,8,13,88,03,00,F2,B5,00,00,
36388683,00000014,false,Rx,0,4,9C,05,21,01,00,00,00,00,
36440698,00000011,false,Rx,0,8,03,12,00,00,48,02,00,00,
36442463,00000012,false,Rx,0,8,4C,A8,05,00,2C,23,00,00,
36443898,00000013,false,Rx,0,8,55,89,03,00,F2,B5,00,00,
36445190,00000014,false,Rx,0,4,9E,05,21,01,00,00,00,00,
36497275,00000011,false,Rx,0,8,03,12,00,00,0D,02,00,00,
36498789,00000012,false,Rx,0,8,4C,A8,05,00,95,1F,00,00,
36500365,00000013,false,Rx,0,8,55,89,03,00,51,B5,00,00,
36501668,00000014,false,Rx,0,4,9E,05,20,01,00,00,00,00,
36553672,00000011,false,Rx,0,8,07,12,00,00,D1,01,00,00,
36555262,00000012,false,Rx,0,8,8C,A9,05,00,FE,1B,00,00,
36556866,00000013,false,Rx,0,8,F6,89,03,00,B0,B4,00,00,
36558343,00000014,false,Rx,0,4,9F,05,1F,01,00,00,00,00,
36610198,00000011,false,Rx,0,8,0B,12,00,00,D1,01,00,00,
36611814,00000012,false,Rx,0,8,CC,AA,05,00,FE,1B,00,00,
36613382,00000013,false,Rx,0,8,97,8A,03,00,B0,B4,00,00,
36614666,00000014,false,Rx,0,4,A0,05,1F,01,00,00,00,00,
36666686,00000011,false,Rx,0,8,0F,12,00,00,0D,02,00,00,
36668289,00000012,false,Rx,0,8,0C,AC,05,00,95,1F,00,00,
36669861,00000013,false,Rx,0,8,39,8B,03,00,51,B5,00,00,
36671136,00000014,false,Rx,0,4,A1,05,20,01,00,00,00,00,
36723188,00000011,false,Rx,0,8,13,12,00,00,95,01,00,00,
36724786,00000012,false,Rx,0,8,4C,AD,05,00,66,18,00,00,
36726307,00000013,false,Rx,0,8,DA,8B,03,00,0F,B4,00,00,
36727605,00000014,false,Rx,0,4,A2,05,1E,01,00,00,00,00,
36779669,00000011,false,Rx,0,8,17,12,00,00,95,01,00,00,
36781252,00000012,false,Rx,0,8,8C,AE,05,00,66,18,00,00,
36782836,00000013,false,Rx,0,8,7B,8C,03,00,0F,B4,00,00,
36784168,00000014,false,Rx,0,4,A3,05,1E,01,00,00,00,00,
36836155,00000011,false,Rx,0,8,17,12,00,00,00,00,00,00,
36837782,00000012,false,Rx,0,8,8C,AE,05,00,00,00,00,00,
36839323,00000013,false,Rx,0,8,7B,8C,03,00,64,AE,00,00,
36840631,00000014,false,Rx,0,4,A3,05,15,01,00,00,00,00,
36892670,00000011,false,Rx,0,8,1B,12,00,00,0D,02,00,00,
36894262,00000012,false,Rx,0,8,CB,AF,05,00,95,1F,00,00,
36895906,00000013,false,Rx,0,8,1C,8D,03,00,51,B5,00,00,
36897159,00000014,false,Rx,0,4,A4,05,20,01,00,00,00,00,
36949132,00000011,false,Rx,0,8,1B,12,00,00,95,01,00,00,
36950761,00000012,false,Rx,0,8,CB,AF,05,00,66,18,00,00,
36952327,00000013,false,Rx,0,8,1C,8D,03,00,0F,B4,00,00,
36953635,00000014,false,Rx,0,4,A4,05,1E,01,00,00,00,00,
37005787,00000011,false,Rx,0,8,1F,12,00,00,95,01,00,00,
37007335,00000012,false,Rx,0,8,0B,B1,05,00,66,18,00,00,
37008859,00000013,false,Rx,0,8,BD,8D,03,00,0F,B4,00,00,
37010254,00000014,false,Rx,0,4,A5,05,1E,01,00,00,00,00,
37062168,00000011,false,Rx,0,8,2B,12,00,00,D1,01,00,00,
37063757,00000012,false,Rx,0,8,CB,B4,05,00,FE,1B,00,00,
37065298,00000013,false,Rx,0,8,A1,8F,03,00,B0,B4,00,00,
37066643,00000014,false,Rx,0,4,A8,05,1F,01,00,00,00,00,
37118668,00000011,false,Rx,0,8,1B,12,00,00,95,01,00,00,
37120266,00000012,false,Rx,0,8,CB,AF,05,00,66,18,00,00,
37121836,00000013,false,Rx,0,8,1C,8D,03,00,0F,B4,00,00,
37123099,00000014,false,Rx,0,4,A4,05,1E,01,00,00,00,00,
37175124,00000011,false,Rx,0,8,23,12,00,00,95,01,00,00,
37176895,00000012,false,Rx,0,8,4B,B2,05,00,66,18,00,00,
37178316,00000013,false,Rx,0,8,5E,8E,03,00,0F,B4,00,00,
37179616,00000014,false,Rx,0,4,A6,05,1E,01,00,00,00,00,
37231596,00000011,false,Rx,0,8,27,12,00,00,95,01,00,00,
37233217,00000012,false,Rx,0,8,8B,B3,05,00,66,18,00,00,
37234787,00000013,false,Rx,0,8,00,8F,03,00,0F,B4,00,00,
37236069,00000014,false,Rx,0,4,A7,05,1E,01,00,00,00,00,
37288176,00000011,false,Rx,0,8,27,12,00,00,0D,02,00,00,
37289711,00000012,false,Rx,0,8,8B,B3,05,00,95,1F,00,00,
37291282,00000013,false,Rx,0,8,00,8F,03,00,51,B5,00,00,
37292590,00000014,false,Rx,0,4,A7,05,20,01,00,00,00,00,
37344534,00000011,false,Rx,0,8,27,12,00,00,D1,01,00,00,
37346196,00000012,false,Rx,0,8,8B,B3,05,00,FE,1B,00,00,
37347773,00000013,false,Rx,0,8,00,8F,03,00,B0,B4,00,00,
37349060,00000014,false,Rx,0,4,A7,05,1F,01,00,00,00,00,
37401019,00000011,false,Rx,0,8,27,12,00,00,D1,01,00,00,
37402614,00000012,false,Rx,0,8,8B,B3,05,00,FE,1B,00,00,
37404189,00000013,false,Rx,0,8,00,8F,03,00,B0,B4,00,00,
37405489,00000014,false,Rx,0,4,A7,05,1F,01,00,00,00,00,
37457511,00000011,false,Rx,0,8,27,12,00,00,95,01,00,00,
37459097,00000012,false,Rx,0,8,8B,B3,05,00,66,18,00,00,
37460691,00000013,false,Rx,0,8,00,8F,03,00,0F,B4,00,00,
37461983,00000014,false,Rx,0,4,A7,05,1E,01,00,00,00,00,
37513977,00000011,false,Rx,0,8,2B,12,00,00,D1,01,00,00,
37515585,00000012,false,Rx,0,8,CB,B4,05,00,FE,1B,00,00,
37517149,00000013,false,Rx,0,8,A1,8F,03,00,B0,B4,00,00,
37518457,00000014,false,Rx,0,4,A8,05,1F,01,00,00,00,00,
37570429,00000011,false,Rx,0,8,2B,12,00,00,D1,01,00,00,
37572048,00000012,false,Rx,0,8,CB,B4,05,00,FE,1B,00,00,
37573593,00000013,false,Rx,0,8,A1,8F,03,00,B0,B4,00,00,
37574898,00000014,false,Rx,0,4,A8,05,1F,01,00,00,00,00,
37626897,00000011,false,Rx,0,8,2F,12,00,00,D1,01,00,00,
37628599,00000012,false,Rx,0,8,0B,B6,05,00,FE,1B,00,00,
37630087,00000013,false,Rx,0,8,42,90,03,00,B0,B4,00,00,
37631390,00000014,false,Rx,0,4,A9,05,1F,01,00,00,00,00,
37683331,00000011,false,Rx,0,8,2F,12,00,00,95,01,00,00,
37684952,00000012,false,Rx,0,8,0B,B6,05,00,66,18,00,00,
37686534,00000013,false,Rx,0,8,42,90,03,00,0F,B4,00,00,
37687802,00000014,false,Rx,0,4,A9,05,1E,01,00,00,00,00,
37739823,00000011,false,Rx,0,8,2F,12,00,00,0D,02,00,00,
37741470,00000012,false,Rx,0,8,0B,B6,05,00,95,1F,00,00,
37743044,00000013,false,Rx,0,8,42,90,03,00,51,B5,00,00,
37744318,00000014,false,Rx,0,4,A9,05,20,01,00,00,00,00,
37796296,00000011,false,Rx,0,8,37,12,00,00,95,01,00,00,
37797853,00000012,false,Rx,0,8,8B,B8,05,00,66,18,00,00,
37799464,00000013,false,Rx,0,8,84,91,03,00,0F,B4,00,00,
37800765,00000014,false,Rx,0,4,AB,05,1E,01,00,00,00,00,
37852721,00000011,false,Rx,0,8,2F,12,00,00,D1,01,00,00,
37854526,00000012,false,Rx,0,8,0B,B6,05,00,FE,1B,00,00,
37855899,00000013,false,Rx,0,8,42,90,03,00,B0,B4,00,00,
37857210,00000014,false,Rx,0,4,A9,05,1F,01,00,00,00,00,
37909250,00000011,false,Rx,0,8,2F,12,00,00,D1,01,00,00,
37910827,00000012,false,Rx,0,8,0B,B6,05,00,FE,1B,00,00,
37912608,00000013,false,Rx,0,8,42,90,03,00,B0,B4,00,00,
37913704,00000014,false,Rx,0,4,A9,05,1F,01,00,00,00,00,
37965663,00000011,false,Rx,0,8,33,12,00,00,0D,02,00,00,
37967258,00000012,false,Rx,0,8,4B,B7,05,00,95,1F,00,00,
37968832,00000013,false,Rx,0,8,E3,90,03,00,51,B5,00,00,
37970129,00000014,false,Rx,0,4,AA,05,20,01,00,00,00,00,
38022184,00000011,false,Rx,0,8,3B,12,00,00,D1,01,00,00,
38023760,00000012,false,Rx,0,8,CB,B9,05,00,FE,1B,00,00,
38025334,00000013,false,Rx,0,8,25,92,03,00,B0,B4,00,00,
38026600,00000014,false,Rx,0,4,AC,05,1F,01,00,00,00,00,
38078637,00000011,false,Rx,0,8,37,12,00,00,D1,01,00,00,
38080208,00000012,false,Rx,0,8,8B,B8,05,00,FE,1B,00,00,
38081782,00000013,false,Rx,0,8,84,91,03,00,B0,B4,00,00,
38083081,00000014,false,Rx,0,4,AB,05,1F,01,00,00,00,00,
38135108,00000011,false,Rx,0,8,33,12,00,00,0D,02,00,00,
38136673,00000012,false,Rx,0,8,4B,B7,05,00,95,1F,00,00,
38138245,00000013,false,Rx,0,8,E3,90,03,00,51,B5,00,00,
38139569,00000014,false,Rx,0,4,AA,05,20,01,00,00,00,00,
38191610,00000011,false,Rx,0,8,33,12,00,00,0D,02,00,00,
38193188,00000012,false,Rx,0,8,4B,B7,05,00,95,1F,00,00,
38194752,00000013,false,Rx,0,8,E3,90,03,00,51,B5,00,00,
38196271,00000014,false,Rx,0,4,AA,05,20,01,00,00,00,00,
38247993,00000011,false,Rx,0,8,33,12,00,00,0D,02,00,00,
38249575,00000012,false,Rx,0,8,4B,B7,05,00,95,1F,00,00,
38251148,00000013,false,Rx,0,8,E3,90,03,00,51,B5,00,00,
38252471,00000014,false,Rx,0,4,AA,05,20,01,00,00,00,00,
38304503,00000011,false,Rx,0,8,33,12,00,00,D1,01,00,00,
38306099,00000012,false,Rx,0,8,4B,B7,05,00,FE,1B,00,00,
38307622,00000013,false,Rx,0,8,E3,90,03,00,B0,B4,00,00,
38308950,00000014,false,Rx,0,4,AA,05,1F,01,00,00,00,00,
38360989,00000011,false,Rx,0,8,33,12,00,00,0D,02,00,00,
38362523,00000012,false,Rx,0,8,4B,B7,05,00,95,1F,00,00,
38364139,00000013,false,Rx,0,8,E3,90,03,00,51,B5,00,00,
38365422,00000014,false,Rx,0,4,AA,05,20,01,00,00,00,00,
38417452,00000011,false,Rx,0,8,37,12,00,00,D1,01,00,00,
38419069,00000012,false,Rx,0,8,8B,B8,05,00,FE,1B,00,00,
38420618,00000013,false,Rx,0,8,84,91,03,00,B0,B4,00,00,
38421916,00000014,false,Rx,0,4,AB,05,1F,01,00,00,00,00,
38473926,00000011,false,Rx,0,8,33,12,00,00,D1,01,00,00,
38475563,00000012,false,Rx,0,8,4B,B7,05,00,FE,1B,00,00,
38477118,00000013,false,Rx,0,8,E3,90,03,00,B0,B4,00,00,
38478404,00000014,false,Rx,0,4,AA,05,1F,01,00,00,00,00,
38530393,00000011,false,Rx,0,8,33,12,00,00,D1,01,00,00,
38531956,00000012,false,Rx,0,8,4B,B7,05,00,FE,1B,00,00,
38533563,00000013,false,Rx,0,8,E3,90,03,00,B0,B4,00,00,
38534873,00000014,false,Rx,0,4,AA,05,1F,01,00,00,00,00,
38586852,00000011,false,Rx,0,8,37,12,00,00,D1,01,00,00,
38588681,00000012,false,Rx,0,8,8B,B8,05,00,FE,1B,00,00,
38590205,00000013,false,Rx,0,8,84,91,03,00,B0,B4,00,00,
38591341,00000014,false,Rx,0,4,AB,05,1F,01,00,00,00,00,
38643373,00000011,false,Rx,0,8,37,12,00,00,0D,02,00,00,
38644991,00000012,false,Rx,0,8,8B,B8,05,00,95,1F,00,00,
38646512,00000013,false,Rx,0,8,84,91,03,00,51,B5,00,00,
38647807,00000014,false,Rx,0,4,AB,05,20,01,00,00,00,00,
38699828,00000011,false,Rx,0,8,37,12,00,00,0D,02,00,00,
38701422,00000012,false,Rx,0,8,8B,B8,05,00,95,1F,00,00,
38703022,00000013,false,Rx,0,8,84,91,03,00,51,B5,00,00,
38704510,00000014,false,Rx,0,4,AB,05,20,01,00,00,00,00,
38756347,00000011,false,Rx,0,8,37,12,00,00,0D,02,00,00,
38757943,00000012,false,Rx,0,8,8B,B8,05,00,95,1F,00,00,
38759627,00000013,false,Rx,0,8,84,91,03,00,51,B5,00,00,
38761054,00000014,false,Rx,0,4,AB,05,20,01,00,00,00,00,
38813027,00000011,false,Rx,0,8,37,12,00,00,D1,01,00,00,
38814432,00000012,false,Rx,0,8,8B,B8,05,00,FE,1B,00,00,
38815961,00000013,false,Rx,0,8,84,91,03,00,B0,B4,00,00,
38817272,00000014,false,Rx,0,4,AB,05,1F,01,00,00,00,00,
38869251,00000011,false,Rx,0,8,3B,12,00,00,D1,01,00,00,
38870876,00000012,false,Rx,0,8,CB,B9,05,00,FE,1B,00,00,
38872630,00000013,false,Rx,0,8,25,92,03,00,B0,B4,00,00,
38873931,00000014,false,Rx,0,4,AC,05,1F,01,00,00,00,00,
38925821,00000011,false,Rx,0,8,37,12,00,00,95,01,00,00,
38927391,00000012,false,Rx,0,8,8B,B8,05,00,66,18,00,00,
38928968,00000013,false,Rx,0,8,84,91,03,00,0F,B4,00,00,
38930262,00000014,false,Rx,0,4,AB,05,1E,01,00,00,00,00,
38982269,00000011,false,Rx,0,8,3B,12,00,00,0D,02,00,00,
38983858,00000012,false,Rx,0,8,CB,B9,05,00,95,1F,00,00,
38985429,00000013,false,Rx,0,8,25,92,03,00,51,B5,00,00,
38986728,00000014,false,Rx,0,4,AC,05,20,01,00,00,00,00,
39038773,00000011,false,Rx,0,8,37,12,00,00,0D,02,00,00,
39040358,00000012,false,Rx,0,8,8B,B8,05,00,95,1F,00,00,
39041974,00000013,false,Rx,0,8,84,91,03,00,51,B5,00,00,
39043242,00000014,false,Rx,0,4,AB,05,20,01,00,00,00,00,
39095266,00000011,false,Rx,0,8,37,12,00,00,D1,01,00,00,
39096834,00000012,false,Rx,0,8,8B,B8,05,00,FE,1B,00,00,
39098377,00000013,false,Rx,0,8,84,91,03,00,B0,B4,00,00,
39099682,00000014,false,Rx,0,4,AB,05,1F,01,00,00,00,00,
39151741,00000011,false,Rx,0,8,3B,12,00,00,0D,02,00,00,
39153347,00000012,false,Rx,0,8,CB,B9,05,00,95,1F,00,00,
39154921,00000013,false,Rx,0,8,25,92,03,00,51,B5,00,00,
39156211,00000014,false,Rx,0,4,AC,05,20,01,00,00,00,00,
39208224,00000011,false,Rx,0,8,3B,12,00,00,0D,02,00,00,
39209801,00000012,false,Rx,0,8,CB,B9,05,00,95,1F,00,00,
39211408,00000013,false,Rx,0,8,25,92,03,00,51,B5,00,00,
39212684,00000014,false,Rx,0,4,AC,05,20,01,00,00,00,00,
39264672,00000011,false,Rx,0,8,3B,12,00,00,D1,01,00,00,
39266263,00000012,false,Rx,0,8,CB,B9,05,00,FE,1B,00,00,
39267853,00000013,false,Rx,0,8,25,92,03,00,B0,B4,00,00,
39269109,00000014,false,Rx,0,4,AC,05,1F,01,00,00,00,00,
39321183,00000011,false,Rx,0,8,3B,12,00,00,D1,01,00,00,
39322759,00000012,false,Rx,0,8,CB,B9,05,00,FE,1B,00,00,
39324333,00000013,false,Rx,0,8,25,92,03,00,B0,B4,00,00,
39325620,00000014,false,Rx,0,4,AC,05,1F,01,00,00,00,00,
39377592,00000011,false,Rx,0,8,3B,12,00,00,D1,01,00,00,
39379331,00000012,false,Rx,0,8,CB,B9,05,00,FE,1B,00,00,
39380764,00000013,false,Rx,0,8,25,92,03,00,B0,B4,00,00,
39382090,00000014,false,Rx,0,4,AC,05,1F,01,00,00,00,00,
39434084,00000011,false,Rx,0,8,3F,12,00,00,0D,02,00,00,
39435699,00000012,false,Rx,0,8,0B,BB,05,00,95,1F,00,00,
39437249,00000013,false,Rx,0,8,C7,92,03,00,51,B5,00,00,
39438550,00000014,false,Rx,0,4,AD,05,20,01,00,00,00,00,
39490545,00000011,false,Rx,0,8,3B,12,00,00,D1,01,00,00,
39492146,00000012,false,Rx,0,8,CB,B9,05,00,FE,1B,00,00,
39493883,00000013,false,Rx,0,8,25,92,03,00,B0,B4,00,00,
39495164,00000014,false,Rx,0,4,AC,05,1F,01,00,00,00,00,
39546965,00000011,false,Rx,0,8,3B,12,00,00,D1,01,00,00,
39548584,00000012,false,Rx,0,8,CB,B9,05,00,FE,1B,00,00,
39550161,00000013,false,Rx,0,8,25,92,03,00,B0,B4,00,00,
39551450,00000014,false,Rx,0,4,AC,05,1F,01,00,00,00,00,
