Time Stamp,ID,Extended,Dir,Bus,LEN,D1,D2,D3,D4,D5,D6,D7,D8
25800674,00000011,false,Rx,0,8,D1,13,00,00,1E,01,00,00,
25802292,00000012,false,Rx,0,8,47,39,06,00,38,11,00,00,
25803825,00000013,false,Rx,0,8,5D,D2,03,00,CC,B2,00,00,
25805170,00000014,false,Rx,0,4,12,06,1C,01,00,00,00,00,
25857108,00000011,false,Rx,0,8,D5,13,00,00,1E,01,00,00,
25858728,00000012,false,Rx,0,8,87,3A,06,00,38,11,00,00,
25860300,00000013,false,Rx,0,8,FE,D2,03,00,CC,B2,00,00,
25861581,00000014,false,Rx,0,4,13,06,1C,01,00,00,00,00,
25913566,00000011,false,Rx,0,8,D1,13,00,00,1E,01,00,00,
25915209,00000012,false,Rx,0,8,47,39,06,00,38,11,00,00,
25916766,00000013,false,Rx,0,8,5D,D2,03,00,CC,B2,00,00,
25918068,00000014,false,Rx,0,4,12,06,1C,01,00,00,00,00,
25970036,00000011,false,Rx,0,8,D5,13,00,00,1E,01,00,00,
25971682,00000012,false,Rx,0,8,87,3A,06,00,38,11,00,00,
25973206,00000013,false,Rx,0,8,FE,D2,03,00,CC,B2,00,00,
25974498,00000014,false,Rx,0,4,13,06,1C,01,00,00,00,00,
26026513,00000011,false,Rx,0,8,D1,13,00,00,1E,01,00,00,
26028125,00000012,false,Rx,0,8,47,39,06,00,38,11,00,00,
26029739,00000013,false,Rx,0,8,5D,D2,03,00,CC,B2,00,00,
26030979,00000014,false,Rx,0,4,12,06,1C,01,00,00,00,00,
26083022,00000011,false,Rx,0,8,D1,13,00,00,59,01,00,00,
26084637,00000012,false,Rx,0,8,47,39,06,00,CF,14,00,00,
26086188,00000013,false,Rx,0,8,5D,D2,03,00,6E,B3,00,00,
26087446,00000014,false,Rx,0,4,12,06,1D,01,00,00,00,00,
26139478,00000011,false,Rx,0,8,CD,13,00,00,95,01,00,00,
26141047,00000012,false,Rx,0,8,07,38,06,00,66,18,00,00,
26142632,00000013,false,Rx,0,8,BC,D1,03,00,0F,B4,00,00,
26143925,00000014,false,Rx,0,4,11,06,1E,01,00,00,00,00,
26196107,00000011,false,Rx,0,8,D1,13,00,00,1E,01,00,00,
26197615,00000012,false,Rx,0,8,47,39,06,00,38,11,00,00,
26199149,00000013,false,Rx,0,8,5D,D2,03,00,CC,B2,00,00,
26200410,00000014,false,Rx,0,4,12,06,1C,01,00,00,00,00,
26252423,00000011,false,Rx,0,8,D1,13,00,00,1E,01,00,00,
26254024,00000012,false,Rx,0,8,47,39,06,00,38,11,00,00,
26255605,00000013,false,Rx,0,8,5D,D2,03,00,CC,B2,00,00,
26256850,00000014,false,Rx,0,4,12,06,1C,01,00,00,00,00,
26308818,00000011,false,Rx,0,8,D1,13,00,00,59,01,00,00,
26310469,00000012,false,Rx,0,8,47,39,06,00,CF,14,00,00,
26312040,00000013,false,Rx,0,8,5D,D2,03,00,6E,B3,00,00,
26313350,00000014,false,Rx,0,4,12,06,1D,01,00,00,00,00,
26365291,00000011,false,Rx,0,8,D1,13,00,00,1E,01,00,00,
26366900,00000012,false,Rx,0,8,47,39,06,00,38,11,00,00,
26368503,00000013,false,Rx,0,8,5D,D2,03,00,CC,B2,00,00,
26369788,00000014,false,Rx,0,4,12,06,1C,01,00,00,00,00,
26421716,00000011,false,Rx,0,8,D1,13,00,00,1E,01,00,00,
26423295,00000012,false,Rx,0,8,47,39,06,00,38,11,00,00,
26424874,00000013,false,Rx,0,8,5D,D2,03,00,CC,B2,00,00,
26426166,00000014,false,Rx,0,4,12,06,1C,01,00,00,00,00,
26478176,00000011,false,Rx,0,8,CD,13,00,00,59,01,00,00,
26479791,00000012,false,Rx,0,8,07,38,06,00,CF,14,00,00,
26481345,00000013,false,Rx,0,8,BC,D1,03,00,6E,B3,00,00,
26482651,00000014,false,Rx,0,4,11,06,1D,01,00,00,00,00,
26534602,00000011,false,Rx,0,8,D1,13,00,00,59,01,00,00,
26536212,00000012,false,Rx,0,8,47,39,06,00,CF,14,00,00,
26537834,00000013,false,Rx,0,8,5D,D2,03,00,6E,B3,00,00,
26539086,00000014,false,Rx,0,4,12,06,1D,01,00,00,00,00,
26591042,00000011,false,Rx,0,8,CD,13,00,00,59,01,00,00,
26592692,00000012,false,Rx,0,8,07,38,06,00,CF,14,00,00,
26594235,00000013,false,Rx,0,8,BC,D1,03,00,6E,B3,00,00,
26595565,00000014,false,Rx,0,4,11,06,1D,01,00,00,00,00,
26647570,00000011,false,Rx,0,8,D1,13,00,00,59,01,00,00,
26649124,00000012,false,Rx,0,8,47,39,06,00,CF,14,00,00,
26650698,00000013,false,Rx,0,8,5D,D2,03,00,6E,B3,00,00,
26651995,00000014,false,Rx,0,4,12,06,1D,01,00,00,00,00,
26704256,00000011,false,Rx,0,8,D1,13,00,00,1E,01,00,00,
26705648,00000012,false,Rx,0,8,47,39,06,00,38,11,00,00,
26707149,00000013,false,Rx,0,8,5D,D2,03,00,CC,B2,00,00,
26708476,00000014,false,Rx,0,4,12,06,1C,01,00,00,00,00,
26760505,00000011,false,Rx,0,8,D1,13,00,00,1E,01,00,00,
26762123,00000012,false,Rx,0,8,47,39,06,00,38,11,00,00,
26763857,00000013,false,Rx,0,8,5D,D2,03,00,CC,B2,00,00,
26765151,00000014,false,Rx,0,4,12,06,1C,01,00,00,00,00,
26817155,00000011,false,Rx,0,8,D1,13,00,00,59,01,00,00,
26818623,00000012,false,Rx,0,8,47,39,06,00,CF,14,00,00,
26820202,00000013,false,Rx,0,8,5D,D2,03,00,6E,B3,00,00,
26821497,00000014,false,Rx,0,4,12,06,1D,01,00,00,00,00,
26873455,00000011,false,Rx,0,8,D1,13,00,00,1E,01,00,00,
26875081,00000012,false,Rx,0,8,47,39,06,00,38,11,00,00,
26876665,00000013,false,Rx,0,8,5D,D2,03,00,CC,B2,00,00,
26877966,00000014,false,Rx,0,4,12,06,1C,01,00,00,00,00,
26930017,00000011,false,Rx,0,8,CD,13,00,00,1E,01,00,00,
26931577,00000012,false,Rx,0,8,07,38,06,00,38,11,00,00,
26933167,00000013,false,Rx,0,8,BC,D1,03,00,CC,B2,00,00,
26934458,00000014,false,Rx,0,4,11,06,1C,01,00,00,00,00,
26986569,00000011,false,Rx,0,8,D1,13,00,00,1E,01,00,00,
26988102,00000012,false,Rx,0,8,47,39,06,00,38,11,00,00,
26989662,00000013,false,Rx,0,8,5D,D2,03,00,CC,B2,00,00,
26990959,00000014,false,Rx,0,4,12,06,1C,01,00,00,00,00,
27042947,00000011,false,Rx,0,8,CD,13,00,00,1E,01,00,00,
27044565,00000012,false,Rx,0,8,07,38,06,00,38,11,00,00,
27046140,00000013,false,Rx,0,8,BC,D1,03,00,CC,B2,00,00,
27047445,00000014,false,Rx,0,4,11,06,1C,01,00,00,00,00,
27099435,00000011,false,Rx,0,8,D1,13,00,00,1E,01,00,00,
27101248,00000012,false,Rx,0,8,47,39,06,00,38,11,00,00,
27102824,00000013,false,Rx,0,8,5D,D2,03,00,CC,B2,00,00,
27104124,00000014,false,Rx,0,4,12,06,1C,01,00,00,00,00,
27155921,00000011,false,Rx,0,8,CD,13,00,00,1E,01,00,00,
27157486,00000012,false,Rx,0,8,07,38,06,00,38,11,00,00,
27159073,00000013,false,Rx,0,8,BC,D1,03,00,CC,B2,00,00,
27160359,00000014,false,Rx,0,4,11,06,1C,01,00,00,00,00,
27212347,00000011,false,Rx,0,8,D1,13,00,00,1E,01,00,00,
27213970,00000012,false,Rx,0,8,47,39,06,00,38,11,00,00,
27215539,00000013,false,Rx,0,8,5D,D2,03,00,CC,B2,00,00,
27216951,00000014,false,Rx,0,4,12,06,1C,01,00,00,00,00,
27269048,00000011,false,Rx,0,8,CD,13,00,00,1E,01,00,00,
27270675,00000012,false,Rx,0,8,07,38,06,00,38,11,00,00,
27271996,00000013,false,Rx,0,8,BC,D1,03,00,CC,B2,00,00,
27273288,00000014,false,Rx,0,4,11,06,1C,01,00,00,00,00,
27325257,00000011,false,Rx,0,8,CD,13,00,00,1E,01,00,00,
27326877,00000012,false,Rx,0,8,07,38,06,00,38,11,00,00,
27328429,00000013,false,Rx,0,8,BC,D1,03,00,CC,B2,00,00,
27329750,00000014,false,Rx,0,4,11,06,1C,01,00,00,00,00,
27381710,00000011,false,Rx,0,8,CD,13,00,00,1E,01,00,00,
27383352,00000012,false,Rx,0,8,07,38,06,00,38,11,00,00,
27385116,00000013,false,Rx,0,8,BC,D1,03,00,CC,B2,00,00,
27386206,00000014,false,Rx,0,4,11,06,1C,01,00,00,00,00,
27438175,00000011,false,Rx,0,8,D1,13,00,00,1E,01,00,00,
27439753,00000012,false,Rx,0,8,47,39,06,00,38,11,00,00,
27441356,00000013,false,Rx,0,8,5D,D2,03,00,CC,B2,00,00,
27442654,00000014,false,Rx,0,4,12,06,1C,01,00,00,00,00,
27494632,00000011,false,Rx,0,8,D1,13,00,00,1E,01,00,00,
27496435,00000012,false,Rx,0,8,47,39,06,00,38,11,00,00,
27497804,00000013,false,Rx,0,8,5D,D2,03,00,CC,B2,00,00,
27499127,00000014,false,Rx,0,4,12,06,1C,01,00,00,00,00,
27551137,00000011,false,Rx,0,8,D1,13,00,00,1E,01,00,00,
27552707,00000012,false,Rx,0,8,47,39,06,00,38,11,00,00,
27554284,00000013,false,Rx,0,8,5D,D2,03,00,CC,B2,00,00,
27555598,00000014,false,Rx,0,4,12,06,1C,01,00,00,00,00,
27607576,00000011,false,Rx,0,8,CD,13,00,00,1E,01,00,00,
27609187,00000012,false,Rx,0,8,07,38,06,00,38,11,00,00,
27610733,00000013,false,Rx,0,8,BC,D1,03,00,CC,B2,00,00,
27612005,00000014,false,Rx,0,4,11,06,1C,01,00,00,00,00,
27664014,00000011,false,Rx,0,8,D1,13,00,00,1E,01,00,00,
27665631,00000012,false,Rx,0,8,47,39,06,00,38,11,00,00,
27667228,00000013,false,Rx,0,8,5D,D2,03,00,CC,B2,00,00,
27668755,00000014,false,Rx,0,4,12,06,1C,01,00,00,00,00,
27720765,00000011,false,Rx,0,8,CD,13,00,00,1E,01,00,00,
27722083,00000012,false,Rx,0,8,07,38,06,00,38,11,00,00,
27723686,00000013,false,Rx,0,8,BC,D1,03,00,CC,B2,00,00,
27724984,00000014,false,Rx,0,4,11,06,1C,01,00,00,00,00,
27776965,00000011,false,Rx,0,8,CD,13,00,00,59,01,00,00,
27778563,00000012,false,Rx,0,8,07,38,06,00,CF,14,00,00,
27780134,00000013,false,Rx,0,8,BC,D1,03,00,6E,B3,00,00,
27781511,00000014,false,Rx,0,4,11,06,1D,01,00,00,00,00,
27833579,00000011,false,Rx,0,8,CD,13,00,00,59,01,00,00,
27835055,00000012,false,Rx,0,8,07,38,06,00,CF,14,00,00,
27836751,00000013,false,Rx,0,8,BC,D1,03,00,6E,B3,00,00,
27837879,00000014,false,Rx,0,4,11,06,1D,01,00,00,00,00,
27889890,00000011,false,Rx,0,8,CD,13,00,00,1E,01,00,00,
27891538,00000012,false,Rx,0,8,07,38,06,00,38,11,00,00,
27893088,00000013,false,Rx,0,8,BC,D1,03,00,CC,B2,00,00,
27894384,00000014,false,Rx,0,4,11,06,1C,01,00,00,00,00,
27946389,00000011,false,Rx,0,8,D1,13,00,00,59,01,00,00,
27948032,00000012,false,Rx,0,8,47,39,06,00,CF,14,00,00,
27949609,00000013,false,Rx,0,8,5D,D2,03,00,6E,B3,00,00,
27950914,00000014,false,Rx,0,4,12,06,1D,01,00,00,00,00,
28003086,00000011,false,Rx,0,8,C9,13,00,00,1E,01,00,00,
28004584,00000012,false,Rx,0,8,C7,36,06,00,38,11,00,00,
28006159,00000013,false,Rx,0,8,1B,D1,03,00,CC,B2,00,00,
28007482,00000014,false,Rx,0,4,10,06,1C,01,00,00,00,00,
28059467,00000011,false,Rx,0,8,E6,0F,00,00,AA,4C,00,00,
28061085,00000012,false,Rx,0,8,52,FE,04,00,AE,9C,04,00,
28062636,00000013,false,Rx,0,8,B6,33,03,00,C8,7E,01,00,
28063955,00000014,false,Rx,0,4,16,05,60,02,00,00,00,00,
28116044,00000011,false,Rx,0,8,08,14,00,00,35,72,00,00,
28117684,00000012,false,Rx,0,8,C6,4A,06,00,D2,DE,06,00,
28119157,00000013,false,Rx,0,8,2D,DB,03,00,25,E4,01,00,
28120504,00000014,false,Rx,0,4,20,06,01,03,00,00,00,00,
28172422,00000011,false,Rx,0,8,60,14,00,00,82,71,00,00,
28173988,00000012,false,Rx,0,8,45,66,06,00,0C,D4,06,00,
28175593,00000013,false,Rx,0,8,07,E9,03,00,41,E2,01,00,
28176885,00000014,false,Rx,0,4,36,06,FE,02,00,00,00,00,
28228891,00000011,false,Rx,0,8,3C,14,00,00,CF,70,00,00,
28230481,00000012,false,Rx,0,8,06,5B,06,00,46,C9,06,00,
28232063,00000013,false,Rx,0,8,5D,E3,03,00,5E,E0,01,00,
28233362,00000014,false,Rx,0,4,2D,06,FB,02,00,00,00,00,
28285460,00000011,false,Rx,0,8,24,14,00,00,58,70,00,00,
28287108,00000012,false,Rx,0,8,86,53,06,00,18,C2,06,00,
28288547,00000013,false,Rx,0,8,96,DF,03,00,1C,DF,01,00,
28289811,00000014,false,Rx,0,4,27,06,F9,02,00,00,00,00,
28341840,00000011,false,Rx,0,8,14,14,00,00,E0,6F,00,00,
28343438,00000012,false,Rx,0,8,86,4E,06,00,E9,BA,06,00,
28345012,00000013,false,Rx,0,8,11,DD,03,00,D9,DD,01,00,
28346514,00000014,false,Rx,0,4,23,06,F7,02,00,00,00,00,
28398293,00000011,false,Rx,0,8,0C,14,00,00,A4,6F,00,00,
28399911,00000012,false,Rx,0,8,06,4C,06,00,52,B7,06,00,
28401459,00000013,false,Rx,0,8,CF,DB,03,00,38,DD,01,00,
28402759,00000014,false,Rx,0,4,21,06,F6,02,00,00,00,00,
28454777,00000011,false,Rx,0,8,00,14,00,00,A4,6F,00,00,
28456363,00000012,false,Rx,0,8,46,48,06,00,52,B7,06,00,
28457936,00000013,false,Rx,0,8,EB,D9,03,00,38,DD,01,00,
28459236,00000014,false,Rx,0,4,1E,06,F6,02,00,00,00,00,
28511237,00000011,false,Rx,0,8,00,14,00,00,69,6F,00,00,
28512798,00000012,false,Rx,0,8,46,48,06,00,BA,B3,06,00,
28514365,00000013,false,Rx,0,8,EB,D9,03,00,97,DC,01,00,
28515661,00000014,false,Rx,0,4,1E,06,F5,02,00,00,00,00,
28567918,00000011,false,Rx,0,8,F4,13,00,00,2D,6F,00,00,
28569299,00000012,false,Rx,0,8,86,44,06,00,23,B0,06,00,
28570808,00000013,false,Rx,0,8,08,D8,03,00,F6,DB,01,00,
28572112,00000014,false,Rx,0,4,1B,06,F4,02,00,00,00,00,
28624091,00000011,false,Rx,0,8,F8,13,00,00,F1,6E,00,00,
28625723,00000012,false,Rx,0,8,C6,45,06,00,8C,AC,06,00,
28627300,00000013,false,Rx,0,8,A9,D8,03,00,54,DB,01,00,
28628534,00000014,false,Rx,0,4,1C,06,F3,02,00,00,00,00,
28680561,00000011,false,Rx,0,8,F4,13,00,00,B6,6E,00,00,
28682191,00000012,false,Rx,0,8,86,44,06,00,F5,A8,06,00,
28683750,00000013,false,Rx,0,8,08,D8,03,00,B3,DA,01,00,
28685223,00000014,false,Rx,0,4,1B,06,F2,02,00,00,00,00,
28737112,00000011,false,Rx,0,8,F0,13,00,00,B6,6E,00,00,
28738600,00000012,false,Rx,0,8,46,43,06,00,F5,A8,06,00,
28740171,00000013,false,Rx,0,8,66,D7,03,00,B3,DA,01,00,
28741475,00000014,false,Rx,0,4,1A,06,F2,02,00,00,00,00,
28793601,00000011,false,Rx,0,8,F0,13,00,00,B6,6E,00,00,
28795227,00000012,false,Rx,0,8,46,43,06,00,F5,A8,06,00,
28796687,00000013,false,Rx,0,8,66,D7,03,00,B3,DA,01,00,
28798111,00000014,false,Rx,0,4,1A,06,F2,02,00,00,00,00,
28849892,00000011,false,Rx,0,8,F0,13,00,00,7A,6E,00,00,
28851544,00000012,false,Rx,0,8,46,43,06,00,5D,A5,06,00,
28853062,00000013,false,Rx,0,8,66,D7,03,00,12,DA,01,00,
28854367,00000014,false,Rx,0,4,1A,06,F1,02,00,00,00,00,
28906351,00000011,false,Rx,0,8,EC,13,00,00,3E,6E,00,00,
28907940,00000012,false,Rx,0,8,06,42,06,00,C6,A1,06,00,
28909515,00000013,false,Rx,0,8,C5,D6,03,00,71,D9,01,00,
28910816,00000014,false,Rx,0,4,19,06,F0,02,00,00,00,00,
28963045,00000011,false,Rx,0,8,F0,13,00,00,3E,6E,00,00,
28964645,00000012,false,Rx,0,8,46,43,06,00,C6,A1,06,00,
28965972,00000013,false,Rx,0,8,66,D7,03,00,71,D9,01,00,
28967288,00000014,false,Rx,0,4,1A,06,F0,02,00,00,00,00,
29019495,00000011,false,Rx,0,8,F0,13,00,00,3E,6E,00,00,
29020813,00000012,false,Rx,0,8,46,43,06,00,C6,A1,06,00,
29022386,00000013,false,Rx,0,8,66,D7,03,00,71,D9,01,00,
29023723,00000014,false,Rx,0,4,1A,06,F0,02,00,00,00,00,
29075694,00000011,false,Rx,0,8,EC,13,00,00,03,6E,00,00,
29077288,00000012,false,Rx,0,8,06,42,06,00,2F,9E,06,00,
29079108,00000013,false,Rx,0,8,C5,D6,03,00,D0,D8,01,00,
29080415,00000014,false,Rx,0,4,19,06,EF,02,00,00,00,00,
29132353,00000011,false,Rx,0,8,EC,13,00,00,03,6E,00,00,
29133769,00000012,false,Rx,0,8,06,42,06,00,2F,9E,06,00,
29135364,00000013,false,Rx,0,8,C5,D6,03,00,D0,D8,01,00,
29136886,00000014,false,Rx,0,4,19,06,EF,02,00,00,00,00,
29188606,00000011,false,Rx,0,8,EC,13,00,00,03,6E,00,00,
29190221,00000012,false,Rx,0,8,06,42,06,00,2F,9E,06,00,
29191800,00000013,false,Rx,0,8,C5,D6,03,00,D0,D8,01,00,
29193094,00000014,false,Rx,0,4,19,06,EF,02,00,00,00,00,
29245042,00000011,false,Rx,0,8,F0,13,00,00,AE,6B,00,00,
29246812,00000012,false,Rx,0,8,46,43,06,00,46,7A,06,00,
29248391,00000013,false,Rx,0,8,66,D7,03,00,84,D2,01,00,
29249622,00000014,false,Rx,0,4,1A,06,E5,02,00,00,00,00,
29301679,00000011,false,Rx,0,8,F0,13,00,00,C7,6D,00,00,
29303378,00000012,false,Rx,0,8,46,43,06,00,98,9A,06,00,
29304706,00000013,false,Rx,0,8,66,D7,03,00,2F,D8,01,00,
29305993,00000014,false,Rx,0,4,1A,06,EE,02,00,00,00,00,
29357973,00000011,false,Rx,0,8,F0,13,00,00,C7,6D,00,00,
29359595,00000012,false,Rx,0,8,46,43,06,00,98,9A,06,00,
29361169,00000013,false,Rx,0,8,66,D7,03,00,2F,D8,01,00,
29362564,00000014,false,Rx,0,4,1A,06,EE,02,00,00,00,00,
29414514,00000011,false,Rx,0,8,F0,13,00,00,8B,6D,00,00,
29416151,00000012,false,Rx,0,8,46,43,06,00,00,97,06,00,
29417631,00000013,false,Rx,0,8,66,D7,03,00,8D,D7,01,00,
29418945,00000014,false,Rx,0,4,1A,06,ED,02,00,00,00,00,
29470884,00000011,false,Rx,0,8,F4,13,00,00,8B,6D,00,00,
29472498,00000012,false,Rx,0,8,86,44,06,00,00,97,06,00,
29474077,00000013,false,Rx,0,8,08,D8,03,00,8D,D7,01,00,
29475372,00000014,false,Rx,0,4,1B,06,ED,02,00,00,00,00,
29527354,00000011,false,Rx,0,8,F0,13,00,00,8B,6D,00,00,
29528921,00000012,false,Rx,0,8,46,43,06,00,00,97,06,00,
29530672,00000013,false,Rx,0,8,66,D7,03,00,8D,D7,01,00,
29531796,00000014,false,Rx,0,4,1A,06,ED,02,00,00,00,00,
29583774,00000011,false,Rx,0,8,F0,13,00,00,8B,6D,00,00,
29585549,00000012,false,Rx,0,8,46,43,06,00,00,97,06,00,
29586955,00000013,false,Rx,0,8,66,D7,03,00,8D,D7,01,00,
29588231,00000014,false,Rx,0,4,1A,06,ED,02,00,00,00,00,
29640207,00000011,false,Rx,0,8,F0,13,00,00,8B,6D,00,00,
29641821,00000012,false,Rx,0,8,46,43,06,00,00,97,06,00,
29643370,00000013,false,Rx,0,8,66,D7,03,00,8D,D7,01,00,
29644670,00000014,false,Rx,0,4,1A,06,ED,02,00,00,00,00,
29696652,00000011,false,Rx,0,8,F4,13,00,00,8B,6D,00,00,
29698439,00000012,false,Rx,0,8,86,44,06,00,00,97,06,00,
29699945,00000013,false,Rx,0,8,08,D8,03,00,8D,D7,01,00,
29701374,00000014,false,Rx,0,4,1B,06,ED,02,00,00,00,00,
29753350,00000011,false,Rx,0,8,F4,13,00,00,4F,6D,00,00,
29754709,00000012,false,Rx,0,8,86,44,06,00,69,93,06,00,
29756277,00000013,false,Rx,0,8,08,D8,03,00,EC,D6,01,00,
29757585,00000014,false,Rx,0,4,1B,06,EC,02,00,00,00,00,
29809528,00000011,false,Rx,0,8,F4,13,00,00,4F,6D,00,00,
29811116,00000012,false,Rx,0,8,86,44,06,00,69,93,06,00,
29812696,00000013,false,Rx,0,8,08,D8,03,00,EC,D6,01,00,
29814022,00000014,false,Rx,0,4,1B,06,EC,02,00,00,00,00,
29866217,00000011,false,Rx,0,8,F4,13,00,00,14,6D,00,00,
29867849,00000012,false,Rx,0,8,86,44,06,00,D2,8F,06,00,
29869401,00000013,false,Rx,0,8,08,D8,03,00,4B,D6,01,00,
29870449,00000014,false,Rx,0,4,1B,06,EB,02,00,00,00,00,
29922428,00000011,false,Rx,0,8,F8,13,00,00,4F,6D,00,00,
29924049,00000012,false,Rx,0,8,C6,45,06,00,69,93,06,00,
29925599,00000013,false,Rx,0,8,A9,D8,03,00,EC,D6,01,00,
29926922,00000014,false,Rx,0,4,1C,06,EC,02,00,00,00,00,
29978901,00000011,false,Rx,0,8,F8,13,00,00,4F,6D,00,00,
29980799,00000012,false,Rx,0,8,C6,45,06,00,69,93,06,00,
29982124,00000013,false,Rx,0,8,A9,D8,03,00,EC,D6,01,00,
29983420,00000014,false,Rx,0,4,1C,06,EC,02,00,00,00,00,
30035428,00000011,false,Rx,0,8,F8,13,00,00,4F,6D,00,00,
30037030,00000012,false,Rx,0,8,C6,45,06,00,69,93,06,00,
30038576,00000013,false,Rx,0,8,A9,D8,03,00,EC,D6,01,00,
30039903,00000014,false,Rx,0,4,1C,06,EC,02,00,00,00,00,
30091905,00000011,false,Rx,0,8,F8,13,00,00,14,6D,00,00,
30093498,00000012,false,Rx,0,8,C6,45,06,00,D2,8F,06,00,
30095075,00000013,false,Rx,0,8,A9,D8,03,00,4B,D6,01,00,
30096373,00000014,false,Rx,0,4,1C,06,EB,02,00,00,00,00,
30148634,00000011,false,Rx,0,8,F8,13,00,00,14,6D,00,00,
30150005,00000012,false,Rx,0,8,C6,45,06,00,D2,8F,06,00,
30151576,00000013,false,Rx,0,8,A9,D8,03,00,4B,D6,01,00,
30152874,00000014,false,Rx,0,4,1C,06,EB,02,00,00,00,00,
30204824,00000011,false,Rx,0,8,F8,13,00,00,14,6D,00,00,
30206487,00000012,false,Rx,0,8,C6,45,06,00,D2,8F,06,00,
30208026,00000013,false,Rx,0,8,A9,D8,03,00,4B,D6,01,00,
30209352,00000014,false,Rx,0,4,1C,06,EB,02,00,00,00,00,
30261356,00000011,false,Rx,0,8,F8,13,00,00,14,6D,00,00,
30262919,00000012,false,Rx,0,8,C6,45,06,00,D2,8F,06,00,
30264747,00000013,false,Rx,0,8,A9,D8,03,00,4B,D6,01,00,
30265933,00000014,false,Rx,0,4,1C,06,EB,02,00,00,00,00,
30317927,00000011,false,Rx,0,8,FC,13,00,00,14,6D,00,00,
30319594,00000012,false,Rx,0,8,06,47,06,00,D2,8F,06,00,
30321013,00000013,false,Rx,0,8,4A,D9,03,00,4B,D6,01,00,
30322352,00000014,false,Rx,0,4,1D,06,EB,02,00,00,00,00,
30374356,00000011,false,Rx,0,8,F8,13,00,00,14,6D,00,00,
30375927,00000012,false,Rx,0,8,C6,45,06,00,D2,8F,06,00,
30377517,00000013,false,Rx,0,8,A9,D8,03,00,4B,D6,01,00,
30378803,00000014,false,Rx,0,4,1C,06,EB,02,00,00,00,00,
30430829,00000011,false,Rx,0,8,FC,13,00,00,14,6D,00,00,
30432397,00000012,false,Rx,0,8,06,47,06,00,D2,8F,06,00,
30433969,00000013,false,Rx,0,8,4A,D9,03,00,4B,D6,01,00,
30435268,00000014,false,Rx,0,4,1D,06,EB,02,00,00,00,00,
30487328,00000011,false,Rx,0,8,00,14,00,00,D8,6C,00,00,
30488900,00000012,false,Rx,0,8,46,48,06,00,3A,8C,06,00,
30490506,00000013,false,Rx,0,8,EB,D9,03,00,AA,D5,01,00,
30491814,00000014,false,Rx,0,4,1E,06,EA,02,00,00,00,00,
30543783,00000011,false,Rx,0,8,00,14,00,00,9C,6C,00,00,
30545428,00000012,false,Rx,0,8,46,48,06,00,A3,88,06,00,
30547199,00000013,false,Rx,0,8,EB,D9,03,00,09,D5,01,00,
30548552,00000014,false,Rx,0,4,1E,06,E9,02,00,00,00,00,
30600334,00000011,false,Rx,0,8,04,14,00,00,D8,6C,00,00,
30602146,00000012,false,Rx,0,8,86,49,06,00,3A,8C,06,00,
30603485,00000013,false,Rx,0,8,8C,DA,03,00,AA,D5,01,00,
30604780,00000014,false,Rx,0,4,1F,06,EA,02,00,00,00,00,
30656757,00000011,false,Rx,0,8,04,14,00,00,D8,6C,00,00,
30658403,00000012,false,Rx,0,8,86,49,06,00,3A,8C,06,00,
30659957,00000013,false,Rx,0,8,8C,DA,03,00,AA,D5,01,00,
30661252,00000014,false,Rx,0,4,1F,06,EA,02,00,00,00,00,
30713204,00000011,false,Rx,0,8,04,14,00,00,D8,6C,00,00,
30714873,00000012,false,Rx,0,8,86,49,06,00,3A,8C,06,00,
30716670,00000013,false,Rx,0,8,8C,DA,03,00,AA,D5,01,00,
30717694,00000014,false,Rx,0,4,1F,06,EA,02,00,00,00,00,
30769743,00000011,false,Rx,0,8,04,14,00,00,9C,6C,00,00,
30771324,00000012,false,Rx,0,8,86,49,06,00,A3,88,06,00,
30772885,00000013,false,Rx,0,8,8C,DA,03,00,09,D5,01,00,
30774152,00000014,false,Rx,0,4,1F,06,E9,02,00,00,00,00,
30826189,00000011,false,Rx,0,8,08,14,00,00,9C,6C,00,00,
30827752,00000012,false,Rx,0,8,C6,4A,06,00,A3,88,06,00,
30829359,00000013,false,Rx,0,8,2D,DB,03,00,09,D5,01,00,
30830678,00000014,false,Rx,0,4,20,06,E9,02,00,00,00,00,
30882683,00000011,false,Rx,0,8,08,14,00,00,9C,6C,00,00,
30884274,00000012,false,Rx,0,8,C6,4A,06,00,A3,88,06,00,
30886073,00000013,false,Rx,0,8,2D,DB,03,00,09,D5,01,00,
30887125,00000014,false,Rx,0,4,20,06,E9,02,00,00,00,00,
30939143,00000011,false,Rx,0,8,08,14,00,00,9C,6C,00,00,
30940758,00000012,false,Rx,0,8,C6,4A,06,00,A3,88,06,00,
30942305,00000013,false,Rx,0,8,2D,DB,03,00,09,D5,01,00,
30943609,00000014,false,Rx,0,4,20,06,E9,02,00,00,00,00,
30995581,00000011,false,Rx,0,8,10,14,00,00,D8,6C,00,00,
30997229,00000012,false,Rx,0,8,46,4D,06,00,3A,8C,06,00,
30998802,00000013,false,Rx,0,8,70,DC,03,00,AA,D5,01,00,
31000102,00000014,false,Rx,0,4,22,06,EA,02,00,00,00,00,
31052110,00000011,false,Rx,0,8,0C,14,00,00,9C,6C,00,00,
31053702,00000012,false,Rx,0,8,06,4C,06,00,A3,88,06,00,
31055259,00000013,false,Rx,0,8,CF,DB,03,00,09,D5,01,00,
31056547,00000014,false,Rx,0,4,21,06,E9,02,00,00,00,00,
31108543,00000011,false,Rx,0,8,0C,14,00,00,9C,6C,00,00,
31110158,00000012,false,Rx,0,8,06,4C,06,00,A3,88,06,00,
31111704,00000013,false,Rx,0,8,CF,DB,03,00,09,D5,01,00,
31113039,00000014,false,Rx,0,4,21,06,E9,02,00,00,00,00,
31165259,00000011,false,Rx,0,8,0C,14,00,00,9C,6C,00,00,
31166653,00000012,false,Rx,0,8,06,4C,06,00,A3,88,06,00,
31168205,00000013,false,Rx,0,8,CF,DB,03,00,09,D5,01,00,
31169638,00000014,false,Rx,0,4,21,06,E9,02,00,00,00,00,
31221432,00000011,false,Rx,0,8,DA,12,00,00,9C,6C,00,00,
31223092,00000012,false,Rx,0,8,C9,EB,05,00,A3,88,06,00,
31224634,00000013,false,Rx,0,8,54,AB,03,00,09,D5,01,00,
31225935,00000014,false,Rx,0,4,D4,05,E9,02,00,00,00,00,
31277881,00000011,false,Rx,0,8,1A,13,00,00,8F,58,00,00,
31279646,00000012,false,Rx,0,8,C9,FF,05,00,D1,53,05,00,
31281177,00000013,false,Rx,0,8,67,B5,03,00,E4,9E,01,00,
31282406,00000014,false,Rx,0,4,E4,05,93,02,00,00,00,00,
31334388,00000011,false,Rx,0,8,6D,13,00,00,82,3D,00,00,
31336009,00000012,false,Rx,0,8,08,1A,06,00,45,B3,03,00,
31337577,00000013,false,Rx,0,8,A0,C2,03,00,DC,55,01,00,
31338829,00000014,false,Rx,0,4,F9,05,1F,02,00,00,00,00,
31390864,00000011,false,Rx,0,8,9D,13,00,00,28,2A,00,00,
31392469,00000012,false,Rx,0,8,07,29,06,00,39,89,02,00,
31394037,00000013,false,Rx,0,8,2E,CA,03,00,9B,21,01,00,
31395361,00000014,false,Rx,0,4,05,06,CC,01,00,00,00,00,
31447567,00000011,false,Rx,0,8,B5,13,00,00,EE,1B,00,00,
31449190,00000012,false,Rx,0,8,87,30,06,00,2D,AE,01,00,
31450537,00000013,false,Rx,0,8,F5,CD,03,00,33,FB,00,00,
31451822,00000014,false,Rx,0,4,0B,06,8F,01,00,00,00,00,
31503764,00000011,false,Rx,0,8,C1,13,00,00,82,10,00,00,
31505388,00000012,false,Rx,0,8,47,34,06,00,38,FE,00,00,
31506958,00000013,false,Rx,0,8,D8,CF,03,00,5A,DC,00,00,
31508263,00000014,false,Rx,0,4,0E,06,5E,01,00,00,00,00,
31560281,00000011,false,Rx,0,8,CD,13,00,00,58,08,00,00,
31561884,00000012,false,Rx,0,8,07,38,06,00,8A,80,00,00,
31563600,00000013,false,Rx,0,8,BC,D1,03,00,51,C6,00,00,
31564987,00000014,false,Rx,0,4,11,06,3B,01,00,00,00,00,
31616894,00000011,false,Rx,0,8,D5,13,00,00,EA,03,00,00,
31618492,00000012,false,Rx,0,8,87,3A,06,00,4F,3C,00,00,
31619886,00000013,false,Rx,0,8,FE,D2,03,00,5A,BA,00,00,
31621184,00000014,false,Rx,0,4,13,06,28,01,00,00,00,00,
31673196,00000011,false,Rx,0,8,DD,13,00,00,0D,02,00,00,
31674810,00000012,false,Rx,0,8,07,3D,06,00,95,1F,00,00,
31676384,00000013,false,Rx,0,8,41,D4,03,00,51,B5,00,00,
31677693,00000014,false,Rx,0,4,15,06,20,01,00,00,00,00,
31729677,00000011,false,Rx,0,8,E1,13,00,00,0D,02,00,00,
31731287,00000012,false,Rx,0,8,47,3E,06,00,95,1F,00,00,
31732831,00000013,false,Rx,0,8,E2,D4,03,00,51,B5,00,00,
31734129,00000014,false,Rx,0,4,16,06,20,01,00,00,00,00,
31786169,00000011,false,Rx,0,8,E5,13,00,00,D1,01,00,00,
31787756,00000012,false,Rx,0,8,86,3F,06,00,FE,1B,00,00,
31789371,00000013,false,Rx,0,8,83,D5,03,00,B0,B4,00,00,
31790654,00000014,false,Rx,0,4,17,06,1F,01,00,00,00,00,
31842597,00000011,false,Rx,0,8,EC,13,00,00,D1,01,00,00,
31844213,00000012,false,Rx,0,8,06,42,06,00,FE,1B,00,00,
31845805,00000013,false,Rx,0,8,C5,D6,03,00,B0,B4,00,00,
31847103,00000014,false,Rx,0,4,19,06,1F,01,00,00,00,00,
31899062,00000011,false,Rx,0,8,F0,13,00,00,D1,01,00,00,
31900682,00000012,false,Rx,0,8,46,43,06,00,FE,1B,00,00,
31902229,00000013,false,Rx,0,8,66,D7,03,00,B0,B4,00,00,
31903533,00000014,false,Rx,0,4,1A,06,1F,01,00,00,00,00,
31955548,00000011,false,Rx,0,8,F4,13,00,00,95,01,00,00,
31957142,00000012,false,Rx,0,8,86,44,06,00,66,18,00,00,
31958742,00000013,false,Rx,0,8,08,D8,03,00,0F,B4,00,00,
31960016,00000014,false,Rx,0,4,1B,06,1E,01,00,00,00,00,
32011997,00000011,false,Rx,0,8,FC,13,00,00,95,01,00,00,
32013584,00000012,false,Rx,0,8,06,47,06,00,66,18,00,00,
32015155,00000013,false,Rx,0,8,4A,D9,03,00,0F,B4,00,00,
32016430,00000014,false,Rx,0,4,1D,06,1E,01,00,00,00,00,
32068606,00000011,false,Rx,0,8,00,14,00,00,95,01,00,00,
32070109,00000012,false,Rx,0,8,46,48,06,00,66,18,00,00,
32071613,00000013,false,Rx,0,8,EB,D9,03,00,0F,B4,00,00,
32072913,00000014,false,Rx,0,4,1E,06,1E,01,00,00,00,00,
32124946,00000011,false,Rx,0,8,04,14,00,00,95,01,00,00,
32126539,00000012,false,Rx,0,8,86,49,06,00,66,18,00,00,
32128114,00000013,false,Rx,0,8,8C,DA,03,00,0F,B4,00,00,
32129608,00000014,false,Rx,0,4,1F,06,1E,01,00,00,00,00,
32181494,00000011,false,Rx,0,8,00,14,00,00,95,01,00,00,
32183036,00000012,false,Rx,0,8,46,48,06,00,66,18,00,00,
32184814,00000013,false,Rx,0,8,EB,D9,03,00,0F,B4,00,00,
32186000,00000014,false,Rx,0,4,1E,06,1E,01,00,00,00,00,
32237840,00000011,false,Rx,0,8,08,14,00,00,00,00,00,00,
32239483,00000012,false,Rx,0,8,C6,4A,06,00,00,00,00,00,
32241048,00000013,false,Rx,0,8,2D,DB,03,00,C3,AD,00,00,
32242366,00000014,false,Rx,0,4,20,06,14,01,00,00,00,00,
32294333,00000011,false,Rx,0,8,0C,14,00,00,95,01,00,00,
32295912,00000012,false,Rx,0,8,06,4C,06,00,66,18,00,00,
32297613,00000013,false,Rx,0,8,CF,DB,03,00,0F,B4,00,00,
32298811,00000014,false,Rx,0,4,21,06,1E,01,00,00,00,00,
32350790,00000011,false,Rx,0,8,10,14,00,00,59,01,00,00,
32352412,00000012,false,Rx,0,8,46,4D,06,00,CF,14,00,00,
32353982,00000013,false,Rx,0,8,70,DC,03,00,6E,B3,00,00,
32355237,00000014,false,Rx,0,4,22,06,1D,01,00,00,00,00,
32407275,00000011,false,Rx,0,8,14,14,00,00,95,01,00,00,
32408863,00000012,false,Rx,0,8,86,4E,06,00,66,18,00,00,
32410411,00000013,false,Rx,0,8,11,DD,03,00,0F,B4,00,00,
32411919,00000014,false,Rx,0,4,23,06,1E,01,00,00,00,00,
32463933,00000011,false,Rx,0,8,14,14,00,00,59,01,00,00,
32465393,00000012,false,Rx,0,8,86,4E,06,00,CF,14,00,00,
32466939,00000013,false,Rx,0,8,11,DD,03,00,6E,B3,00,00,
32468212,00000014,false,Rx,0,4,23,06,1D,01,00,00,00,00,
32520206,00000011,false,Rx,0,8,14,14,00,00,0D,02,00,00,
32521818,00000012,false,Rx,0,8,86,4E,06,00,95,1F,00,00,
32523394,00000013,false,Rx,0,8,11,DD,03,00,51,B5,00,00,
32524688,00000014,false,Rx,0,4,23,06,20,01,00,00,00,00,
32576646,00000011,false,Rx,0,8,18,14,00,00,95,01,00,00,
32578447,00000012,false,Rx,0,8,C6,4F,06,00,66,18,00,00,
32579982,00000013,false,Rx,0,8,B2,DD,03,00,0F,B4,00,00,
32581318,00000014,false,Rx,0,4,24,06,1E,01,00,00,00,00,
32633370,00000011,false,Rx,0,8,1C,14,00,00,95,01,00,00,
32634992,00000012,false,Rx,0,8,06,51,06,00,66,18,00,00,
32636323,00000013,false,Rx,0,8,53,DE,03,00,0F,B4,00,00,
32637561,00000014,false,Rx,0,4,25,06,1E,01,00,00,00,00,
32689605,00000011,false,Rx,0,8,1C,14,00,00,95,01,00,00,
32691216,00000012,false,Rx,0,8,06,51,06,00,66,18,00,00,
32692772,00000013,false,Rx,0,8,53,DE,03,00,0F,B4,00,00,
32694040,00000014,false,Rx,0,4,25,06,1E,01,00,00,00,00,
32746102,00000011,false,Rx,0,8,20,14,00,00,59,01,00,00,
32747725,00000012,false,Rx,0,8,46,52,06,00,CF,14,00,00,
32749356,00000013,false,Rx,0,8,F4,DE,03,00,6E,B3,00,00,
32750794,00000014,false,Rx,0,4,26,06,1D,01,00,00,00,00,
32802574,00000011,false,Rx,0,8,24,14,00,00,95,01,00,00,
32804165,00000012,false,Rx,0,8,86,53,06,00,66,18,00,00,
32805741,00000013,false,Rx,0,8,96,DF,03,00,0F,B4,00,00,
32807047,00000014,false,Rx,0,4,27,06,1E,01,00,00,00,00,
32859082,00000011,false,Rx,0,8,28,14,00,00,59,01,00,00,
32860684,00000012,false,Rx,0,8,C6,54,06,00,CF,14,00,00,
32862243,00000013,false,Rx,0,8,37,E0,03,00,6E,B3,00,00,
32863540,00000014,false,Rx,0,4,28,06,1D,01,00,00,00,00,
32915549,00000011,false,Rx,0,8,28,14,00,00,95,01,00,00,
32917165,00000012,false,Rx,0,8,C6,54,06,00,66,18,00,00,
32918743,00000013,false,Rx,0,8,37,E0,03,00,0F,B4,00,00,
32920036,00000014,false,Rx,0,4,28,06,1E,01,00,00,00,00,
32972017,00000011,false,Rx,0,8,2C,14,00,00,95,01,00,00,
32973743,00000012,false,Rx,0,8,06,56,06,00,66,18,00,00,
32975553,00000013,false,Rx,0,8,D8,E0,03,00,0F,B4,00,00,
32976659,00000014,false,Rx,0,4,29,06,1E,01,00,00,00,00,
33028877,00000011,false,Rx,0,8,28,14,00,00,95,01,00,00,
33030268,00000012,false,Rx,0,8,C6,54,06,00,66,18,00,00,
33031821,00000013,false,Rx,0,8,37,E0,03,00,0F,B4,00,00,
33033093,00000014,false,Rx,0,4,28,06,1E,01,00,00,00,00,
33085348,00000011,false,Rx,0,8,2C,14,00,00,95,01,00,00,
33086712,00000012,false,Rx,0,8,06,56,06,00,66,18,00,00,
33088246,00000013,false,Rx,0,8,D8,E0,03,00,0F,B4,00,00,
33089605,00000014,false,Rx,0,4,29,06,1E,01,00,00,00,00,
33141587,00000011,false,Rx,0,8,2C,14,00,00,95,01,00,00,
33143175,00000012,false,Rx,0,8,06,56,06,00,66,18,00,00,
33144715,00000013,false,Rx,0,8,D8,E0,03,00,0F,B4,00,00,
33146290,00000014,false,Rx,0,4,29,06,1E,01,00,00,00,00,
33198028,00000011,false,Rx,0,8,2C,14,00,00,95,01,00,00,
33199668,00000012,false,Rx,0,8,06,56,06,00,66,18,00,00,
33201264,00000013,false,Rx,0,8,D8,E0,03,00,0F,B4,00,00,
33202502,00000014,false,Rx,0,4,29,06,1E,01,00,00,00,00,
33254475,00000011,false,Rx,0,8,30,14,00,00,95,01,00,00,
33256099,00000012,false,Rx,0,8,46,57,06,00,66,18,00,00,
33257675,00000013,false,Rx,0,8,79,E1,03,00,0F,B4,00,00,
33258972,00000014,false,Rx,0,4,2A,06,1E,01,00,00,00,00,
33310921,00000011,false,Rx,0,8,30,14,00,00,59,01,00,00,
33312551,00000012,false,Rx,0,8,46,57,06,00,CF,14,00,00,
33314120,00000013,false,Rx,0,8,79,E1,03,00,6E,B3,00,00,
33315421,00000014,false,Rx,0,4,2A,06,1D,01,00,00,00,00,
33367427,00000011,false,Rx,0,8,30,14,00,00,59,01,00,00,
33368994,00000012,false,Rx,0,8,46,57,06,00,CF,14,00,00,
33370564,00000013,false,Rx,0,8,79,E1,03,00,6E,B3,00,00,
33371849,00000014,false,Rx,0,4,2A,06,1D,01,00,00,00,00,
33423882,00000011,false,Rx,0,8,34,14,00,00,59,01,00,00,
33425473,00000012,false,Rx,0,8,86,58,06,00,CF,14,00,00,
33427020,00000013,false,Rx,0,8,1A,E2,03,00,6E,B3,00,00,
33428372,00000014,false,Rx,0,4,2B,06,1D,01,00,00,00,00,
33480464,00000011,false,Rx,0,8,34,14,00,00,1E,01,00,00,
33481961,00000012,false,Rx,0,8,86,58,06,00,38,11,00,00,
33483522,00000013,false,Rx,0,8,1A,E2,03,00,CC,B2,00,00,
33484935,00000014,false,Rx,0,4,2B,06,1C,01,00,00,00,00,
33536818,00000011,false,Rx,0,8,34,14,00,00,59,01,00,00,
33538404,00000012,false,Rx,0,8,86,58,06,00,CF,14,00,00,
33540006,00000013,false,Rx,0,8,1A,E2,03,00,6E,B3,00,00,
33541286,00000014,false,Rx,0,4,2B,06,1D,01,00,00,00,00,
33593295,00000011,false,Rx,0,8,38,14,00,00,59,01,00,00,
33594848,00000012,false,Rx,0,8,C6,59,06,00,CF,14,00,00,
33596419,00000013,false,Rx,0,8,BC,E2,03,00,6E,B3,00,00,
33597764,00000014,false,Rx,0,4,2C,06,1D,01,00,00,00,00,
33649772,00000011,false,Rx,0,8,34,14,00,00,95,01,00,00,
33651389,00000012,false,Rx,0,8,86,58,06,00,66,18,00,00,
33652929,00000013,false,Rx,0,8,1A,E2,03,00,0F,B4,00,00,
33654228,00000014,false,Rx,0,4,2B,06,1E,01,00,00,00,00,
33706235,00000011,false,Rx,0,8,38,14,00,00,95,01,00,00,
33707828,00000012,false,Rx,0,8,C6,59,06,00,66,18,00,00,
33709403,00000013,false,Rx,0,8,BC,E2,03,00,0F,B4,00,00,
33710673,00000014,false,Rx,0,4,2C,06,1E,01,00,00,00,00,
33762683,00000011,false,Rx,0,8,3C,14,00,00,1E,01,00,00,
33764315,00000012,false,Rx,0,8,06,5B,06,00,38,11,00,00,
33765868,00000013,false,Rx,0,8,5D,E3,03,00,CC,B2,00,00,
33767145,00000014,false,Rx,0,4,2D,06,1C,01,00,00,00,00,
33819173,00000011,false,Rx,0,8,38,14,00,00,95,01,00,00,
33820781,00000012,false,Rx,0,8,C6,59,06,00,66,18,00,00,
33822356,00000013,false,Rx,0,8,BC,E2,03,00,0F,B4,00,00,
33823633,00000014,false,Rx,0,4,2C,06,1E,01,00,00,00,00,
33875631,00000011,false,Rx,0,8,3C,14,00,00,59,01,00,00,
33877260,00000012,false,Rx,0,8,06,5B,06,00,CF,14,00,00,
33878970,00000013,false,Rx,0,8,5D,E3,03,00,6E,B3,00,00,
33880245,00000014,false,Rx,0,4,2D,06,1D,01,00,00,00,00,
33932153,00000011,false,Rx,0,8,3C,14,00,00,59,01,00,00,
33933724,00000012,false,Rx,0,8,06,5B,06,00,CF,14,00,00,
33935298,00000013,false,Rx,0,8,5D,E3,03,00,6E,B3,00,00,
33936592,00000014,false,Rx,0,4,2D,06,1D,01,00,00,00,00,
33988580,00000011,false,Rx,0,8,3C,14,00,00,59,01,00,00,
33990201,00000012,false,Rx,0,8,06,5B,06,00,CF,14,00,00,
33991751,00000013,false,Rx,0,8,5D,E3,03,00,6E,B3,00,00,
33993025,00000014,false,Rx,0,4,2D,06,1D,01,00,00,00,00,
34045171,00000011,false,Rx,0,8,3C,14,00,00,59,01,00,00,
34046673,00000012,false,Rx,0,8,06,5B,06,00,CF,14,00,00,
34048222,00000013,false,Rx,0,8,5D,E3,03,00,6E,B3,00,00,
34049470,00000014,false,Rx,0,4,2D,06,1D,01,00,00,00,00,
34101629,00000011,false,Rx,0,8,40,14,00,00,59,01,00,00,
34103128,00000012,false,Rx,0,8,46,5C,06,00,CF,14,00,00,
34104628,00000013,false,Rx,0,8,FE,E3,03,00,6E,B3,00,00,
34105957,00000014,false,Rx,0,4,2E,06,1D,01,00,00,00,00,
34157964,00000011,false,Rx,0,8,3C,14,00,00,59,01,00,00,
34159551,00000012,false,Rx,0,8,06,5B,06,00,CF,14,00,00,
34161099,00000013,false,Rx,0,8,5D,E3,03,00,6E,B3,00,00,
34162432,00000014,false,Rx,0,4,2D,06,1D,01,00,00,00,00,
34214435,00000011,false,Rx,0,8,3C,14,00,00,95,01,00,00,
34216052,00000012,false,Rx,0,8,06,5B,06,00,66,18,00,00,
34217695,00000013,false,Rx,0,8,5D,E3,03,00,0F,B4,00,00,
34218886,00000014,false,Rx,0,4,2D,06,1E,01,00,00,00,00,
34270834,00000011,false,Rx,0,8,40,14,00,00,95,01,00,00,
34272464,00000012,false,Rx,0,8,46,5C,06,00,66,18,00,00,
34274034,00000013,false,Rx,0,8,FE,E3,03,00,0F,B4,00,00,
34275330,00000014,false,Rx,0,4,2E,06,1E,01,00,00,00,00,
34327319,00000011,false,Rx,0,8,44,14,00,00,59,01,00,00,
34328929,00000012,false,Rx,0,8,85,5D,06,00,CF,14,00,00,
34330458,00000013,false,Rx,0,8,9F,E4,03,00,6E,B3,00,00,
34331796,00000014,false,Rx,0,4,2F,06,1D,01,00,00,00,00,
34383811,00000011,false,Rx,0,8,40,14,00,00,59,01,00,00,
34385370,00000012,false,Rx,0,8,46,5C,06,00,CF,14,00,00,
34386948,00000013,false,Rx,0,8,FE,E3,03,00,6E,B3,00,00,
34388212,00000014,false,Rx,0,4,2E,06,1D,01,00,00,00,00,
34440185,00000011,false,Rx,0,8,40,14,00,00,59,01,00,00,
34441804,00000012,false,Rx,0,8,46,5C,06,00,CF,14,00,00,
34443353,00000013,false,Rx,0,8,FE,E3,03,00,6E,B3,00,00,
34444651,00000014,false,Rx,0,4,2E,06,1D,01,00,00,00,00,
34496892,00000011,false,Rx,0,8,40,14,00,00,59,01,00,00,
34498277,00000012,false,Rx,0,8,46,5C,06,00,CF,14,00,00,
34499827,00000013,false,Rx,0,8,FE,E3,03,00,6E,B3,00,00,
34501229,00000014,false,Rx,0,4,2E,06,1D,01,00,00,00,00,
34553101,00000011,false,Rx,0,8,44,14,00,00,59,01,00,00,
34554708,00000012,false,Rx,0,8,85,5D,06,00,CF,14,00,00,
34556282,00000013,false,Rx,0,8,9F,E4,03,00,6E,B3,00,00,
34557594,00000014,false,Rx,0,4,2F,06,1D,01,00,00,00,00,
34609563,00000011,false,Rx,0,8,40,14,00,00,59,01,00,00,
34611155,00000012,false,Rx,0,8,46,5C,06,00,CF,14,00,00,
34612760,00000013,false,Rx,0,8,FE,E3,03,00,6E,B3,00,00,
34614033,00000014,false,Rx,0,4,2E,06,1D,01,00,00,00,00,
34666302,00000011,false,Rx,0,8,40,14,00,00,59,01,00,00,
34667903,00000012,false,Rx,0,8,46,5C,06,00,CF,14,00,00,
34669206,00000013,false,Rx,0,8,FE,E3,03,00,6E,B3,00,00,
34670535,00000014,false,Rx,0,4,2E,06,1D,01,00,00,00,00,
34722545,00000011,false,Rx,0,8,40,14,00,00,59,01,00,00,
34724145,00000012,false,Rx,0,8,46,5C,06,00,CF,14,00,00,
34725719,00000013,false,Rx,0,8,FE,E3,03,00,6E,B3,00,00,
34727022,00000014,false,Rx,0,4,2E,06,1D,01,00,00,00,00,
34779004,00000011,false,Rx,0,8,3C,14,00,00,59,01,00,00,
34780774,00000012,false,Rx,0,8,06,5B,06,00,CF,14,00,00,
34782181,00000013,false,Rx,0,8,5D,E3,03,00,6E,B3,00,00,
34783483,00000014,false,Rx,0,4,2D,06,1D,01,00,00,00,00,
34835456,00000011,false,Rx,0,8,40,14,00,00,95,01,00,00,
34837057,00000012,false,Rx,0,8,46,5C,06,00,66,18,00,00,
34838641,00000013,false,Rx,0,8,FE,E3,03,00,0F,B4,00,00,
34839937,00000014,false,Rx,0,4,2E,06,1E,01,00,00,00,00,
34891889,00000011,false,Rx,0,8,44,14,00,00,59,01,00,00,
34893512,00000012,false,Rx,0,8,85,5D,06,00,CF,14,00,00,
34895120,00000013,false,Rx,0,8,9F,E4,03,00,6E,B3,00,00,
34896477,00000014,false,Rx,0,4,2F,06,1D,01,00,00,00,00,
34948624,00000011,false,Rx,0,8,40,14,00,00,59,01,00,00,
34950218,00000012,false,Rx,0,8,46,5C,06,00,CF,14,00,00,
34951612,00000013,false,Rx,0,8,FE,E3,03,00,6E,B3,00,00,
34952954,00000014,false,Rx,0,4,2E,06,1D,01,00,00,00,00,
35004843,00000011,false,Rx,0,8,40,14,00,00,59,01,00,00,
35006438,00000012,false,Rx,0,8,46,5C,06,00,CF,14,00,00,
35008008,00000013,false,Rx,0,8,FE,E3,03,00,6E,B3,00,00,
35009306,00000014,false,Rx,0,4,2E,06,1D,01,00,00,00,00,
35061355,00000011,false,Rx,0,8,8C,0E,00,00,AD,3E,00,00,
35063197,00000012,false,Rx,0,8,95,91,04,00,39,C5,03,00,
35064777,00000013,false,Rx,0,8,F0,FC,02,00,02,59,01,00,
35065812,00000014,false,Rx,0,4,BF,04,24,02,00,00,00,00,
35117919,00000011,false,Rx,0,8,99,13,00,00,A4,6F,00,00,
35119396,00000012,false,Rx,0,8,C7,27,06,00,52,B7,06,00,
35120962,00000013,false,Rx,0,8,8D,C9,03,00,38,DD,01,00,
35122268,00000014,false,Rx,0,4,04,06,F6,02,00,00,00,00,
35174280,00000011,false,Rx,0,8,6C,14,00,00,F9,71,00,00,
35175897,00000012,false,Rx,0,8,05,6A,06,00,3B,DB,06,00,
35177472,00000013,false,Rx,0,8,EB,EA,03,00,84,E3,01,00,
35178734,00000014,false,Rx,0,4,39,06,00,03,00,00,00,00,
35230983,00000011,false,Rx,0,8,48,14,00,00,0B,71,00,00,
35232415,00000012,false,Rx,0,8,C5,5E,06,00,DD,CC,06,00,
35233948,00000013,false,Rx,0,8,40,E5,03,00,FF,E0,01,00,
35235213,00000014,false,Rx,0,4,30,06,FC,02,00,00,00,00,
35287164,00000011,false,Rx,0,8,2C,14,00,00,CF,70,00,00,
35288788,00000012,false,Rx,0,8,06,56,06,00,46,C9,06,00,
35290360,00000013,false,Rx,0,8,D8,E0,03,00,5E,E0,01,00,
35291657,00000014,false,Rx,0,4,29,06,FB,02,00,00,00,00,
35343641,00000011,false,Rx,0,8,1C,14,00,00,93,70,00,00,
35345235,00000012,false,Rx,0,8,06,51,06,00,AF,C5,06,00,
35347092,00000013,false,Rx,0,8,53,DE,03,00,BD,DF,01,00,
35348387,00000014,false,Rx,0,4,25,06,FA,02,00,00,00,00,
35400124,00000011,false,Rx,0,8,14,14,00,00,1C,70,00,00,
35401742,00000012,false,Rx,0,8,86,4E,06,00,80,BE,06,00,
35403286,00000013,false,Rx,0,8,11,DD,03,00,7A,DE,01,00,
35404626,00000014,false,Rx,0,4,23,06,F8,02,00,00,00,00,
35456595,00000011,false,Rx,0,8,08,14,00,00,1C,70,00,00,
35458195,00000012,false,Rx,0,8,C6,4A,06,00,80,BE,06,00,
35459768,00000013,false,Rx,0,8,2D,DB,03,00,7A,DE,01,00,
35461037,00000014,false,Rx,0,4,20,06,F8,02,00,00,00,00,
35513292,00000011,false,Rx,0,8,08,14,00,00,E0,6F,00,00,
35514662,00000012,false,Rx,0,8,C6,4A,06,00,E9,BA,06,00,
35516236,00000013,false,Rx,0,8,2D,DB,03,00,D9,DD,01,00,
35517678,00000014,false,Rx,0,4,20,06,F7,02,00,00,00,00,
35569483,00000011,false,Rx,0,8,00,14,00,00,A4,6F,00,00,
35571109,00000012,false,Rx,0,8,46,48,06,00,52,B7,06,00,
35572651,00000013,false,Rx,0,8,EB,D9,03,00,38,DD,01,00,
35573970,00000014,false,Rx,0,4,1E,06,F6,02,00,00,00,00,
35625934,00000011,false,Rx,0,8,FC,13,00,00,69,6F,00,00,
35627556,00000012,false,Rx,0,8,06,47,06,00,BA,B3,06,00,
35629126,00000013,false,Rx,0,8,4A,D9,03,00,97,DC,01,00,
35630420,00000014,false,Rx,0,4,1D,06,F5,02,00,00,00,00,
35682424,00000011,false,Rx,0,8,F8,13,00,00,69,6F,00,00,
35683994,00000012,false,Rx,0,8,C6,45,06,00,BA,B3,06,00,
35685571,00000013,false,Rx,0,8,A9,D8,03,00,97,DC,01,00,
35686813,00000014,false,Rx,0,4,1C,06,F5,02,00,00,00,00,
35738773,00000011,false,Rx,0,8,F8,13,00,00,69,6F,00,00,
35740364,00000012,false,Rx,0,8,C6,45,06,00,BA,B3,06,00,
35741936,00000013,false,Rx,0,8,A9,D8,03,00,97,DC,01,00,
35743235,00000014,false,Rx,0,4,1C,06,F5,02,00,00,00,00,
35795237,00000011,false,Rx,0,8,F8,13,00,00,F1,6E,00,00,
35797011,00000012,false,Rx,0,8,C6,45,06,00,8C,AC,06,00,
35798656,00000013,false,Rx,0,8,A9,D8,03,00,54,DB,01,00,
35799961,00000014,false,Rx,0,4,1C,06,F3,02,00,00,00,00,
35851641,00000011,false,Rx,0,8,F4,13,00,00,2D,6F,00,00,
35853278,00000012,false,Rx,0,8,86,44,06,00,23,B0,06,00,
35854843,00000013,false,Rx,0,8,08,D8,03,00,F6,DB,01,00,
35856113,00000014,false,Rx,0,4,1B,06,F4,02,00,00,00,00,
35908141,00000011,false,Rx,0,8,F4,13,00,00,F1,6E,00,00,
35909745,00000012,false,Rx,0,8,86,44,06,00,8C,AC,06,00,
35911291,00000013,false,Rx,0,8,08,D8,03,00,54,DB,01,00,
35912570,00000014,false,Rx,0,4,1B,06,F3,02,00,00,00,00,
35964837,00000011,false,Rx,0,8,F0,13,00,00,B6,6E,00,00,
35966386,00000012,false,Rx,0,8,46,43,06,00,F5,A8,06,00,
35967919,00000013,false,Rx,0,8,66,D7,03,00,B3,DA,01,00,
35969054,00000014,false,Rx,0,4,1A,06,F2,02,00,00,00,00,
36021021,00000011,false,Rx,0,8,F0,13,00,00,F1,6E,00,00,
36022614,00000012,false,Rx,0,8,46,43,06,00,8C,AC,06,00,
36024213,00000013,false,Rx,0,8,66,D7,03,00,54,DB,01,00,
36025485,00000014,false,Rx,0,4,1A,06,F3,02,00,00,00,00,
36077515,00000011,false,Rx,0,8,F0,13,00,00,B6,6E,00,00,
36079114,00000012,false,Rx,0,8,46,43,06,00,F5,A8,06,00,
36080862,00000013,false,Rx,0,8,66,D7,03,00,B3,DA,01,00,
36081978,00000014,false,Rx,0,4,1A,06,F2,02,00,00,00,00,
36134157,00000011,false,Rx,0,8,EC,13,00,00,B6,6E,00,00,
36135560,00000012,false,Rx,0,8,06,42,06,00,F5,A8,06,00,
36137066,00000013,false,Rx,0,8,C5,D6,03,00,B3,DA,01,00,
36138364,00000014,false,Rx,0,4,19,06,F2,02,00,00,00,00,
36190396,00000011,false,Rx,0,8,F0,13,00,00,7A,6E,00,00,
36192084,00000012,false,Rx,0,8,46,43,06,00,5D,A5,06,00,
36193517,00000013,false,Rx,0,8,66,D7,03,00,12,DA,01,00,
36194810,00000014,false,Rx,0,4,1A,06,F1,02,00,00,00,00,
36246824,00000011,false,Rx,0,8,F4,13,00,00,7A,6E,00,00,
36248513,00000012,false,Rx,0,8,86,44,06,00,5D,A5,06,00,
36250241,00000013,false,Rx,0,8,08,D8,03,00,12,DA,01,00,
36251327,00000014,false,Rx,0,4,1B,06,F1,02,00,00,00,00,
36303249,00000011,false,Rx,0,8,F4,13,00,00,7A,6E,00,00,
36304838,00000012,false,Rx,0,8,86,44,06,00,5D,A5,06,00,
36306385,00000013,false,Rx,0,8,08,D8,03,00,12,DA,01,00,
36307714,00000014,false,Rx,0,4,1B,06,F1,02,00,00,00,00,
36359708,00000011,false,Rx,0,8,F0,13,00,00,7A,6E,00,00,
36361390,00000012,false,Rx,0,8,46,43,06,00,5D,A5,06,00,
36363144,00000013,false,Rx,0,8,66,D7,03,00,12,DA,01,00,
36364417,00000014,false,Rx,0,4,1A,06,F1,02,00,00,00,00,
36416176,00000011,false,Rx,0,8,F4,13,00,00,7A,6E,00,00,
36417768,00000012,false,Rx,0,8,86,44,06,00,5D,A5,06,00,
36419294,00000013,false,Rx,0,8,08,D8,03,00,12,DA,01,00,
36420591,00000014,false,Rx,0,4,1B,06,F1,02,00,00,00,00,
36472621,00000011,false,Rx,0,8,F4,13,00,00,7A,6E,00,00,
36474209,00000012,false,Rx,0,8,86,44,06,00,5D,A5,06,00,
36475783,00000013,false,Rx,0,8,08,D8,03,00,12,DA,01,00,
36477084,00000014,false,Rx,0,4,1B,06,F1,02,00,00,00,00,
36529062,00000011,false,Rx,0,8,F4,13,00,00,3E,6E,00,00,
36530647,00000012,false,Rx,0,8,86,44,06,00,C6,A1,06,00,
36532165,00000013,false,Rx,0,8,08,D8,03,00,71,D9,01,00,
36533508,00000014,false,Rx,0,4,1B,06,F0,02,00,00,00,00,
36585440,00000011,false,Rx,0,8,F4,13,00,00,3E,6E,00,00,
36587077,00000012,false,Rx,0,8,86,44,06,00,C6,A1,06,00,
36588624,00000013,false,Rx,0,8,08,D8,03,00,71,D9,01,00,
36589923,00000014,false,Rx,0,4,1B,06,F0,02,00,00,00,00,
36641934,00000011,false,Rx,0,8,F4,13,00,00,3E,6E,00,00,
36643500,00000012,false,Rx,0,8,86,44,06,00,C6,A1,06,00,
36645043,00000013,false,Rx,0,8,08,D8,03,00,71,D9,01,00,
36646422,00000014,false,Rx,0,4,1B,06,F0,02,00,00,00,00,
36698580,00000011,false,Rx,0,8,FC,13,00,00,03,6E,00,00,
36700220,00000012,false,Rx,0,8,06,47,06,00,2F,9E,06,00,
36701529,00000013,false,Rx,0,8,4A,D9,03,00,D0,D8,01,00,
36702797,00000014,false,Rx,0,4,1D,06,EF,02,00,00,00,00,
36754813,00000011,false,Rx,0,8,F4,13,00,00,03,6E,00,00,
36756439,00000012,false,Rx,0,8,86,44,06,00,2F,9E,06,00,
36758006,00000013,false,Rx,0,8,08,D8,03,00,D0,D8,01,00,
36759275,00000014,false,Rx,0,4,1B,06,EF,02,00,00,00,00,
36811292,00000011,false,Rx,0,8,FC,13,00,00,03,6E,00,00,
36812849,00000012,false,Rx,0,8,06,47,06,00,2F,9E,06,00,
36814420,00000013,false,Rx,0,8,4A,D9,03,00,D0,D8,01,00,
36815695,00000014,false,Rx,0,4,1D,06,EF,02,00,00,00,00,
36867801,00000011,false,Rx,0,8,F8,13,00,00,03,6E,00,00,
36869327,00000012,false,Rx,0,8,C6,45,06,00,2F,9E,06,00,
36870930,00000013,false,Rx,0,8,A9,D8,03,00,D0,D8,01,00,
36872187,00000014,false,Rx,0,4,1C,06,EF,02,00,00,00,00,
36924175,00000011,false,Rx,0,8,FC,13,00,00,03,6E,00,00,
36925822,00000012,false,Rx,0,8,06,47,06,00,2F,9E,06,00,
36927576,00000013,false,Rx,0,8,4A,D9,03,00,D0,D8,01,00,
36928796,00000014,false,Rx,0,4,1D,06,EF,02,00,00,00,00,
36980918,00000011,false,Rx,0,8,FC,13,00,00,C7,6D,00,00,
36982519,00000012,false,Rx,0,8,06,47,06,00,98,9A,06,00,
36984102,00000013,false,Rx,0,8,4A,D9,03,00,2F,D8,01,00,
36985128,00000014,false,Rx,0,4,1D,06,EE,02,00,00,00,00,
37037138,00000011,false,Rx,0,8,F8,13,00,00,03,6E,00,00,
37038755,00000012,false,Rx,0,8,C6,45,06,00,2F,9E,06,00,
37040302,00000013,false,Rx,0,8,A9,D8,03,00,D0,D8,01,00,
37041599,00000014,false,Rx,0,4,1C,06,EF,02,00,00,00,00,
37093632,00000011,false,Rx,0,8,00,14,00,00,3E,6E,00,00,
37095454,00000012,false,Rx,0,8,46,48,06,00,C6,A1,06,00,
37097028,00000013,false,Rx,0,8,EB,D9,03,00,71,D9,01,00,
37098096,00000014,false,Rx,0,4,1E,06,F0,02,00,00,00,00,
37150028,00000011,false,Rx,0,8,00,14,00,00,C7,6D,00,00,
37151627,00000012,false,Rx,0,8,46,48,06,00,98,9A,06,00,
37153199,00000013,false,Rx,0,8,EB,D9,03,00,2F,D8,01,00,
37154531,00000014,false,Rx,0,4,1E,06,EE,02,00,00,00,00,
37206507,00000011,false,Rx,0,8,04,14,00,00,03,6E,00,00,
37208099,00000012,false,Rx,0,8,86,49,06,00,2F,9E,06,00,
37209673,00000013,false,Rx,0,8,8C,DA,03,00,D0,D8,01,00,
37210972,00000014,false,Rx,0,4,1F,06,EF,02,00,00,00,00,
37263035,00000011,false,Rx,0,8,04,14,00,00,C7,6D,00,00,
37264626,00000012,false,Rx,0,8,86,49,06,00,98,9A,06,00,
37266445,00000013,false,Rx,0,8,8C,DA,03,00,2F,D8,01,00,
37267669,00000014,false,Rx,0,4,1F,06,EE,02,00,00,00,00,
37319457,00000011,false,Rx,0,8,04,14,00,00,C7,6D,00,00,
37321091,00000012,false,Rx,0,8,86,49,06,00,98,9A,06,00,
37322688,00000013,false,Rx,0,8,8C,DA,03,00,2F,D8,01,00,
37323970,00000014,false,Rx,0,4,1F,06,EE,02,00,00,00,00,
37375957,00000011,false,Rx,0,8,04,14,00,00,8B,6D,00,00,
37377573,00000012,false,Rx,0,8,86,49,06,00,00,97,06,00,
37379115,00000013,false,Rx,0,8,8C,DA,03,00,8D,D7,01,00,
37380421,00000014,false,Rx,0,4,1F,06,ED,02,00,00,00,00,
37432521,00000011,false,Rx,0,8,04,14,00,00,8B,6D,00,00,
37434251,00000012,false,Rx,0,8,86,49,06,00,00,97,06,00,
37435589,00000013,false,Rx,0,8,8C,DA,03,00,8D,D7,01,00,
37436877,00000014,false,Rx,0,4,1F,06,ED,02,00,00,00,00,
37488854,00000011,false,Rx,0,8,08,14,00,00,8B,6D,00,00,
37490447,00000012,false,Rx,0,8,C6,4A,06,00,00,97,06,00,
37492023,00000013,false,Rx,0,8,2D,DB,03,00,8D,D7,01,00,
37493326,00000014,false,Rx,0,4,20,06,ED,02,00,00,00,00,
37545386,00000011,false,Rx,0,8,08,14,00,00,8B,6D,00,00,
37546952,00000012,false,Rx,0,8,C6,4A,06,00,00,97,06,00,
37548751,00000013,false,Rx,0,8,2D,DB,03,00,8D,D7,01,00,
37549891,00000014,false,Rx,0,4,20,06,ED,02,00,00,00,00,
37601798,00000011,false,Rx,0,8,04,14,00,00,C7,6D,00,00,
37603415,00000012,false,Rx,0,8,86,49,06,00,98,9A,06,00,
37604981,00000013,false,Rx,0,8,8C,DA,03,00,2F,D8,01,00,
37606277,00000014,false,Rx,0,4,1F,06,EE,02,00,00,00,00,
37658296,00000011,false,Rx,0,8,08,14,00,00,4F,6D,00,00,
37659878,00000012,false,Rx,0,8,C6,4A,06,00,69,93,06,00,
37661442,00000013,false,Rx,0,8,2D,DB,03,00,EC,D6,01,00,
37662776,00000014,false,Rx,0,4,20,06,EC,02,00,00,00,00,
37714758,00000011,false,Rx,0,8,0C,14,00,00,8B,6D,00,00,
37716451,00000012,false,Rx,0,8,06,4C,06,00,00,97,06,00,
37717937,00000013,false,Rx,0,8,CF,DB,03,00,8D,D7,01,00,
37719204,00000014,false,Rx,0,4,21,06,ED,02,00,00,00,00,
37771210,00000011,false,Rx,0,8,0C,14,00,00,8B,6D,00,00,
37772833,00000012,false,Rx,0,8,06,4C,06,00,00,97,06,00,
37774405,00000013,false,Rx,0,8,CF,DB,03,00,8D,D7,01,00,
37775679,00000014,false,Rx,0,4,21,06,ED,02,00,00,00,00,
37827954,00000011,false,Rx,0,8,0C,14,00,00,8B,6D,00,00,
37829420,00000012,false,Rx,0,8,06,4C,06,00,00,97,06,00,
37830905,00000013,false,Rx,0,8,CF,DB,03,00,8D,D7,01,00,
37832180,00000014,false,Rx,0,4,21,06,ED,02,00,00,00,00,
37884212,00000011,false,Rx,0,8,0C,14,00,00,8B,6D,00,00,
37885807,00000012,false,Rx,0,8,06,4C,06,00,00,97,06,00,
37887378,00000013,false,Rx,0,8,CF,DB,03,00,8D,D7,01,00,
37888655,00000014,false,Rx,0,4,21,06,ED,02,00,00,00,00,
37940661,00000011,false,Rx,0,8,0C,14,00,00,8B,6D,00,00,
37942261,00000012,false,Rx,0,8,06,4C,06,00,00,97,06,00,
37943975,00000013,false,Rx,0,8,CF,DB,03,00,8D,D7,01,00,
37945365,00000014,false,Rx,0,4,21,06,ED,02,00,00,00,00,
37997385,00000011,false,Rx,0,8,10,14,00,00,4F,6D,00,00,
37998906,00000012,false,Rx,0,8,46,4D,06,00,69,93,06,00,
38000706,00000013,false,Rx,0,8,70,DC,03,00,EC,D6,01,00,
38001709,00000014,false,Rx,0,4,22,06,EC,02,00,00,00,00,
38053705,00000011,false,Rx,0,8,10,14,00,00,8B,6D,00,00,
38055336,00000012,false,Rx,0,8,46,4D,06,00,00,97,06,00,
38056905,00000013,false,Rx,0,8,70,DC,03,00,8D,D7,01,00,
38058174,00000014,false,Rx,0,4,22,06,ED,02,00,00,00,00,
38110189,00000011,false,Rx,0,8,10,14,00,00,25,6C,00,00,
38112059,00000012,false,Rx,0,8,46,4D,06,00,74,81,06,00,
38113334,00000013,false,Rx,0,8,70,DC,03,00,C6,D3,01,00,
38114626,00000014,false,Rx,0,4,22,06,E7,02,00,00,00,00,
38166888,00000011,false,Rx,0,8,14,14,00,00,4F,6D,00,00,
38168277,00000012,false,Rx,0,8,86,4E,06,00,69,93,06,00,
38169832,00000013,false,Rx,0,8,11,DD,03,00,EC,D6,01,00,
38171091,00000014,false,Rx,0,4,23,06,EC,02,00,00,00,00,
38223100,00000011,false,Rx,0,8,14,14,00,00,4F,6D,00,00,
38224720,00000012,false,Rx,0,8,86,4E,06,00,69,93,06,00,
38226270,00000013,false,Rx,0,8,11,DD,03,00,EC,D6,01,00,
38227566,00000014,false,Rx,0,4,23,06,EC,02,00,00,00,00,
38279563,00000011,false,Rx,0,8,14,14,00,00,4F,6D,00,00,
38281153,00000012,false,Rx,0,8,86,4E,06,00,69,93,06,00,
38282958,00000013,false,Rx,0,8,11,DD,03,00,EC,D6,01,00,
38284038,00000014,false,Rx,0,4,23,06,EC,02,00,00,00,00,
38335965,00000011,false,Rx,0,8,14,14,00,00,14,6D,00,00,
38337532,00000012,false,Rx,0,8,86,4E,06,00,D2,8F,06,00,
38339132,00000013,false,Rx,0,8,11,DD,03,00,4B,D6,01,00,
38340433,00000014,false,Rx,0,4,23,06,EB,02,00,00,00,00,
38392413,00000011,false,Rx,0,8,18,14,00,00,14,6D,00,00,
38393984,00000012,false,Rx,0,8,C6,4F,06,00,D2,8F,06,00,
38395580,00000013,false,Rx,0,8,B2,DD,03,00,4B,D6,01,00,
38397105,00000014,false,Rx,0,4,24,06,EB,02,00,00,00,00,
38448816,00000011,false,Rx,0,8,18,14,00,00,4F,6D,00,00,
38450543,00000012,false,Rx,0,8,C6,4F,06,00,69,93,06,00,
38452001,00000013,false,Rx,0,8,B2,DD,03,00,EC,D6,01,00,
38453259,00000014,false,Rx,0,4,24,06,EC,02,00,00,00,00,
38505238,00000011,false,Rx,0,8,18,14,00,00,4F,6D,00,00,
38506859,00000012,false,Rx,0,8,C6,4F,06,00,69,93,06,00,
38508403,00000013,false,Rx,0,8,B2,DD,03,00,EC,D6,01,00,
38509751,00000014,false,Rx,0,4,24,06,EC,02,00,00,00,00,
38561716,00000011,false,Rx,0,8,1C,14,00,00,14,6D,00,00,
38563331,00000012,false,Rx,0,8,06,51,06,00,D2,8F,06,00,
38565113,00000013,false,Rx,0,8,53,DE,03,00,4B,D6,01,00,
38566431,00000014,false,Rx,0,4,25,06,EB,02,00,00,00,00,
38618146,00000011,false,Rx,0,8,1C,14,00,00,4F,6D,00,00,
38619766,00000012,false,Rx,0,8,06,51,06,00,69,93,06,00,
38621331,00000013,false,Rx,0,8,53,DE,03,00,EC,D6,01,00,
38622633,00000014,false,Rx,0,4,25,06,EC,02,00,00,00,00,
38674610,00000011,false,Rx,0,8,1C,14,00,00,4F,6D,00,00,
38676437,00000012,false,Rx,0,8,06,51,06,00,69,93,06,00,
38677915,00000013,false,Rx,0,8,53,DE,03,00,EC,D6,01,00,
38679360,00000014,false,Rx,0,4,25,06,EC,02,00,00,00,00,
38731115,00000011,false,Rx,0,8,1C,14,00,00,14,6D,00,00,
38732684,00000012,false,Rx,0,8,06,51,06,00,D2,8F,06,00,
38734231,00000013,false,Rx,0,8,53,DE,03,00,4B,D6,01,00,
38735562,00000014,false,Rx,0,4,25,06,EB,02,00,00,00,00,
38787541,00000011,false,Rx,0,8,20,14,00,00,14,6D,00,00,
38789134,00000012,false,Rx,0,8,46,52,06,00,D2,8F,06,00,
38790678,00000013,false,Rx,0,8,F4,DE,03,00,4B,D6,01,00,
38791988,00000014,false,Rx,0,4,26,06,EB,02,00,00,00,00,
38844089,00000011,false,Rx,0,8,20,14,00,00,14,6D,00,00,
38845681,00000012,false,Rx,0,8,46,52,06,00,D2,8F,06,00,
38847182,00000013,false,Rx,0,8,F4,DE,03,00,4B,D6,01,00,
38848614,00000014,false,Rx,0,4,26,06,EB,02,00,00,00,00,
38900422,00000011,false,Rx,0,8,20,14,00,00,4F,6D,00,00,
38902037,00000012,false,Rx,0,8,46,52,06,00,69,93,06,00,
38903589,00000013,false,Rx,0,8,F4,DE,03,00,EC,D6,01,00,
38904890,00000014,false,Rx,0,4,26,06,EC,02,00,00,00,00,
38956867,00000011,false,Rx,0,8,24,14,00,00,14,6D,00,00,
38958486,00000012,false,Rx,0,8,86,53,06,00,D2,8F,06,00,
38960285,00000013,false,Rx,0,8,96,DF,03,00,4B,D6,01,00,
38961400,00000014,false,Rx,0,4,27,06,EB,02,00,00,00,00,
39013428,00000011,false,Rx,0,8,24,14,00,00,14,6D,00,00,
39014959,00000012,false,Rx,0,8,86,53,06,00,D2,8F,06,00,
39016731,00000013,false,Rx,0,8,96,DF,03,00,4B,D6,01,00,
39017798,00000014,false,Rx,0,4,27,06,EB,02,00,00,00,00,
39069783,00000011,false,Rx,0,8,20,14,00,00,14,6D,00,00,
39071415,00000012,false,Rx,0,8,46,52,06,00,D2,8F,06,00,
39072909,00000013,false,Rx,0,8,F4,DE,03,00,4B,D6,01,00,
39074205,00000014,false,Rx,0,4,26,06,EB,02,00,00,00,00,
39126218,00000011,false,Rx,0,8,24,14,00,00,D8,6C,00,00,
39128088,00000012,false,Rx,0,8,86,53,06,00,3A,8C,06,00,
39129511,00000013,false,Rx,0,8,96,DF,03,00,AA,D5,01,00,
39130710,00000014,false,Rx,0,4,27,06,EA,02,00,00,00,00,
39182788,00000011,false,Rx,0,8,28,14,00,00,14,6D,00,00,
39184293,00000012,false,Rx,0,8,C6,54,06,00,D2,8F,06,00,
39185891,00000013,false,Rx,0,8,37,E0,03,00,4B,D6,01,00,
39187191,00000014,false,Rx,0,4,28,06,EB,02,00,00,00,00,
39239195,00000011,false,Rx,0,8,28,14,00,00,4F,6D,00,00,
39240792,00000012,false,Rx,0,8,C6,54,06,00,69,93,06,00,
39242363,00000013,false,Rx,0,8,37,E0,03,00,EC,D6,01,00,
39243683,00000014,false,Rx,0,4,28,06,EC,02,00,00,00,00,
39295650,00000011,false,Rx,0,8,28,14,00,00,14,6D,00,00,
39297359,00000012,false,Rx,0,8,C6,54,06,00,D2,8F,06,00,
39298933,00000013,false,Rx,0,8,37,E0,03,00,4B,D6,01,00,
39300269,00000014,false,Rx,0,4,28,06,EB,02,00,00,00,00,
39352121,00000011,false,Rx,0,8,28,14,00,00,D8,6C,00,00,
39353747,00000012,false,Rx,0,8,C6,54,06,00,3A,8C,06,00,
39355290,00000013,false,Rx,0,8,37,E0,03,00,AA,D5,01,00,
39356594,00000014,false,Rx,0,4,28,06,EA,02,00,00,00,00,
39408613,00000011,false,Rx,0,8,2C,14,00,00,9C,6C,00,00,
39410190,00000012,false,Rx,0,8,06,56,06,00,A3,88,06,00,
39411784,00000013,false,Rx,0,8,D8,E0,03,00,09,D5,01,00,
39413035,00000014,false,Rx,0,4,29,06,E9,02,00,00,00,00,
39465065,00000011,false,Rx,0,8,2C,14,00,00,D8,6C,00,00,
39466804,00000012,false,Rx,0,8,06,56,06,00,3A,8C,06,00,
39468259,00000013,false,Rx,0,8,D8,E0,03,00,AA,D5,01,00,
39469535,00000014,false,Rx,0,4,29,06,EA,02,00,00,00,00,
39521535,00000011,false,Rx,0,8,2C,14,00,00,D8,6C,00,00,
39523136,00000012,false,Rx,0,8,06,56,06,00,3A,8C,06,00,
39524708,00000013,false,Rx,0,8,D8,E0,03,00,AA,D5,01,00,
39526009,00000014,false,Rx,0,4,29,06,EA,02,00,00,00,00,
39578005,00000011,false,Rx,0,8,28,14,00,00,D8,6C,00,00,
39579613,00000012,false,Rx,0,8,C6,54,06,00,3A,8C,06,00,
39581417,00000013,false,Rx,0,8,37,E0,03,00,AA,D5,01,00,
39582581,00000014,false,Rx,0,4,28,06,EA,02,00,00,00,00,
39634491,00000011,false,Rx,0,8,2C,14,00,00,14,6D,00,00,
39636071,00000012,false,Rx,0,8,06,56,06,00,D2,8F,06,00,
39637672,00000013,false,Rx,0,8,D8,E0,03,00,4B,D6,01,00,
39638925,00000014,false,Rx,0,4,29,06,EB,02,00,00,00,00,
39690952,00000011,false,Rx,0,8,30,14,00,00,14,6D,00,00,
39692517,00000012,false,Rx,0,8,46,57,06,00,D2,8F,06,00,
39694090,00000013,false,Rx,0,8,79,E1,03,00,4B,D6,01,00,
39695386,00000014,false,Rx,0,4,2A,06,EB,02,00,00,00,00,
39747449,00000011,false,Rx,0,8,2C,14,00,00,14,6D,00,00,
39749129,00000012,false,Rx,0,8,06,56,06,00,D2,8F,06,00,
39750575,00000013,false,Rx,0,8,D8,E0,03,00,4B,D6,01,00,
39751839,00000014,false,Rx,0,4,29,06,EB,02,00,00,00,00,
39803844,00000011,false,Rx,0,8,2C,14,00,00,D8,6C,00,00,
39805499,00000012,false,Rx,0,8,06,56,06,00,3A,8C,06,00,
39807044,00000013,false,Rx,0,8,D8,E0,03,00,AA,D5,01,00,
39808348,00000014,false,Rx,0,4,29,06,EA,02,00,00,00,00,
39860374,00000011,false,Rx,0,8,2C,14,00,00,14,6D,00,00,
39861979,00000012,false,Rx,0,8,06,56,06,00,D2,8F,06,00,
39863545,00000013,false,Rx,0,8,D8,E0,03,00,4B,D6,01,00,
39864964,00000014,false,Rx,0,4,29,06,EB,02,00,00,00,00,
39916806,00000011,false,Rx,0,8,2C,14,00,00,D8,6C,00,00,
39918424,00000012,false,Rx,0,8,06,56,06,00,3A,8C,06,00,
39920000,00000013,false,Rx,0,8,D8,E0,03,00,AA,D5,01,00,
39921298,00000014,false,Rx,0,4,29,06,EA,02,00,00,00,00,
39973302,00000011,false,Rx,0,8,30,14,00,00,D8,6C,00,00,
39974877,00000012,false,Rx,0,8,46,57,06,00,3A,8C,06,00,
39976477,00000013,false,Rx,0,8,79,E1,03,00,AA,D5,01,00,
39977746,00000014,false,Rx,0,4,2A,06,EA,02,00,00,00,00,
40029782,00000011,false,Rx,0,8,30,14,00,00,D8,6C,00,00,
40031407,00000012,false,Rx,0,8,46,57,06,00,3A,8C,06,00,
40032948,00000013,false,Rx,0,8,79,E1,03,00,AA,D5,01,00,
40034253,00000014,false,Rx,0,4,2A,06,EA,02,00,00,00,00,
40086278,00000011,false,Rx,0,8,34,14,00,00,D8,6C,00,00,
40087874,00000012,false,Rx,0,8,86,58,06,00,3A,8C,06,00,
40089447,00000013,false,Rx,0,8,1A,E2,03,00,AA,D5,01,00,
40090724,00000014,false,Rx,0,4,2B,06,EA,02,00,00,00,00,
40142722,00000011,false,Rx,0,8,30,14,00,00,D8,6C,00,00,
40144548,00000012,false,Rx,0,8,46,57,06,00,3A,8C,06,00,
40146191,00000013,false,Rx,0,8,79,E1,03,00,AA,D5,01,00,
40147472,00000014,false,Rx,0,4,2A,06,EA,02,00,00,00,00,
40199400,00000011,false,Rx,0,8,34,14,00,00,14,6D,00,00,
40200888,00000012,false,Rx,0,8,86,58,06,00,D2,8F,06,00,
40202395,00000013,false,Rx,0,8,1A,E2,03,00,4B,D6,01,00,
40203705,00000014,false,Rx,0,4,2B,06,EB,02,00,00,00,00,
40255755,00000011,false,Rx,0,8,34,14,00,00,D8,6C,00,00,
40257381,00000012,false,Rx,0,8,86,58,06,00,3A,8C,06,00,
40258917,00000013,false,Rx,0,8,1A,E2,03,00,AA,D5,01,00,
40260246,00000014,false,Rx,0,4,2B,06,EA,02,00,00,00,00,
40312518,00000011,false,Rx,0,8,34,14,00,00,9C,6C,00,00,
40313878,00000012,false,Rx,0,8,86,58,06,00,A3,88,06,00,
40315469,00000013,false,Rx,0,8,1A,E2,03,00,09,D5,01,00,
40316728,00000014,false,Rx,0,4,2B,06,E9,02,00,00,00,00,
40368781,00000011,false,Rx,0,8,34,14,00,00,D8,6C,00,00,
40370411,00000012,false,Rx,0,8,86,58,06,00,3A,8C,06,00,
40371984,00000013,false,Rx,0,8,1A,E2,03,00,AA,D5,01,00,
40373252,00000014,false,Rx,0,4,2B,06,EA,02,00,00,00,00,
40425286,00000011,false,Rx,0,8,34,14,00,00,D8,6C,00,00,
40426900,00000012,false,Rx,0,8,86,58,06,00,3A,8C,06,00,
40428723,00000013,false,Rx,0,8,1A,E2,03,00,AA,D5,01,00,
40429774,00000014,false,Rx,0,4,2B,06,EA,02,00,00,00,00,
40481806,00000011,false,Rx,0,8,38,14,00,00,D8,6C,00,00,
40483393,00000012,false,Rx,0,8,C6,59,06,00,3A,8C,06,00,
40484976,00000013,false,Rx,0,8,BC,E2,03,00,AA,D5,01,00,
40486276,00000014,false,Rx,0,4,2C,06,EA,02,00,00,00,00,
40538311,00000011,false,Rx,0,8,34,14,00,00,D8,6C,00,00,
40539900,00000012,false,Rx,0,8,86,58,06,00,3A,8C,06,00,
40541481,00000013,false,Rx,0,8,1A,E2,03,00,AA,D5,01,00,
40542743,00000014,false,Rx,0,4,2B,06,EA,02,00,00,00,00,
40594827,00000011,false,Rx,0,8,34,14,00,00,D8,6C,00,00,
40596669,00000012,false,Rx,0,8,86,58,06,00,3A,8C,06,00,
40598221,00000013,false,Rx,0,8,1A,E2,03,00,AA,D5,01,00,
40599525,00000014,false,Rx,0,4,2B,06,EA,02,00,00,00,00,
40651331,00000011,false,Rx,0,8,F6,12,00,00,D8,6C,00,00,
40652913,00000012,false,Rx,0,8,89,F4,05,00,3A,8C,06,00,
40654510,00000013,false,Rx,0,8,BD,AF,03,00,AA,D5,01,00,
40655779,00000014,false,Rx,0,4,DB,05,EA,02,00,00,00,00,
40707798,00000011,false,Rx,0,8,FE,12,00,00,31,5A,00,00,
40709397,00000012,false,Rx,0,8,09,F7,05,00,F4,6C,05,00,
40710982,00000013,false,Rx,0,8,FF,B0,03,00,4C,A3,01,00,
40712266,00000014,false,Rx,0,4,DD,05,9A,02,00,00,00,00,
40764276,00000011,false,Rx,0,8,45,13,00,00,E9,3E,00,00,
40766116,00000012,false,Rx,0,8,88,0D,06,00,D1,C8,03,00,
40767472,00000013,false,Rx,0,8,54,BC,03,00,A3,59,01,00,
40768731,00000014,false,Rx,0,4,EF,05,25,02,00,00,00,00,
40820704,00000011,false,Rx,0,8,6D,13,00,00,17,2B,00,00,
40822366,00000012,false,Rx,0,8,08,1A,06,00,96,97,02,00,
40823914,00000013,false,Rx,0,8,A0,C2,03,00,1F,24,01,00,
40825212,00000014,false,Rx,0,4,F9,05,D0,01,00,00,00,00,
40877200,00000011,false,Rx,0,8,8D,13,00,00,A2,1C,00,00,
40878827,00000012,false,Rx,0,8,07,24,06,00,F3,B8,01,00,
40880539,00000013,false,Rx,0,8,A9,C7,03,00,17,FD,00,00,
40881685,00000014,false,Rx,0,4,01,06,92,01,00,00,00,00,
40933640,00000011,false,Rx,0,8,A1,13,00,00,F9,10,00,00,
40935230,00000012,false,Rx,0,8,47,2A,06,00,67,05,01,00,
40936839,00000013,false,Rx,0,8,CF,CA,03,00,9C,DD,00,00,
40938155,00000014,false,Rx,0,4,06,06,60,01,00,00,00,00,
40990098,00000011,false,Rx,0,8,AD,13,00,00,D0,08,00,00,
40991685,00000012,false,Rx,0,8,07,2E,06,00,B8,87,00,00,
40993262,00000013,false,Rx,0,8,B3,CC,03,00,93,C7,00,00,
40994529,00000014,false,Rx,0,4,09,06,3D,01,00,00,00,00,
41046564,00000011,false,Rx,0,8,B5,13,00,00,26,04,00,00,
41048151,00000012,false,Rx,0,8,87,30,06,00,E6,3F,00,00,
41049711,00000013,false,Rx,0,8,F5,CD,03,00,FC,BA,00,00,
41050980,00000014,false,Rx,0,4,0B,06,29,01,00,00,00,00,
41102956,00000011,false,Rx,0,8,C1,13,00,00,48,02,00,00,
41104577,00000012,false,Rx,0,8,47,34,06,00,2C,23,00,00,
41106154,00000013,false,Rx,0,8,D8,CF,03,00,F2,B5,00,00,
41107422,00000014,false,Rx,0,4,0E,06,21,01,00,00,00,00,
41159433,00000011,false,Rx,0,8,C9,13,00,00,0D,02,00,00,
41161001,00000012,false,Rx,0,8,C7,36,06,00,95,1F,00,00,
41162626,00000013,false,Rx,0,8,1B,D1,03,00,51,B5,00,00,
41163925,00000014,false,Rx,0,4,10,06,20,01,00,00,00,00,
41216139,00000011,false,Rx,0,8,D1,13,00,00,0D,02,00,00,
41217461,00000012,false,Rx,0,8,47,39,06,00,95,1F,00,00,
41219072,00000013,false,Rx,0,8,5D,D2,03,00,51,B5,00,00,
41220325,00000014,false,Rx,0,4,12,06,20,01,00,00,00,00,
41272338,00000011,false,Rx,0,8,D5,13,00,00,A6,00,00,00,
41273930,00000012,false,Rx,0,8,87,3A,06,00,09,0A,00,00,
41275474,00000013,false,Rx,0,8,FE,D2,03,00,8A,B1,00,00,
41276776,00000014,false,Rx,0,4,13,06,1A,01,00,00,00,00,
41329049,00000011,false,Rx,0,8,D9,13,00,00,0D,02,00,00,
41330402,00000012,false,Rx,0,8,C7,3B,06,00,95,1F,00,00,
41331956,00000013,false,Rx,0,8,9F,D3,03,00,51,B5,00,00,
41333224,00000014,false,Rx,0,4,14,06,20,01,00,00,00,00,
41385209,00000011,false,Rx,0,8,DD,13,00,00,D1,01,00,00,
41386828,00000012,false,Rx,0,8,07,3D,06,00,FE,1B,00,00,
41388396,00000013,false,Rx,0,8,41,D4,03,00,B0,B4,00,00,
41389705,00000014,false,Rx,0,4,15,06,1F,01,00,00,00,00,
41441692,00000011,false,Rx,0,8,E1,13,00,00,95,01,00,00,
41443278,00000012,false,Rx,0,8,47,3E,06,00,66,18,00,00,
41445132,00000013,false,Rx,0,8,E2,D4,03,00,0F,B4,00,00,
41446208,00000014,false,Rx,0,4,16,06,1E,01,00,00,00,00,
41498406,00000011,false,Rx,0,8,E5,13,00,00,59,01,00,00,
41499770,00000012,false,Rx,0,8,86,3F,06,00,CF,14,00,00,
41501341,00000013,false,Rx,0,8,83,D5,03,00,6E,B3,00,00,
41502634,00000014,false,Rx,0,4,17,06,1D,01,00,00,00,00,
41554640,00000011,false,Rx,0,8,EC,13,00,00,59,01,00,00,
41556257,00000012,false,Rx,0,8,06,42,06,00,CF,14,00,00,
41557775,00000013,false,Rx,0,8,C5,D6,03,00,6E,B3,00,00,
41559109,00000014,false,Rx,0,4,19,06,1D,01,00,00,00,00,
41611160,00000011,false,Rx,0,8,F0,13,00,00,95,01,00,00,
41612701,00000012,false,Rx,0,8,46,43,06,00,66,18,00,00,
41614275,00000013,false,Rx,0,8,66,D7,03,00,0F,B4,00,00,
41615573,00000014,false,Rx,0,4,1A,06,1E,01,00,00,00,00,
41667587,00000011,false,Rx,0,8,F0,13,00,00,95,01,00,00,
41669183,00000012,false,Rx,0,8,46,43,06,00,66,18,00,00,
41670757,00000013,false,Rx,0,8,66,D7,03,00,0F,B4,00,00,
41672052,00000014,false,Rx,0,4,1A,06,1E,01,00,00,00,00,
41724111,00000011,false,Rx,0,8,F8,13,00,00,59,01,00,00,
41725754,00000012,false,Rx,0,8,C6,45,06,00,CF,14,00,00,
41727455,00000013,false,Rx,0,8,A9,D8,03,00,6E,B3,00,00,
41728831,00000014,false,Rx,0,4,1C,06,1D,01,00,00,00,00,
41780829,00000011,false,Rx,0,8,FC,13,00,00,59,01,00,00,
41782453,00000012,false,Rx,0,8,06,47,06,00,CF,14,00,00,
41783802,00000013,false,Rx,0,8,4A,D9,03,00,6E,B3,00,00,
41785032,00000014,false,Rx,0,4,1D,06,1D,01,00,00,00,00,
41837089,00000011,false,Rx,0,8,FC,13,00,00,95,01,00,00,
41838680,00000012,false,Rx,0,8,06,47,06,00,66,18,00,00,
41840257,00000013,false,Rx,0,8,4A,D9,03,00,0F,B4,00,00,
41841558,00000014,false,Rx,0,4,1D,06,1E,01,00,00,00,00,
41893641,00000011,false,Rx,0,8,04,14,00,00,95,01,00,00,
41895207,00000012,false,Rx,0,8,86,49,06,00,66,18,00,00,
41896900,00000013,false,Rx,0,8,8C,DA,03,00,0F,B4,00,00,
41898129,00000014,false,Rx,0,4,1F,06,1E,01,00,00,00,00,
41950063,00000011,false,Rx,0,8,04,14,00,00,59,01,00,00,
41951655,00000012,false,Rx,0,8,86,49,06,00,CF,14,00,00,
41953239,00000013,false,Rx,0,8,8C,DA,03,00,6E,B3,00,00,
41954530,00000014,false,Rx,0,4,1F,06,1D,01,00,00,00,00,
42006565,00000011,false,Rx,0,8,0C,14,00,00,95,01,00,00,
42008184,00000012,false,Rx,0,8,06,4C,06,00,66,18,00,00,
42009750,00000013,false,Rx,0,8,CF,DB,03,00,0F,B4,00,00,
42011080,00000014,false,Rx,0,4,21,06,1E,01,00,00,00,00,
42063091,00000011,false,Rx,0,8,0C,14,00,00,59,01,00,00,
42064860,00000012,false,Rx,0,8,06,4C,06,00,CF,14,00,00,
42066216,00000013,false,Rx,0,8,CF,DB,03,00,6E,B3,00,00,
42067548,00000014,false,Rx,0,4,21,06,1D,01,00,00,00,00,
42119570,00000011,false,Rx,0,8,08,14,00,00,59,01,00,00,
42121167,00000012,false,Rx,0,8,C6,4A,06,00,CF,14,00,00,
42122734,00000013,false,Rx,0,8,2D,DB,03,00,6E,B3,00,00,
42124004,00000014,false,Rx,0,4,20,06,1D,01,00,00,00,00,
42176049,00000011,false,Rx,0,8,0C,14,00,00,59,01,00,00,
42177636,00000012,false,Rx,0,8,06,4C,06,00,CF,14,00,00,
42179232,00000013,false,Rx,0,8,CF,DB,03,00,6E,B3,00,00,
42180755,00000014,false,Rx,0,4,21,06,1D,01,00,00,00,00,
42232683,00000011,false,Rx,0,8,14,14,00,00,59,01,00,00,
42234142,00000012,false,Rx,0,8,86,4E,06,00,CF,14,00,00,
42235724,00000013,false,Rx,0,8,11,DD,03,00,6E,B3,00,00,
42237013,00000014,false,Rx,0,4,23,06,1D,01,00,00,00,00,
42289019,00000011,false,Rx,0,8,14,14,00,00,95,01,00,00,
42290641,00000012,false,Rx,0,8,86,4E,06,00,66,18,00,00,
42292212,00000013,false,Rx,0,8,11,DD,03,00,0F,B4,00,00,
42293456,00000014,false,Rx,0,4,23,06,1E,01,00,00,00,00,
42345519,00000011,false,Rx,0,8,14,14,00,00,59,01,00,00,
42347134,00000012,false,Rx,0,8,86,4E,06,00,CF,14,00,00,
42348863,00000013,false,Rx,0,8,11,DD,03,00,6E,B3,00,00,
42349996,00000014,false,Rx,0,4,23,06,1D,01,00,00,00,00,
42402001,00000011,false,Rx,0,8,14,14,00,00,59,01,00,00,
42403589,00000012,false,Rx,0,8,86,4E,06,00,CF,14,00,00,
42405155,00000013,false,Rx,0,8,11,DD,03,00,6E,B3,00,00,
42406446,00000014,false,Rx,0,4,23,06,1D,01,00,00,00,00,
42458453,00000011,false,Rx,0,8,18,14,00,00,59,01,00,00,
42460081,00000012,false,Rx,0,8,C6,4F,06,00,CF,14,00,00,
42461647,00000013,false,Rx,0,8,B2,DD,03,00,6E,B3,00,00,
42462942,00000014,false,Rx,0,4,24,06,1D,01,00,00,00,00,
42514927,00000011,false,Rx,0,8,1C,14,00,00,59,01,00,00,
42516499,00000012,false,Rx,0,8,06,51,06,00,CF,14,00,00,
42518067,00000013,false,Rx,0,8,53,DE,03,00,6E,B3,00,00,
42519340,00000014,false,Rx,0,4,25,06,1D,01,00,00,00,00,
42571345,00000011,false,Rx,0,8,1C,14,00,00,95,01,00,00,
42572936,00000012,false,Rx,0,8,06,51,06,00,66,18,00,00,
42574509,00000013,false,Rx,0,8,53,DE,03,00,0F,B4,00,00,
42575819,00000014,false,Rx,0,4,25,06,1E,01,00,00,00,00,
42627823,00000011,false,Rx,0,8,20,14,00,00,59,01,00,00,
42629453,00000012,false,Rx,0,8,46,52,06,00,CF,14,00,00,
42631030,00000013,false,Rx,0,8,F4,DE,03,00,6E,B3,00,00,
42632297,00000014,false,Rx,0,4,26,06,1D,01,00,00,00,00,
42684275,00000011,false,Rx,0,8,24,14,00,00,59,01,00,00,
42685893,00000012,false,Rx,0,8,86,53,06,00,CF,14,00,00,
42687468,00000013,false,Rx,0,8,96,DF,03,00,6E,B3,00,00,
42688742,00000014,false,Rx,0,4,27,06,1D,01,00,00,00,00,
42740774,00000011,false,Rx,0,8,24,14,00,00,59,01,00,00,
42742561,00000012,false,Rx,0,8,86,53,06,00,CF,14,00,00,
42744195,00000013,false,Rx,0,8,96,DF,03,00,6E,B3,00,00,
42745236,00000014,false,Rx,0,4,27,06,1D,01,00,00,00,00,
42797247,00000011,false,Rx,0,8,24,14,00,00,59,01,00,00,
42798812,00000012,false,Rx,0,8,86,53,06,00,CF,14,00,00,
42800416,00000013,false,Rx,0,8,96,DF,03,00,6E,B3,00,00,
42801719,00000014,false,Rx,0,4,27,06,1D,01,00,00,00,00,
42853752,00000011,false,Rx,0,8,24,14,00,00,59,01,00,00,
42855358,00000012,false,Rx,0,8,86,53,06,00,CF,14,00,00,
42856906,00000013,false,Rx,0,8,96,DF,03,00,6E,B3,00,00,
42858207,00000014,false,Rx,0,4,27,06,1D,01,00,00,00,00,
42910214,00000011,false,Rx,0,8,2C,14,00,00,59,01,00,00,
42911804,00000012,false,Rx,0,8,06,56,06,00,CF,14,00,00,
42913358,00000013,false,Rx,0,8,D8,E0,03,00,6E,B3,00,00,
42914659,00000014,false,Rx,0,4,29,06,1D,01,00,00,00,00,
42966673,00000011,false,Rx,0,8,28,14,00,00,59,01,00,00,
42968258,00000012,false,Rx,0,8,C6,54,06,00,CF,14,00,00,
42969802,00000013,false,Rx,0,8,37,E0,03,00,6E,B3,00,00,
42971074,00000014,false,Rx,0,4,28,06,1D,01,00,00,00,00,
43023042,00000011,false,Rx,0,8,2C,14,00,00,59,01,00,00,
43024678,00000012,false,Rx,0,8,06,56,06,00,CF,14,00,00,
43026243,00000013,false,Rx,0,8,D8,E0,03,00,6E,B3,00,00,
43027563,00000014,false,Rx,0,4,29,06,1D,01,00,00,00,00,
43079513,00000011,false,Rx,0,8,2C,14,00,00,59,01,00,00,
43081131,00000012,false,Rx,0,8,06,56,06,00,CF,14,00,00,
43082706,00000013,false,Rx,0,8,D8,E0,03,00,6E,B3,00,00,
43083941,00000014,false,Rx,0,4,29,06,1D,01,00,00,00,00,
43135927,00000011,false,Rx,0,8,30,14,00,00,59,01,00,00,
43137597,00000012,false,Rx,0,8,46,57,06,00,CF,14,00,00,
43139133,00000013,false,Rx,0,8,79,E1,03,00,6E,B3,00,00,
43140459,00000014,false,Rx,0,4,2A,06,1D,01,00,00,00,00,
43192469,00000011,false,Rx,0,8,30,14,00,00,59,01,00,00,
43194050,00000012,false,Rx,0,8,46,57,06,00,CF,14,00,00,
43195612,00000013,false,Rx,0,8,79,E1,03,00,6E,B3,00,00,
43196910,00000014,false,Rx,0,4,2A,06,1D,01,00,00,00,00,
43248966,00000011,false,Rx,0,8,34,14,00,00,59,01,00,00,
43250473,00000012,false,Rx,0,8,86,58,06,00,CF,14,00,00,
43252048,00000013,false,Rx,0,8,1A,E2,03,00,6E,B3,00,00,
43253348,00000014,false,Rx,0,4,2B,06,1D,01,00,00,00,00,
43305372,00000011,false,Rx,0,8,34,14,00,00,59,01,00,00,
43306967,00000012,false,Rx,0,8,86,58,06,00,CF,14,00,00,
43308537,00000013,false,Rx,0,8,1A,E2,03,00,6E,B3,00,00,
43309846,00000014,false,Rx,0,4,2B,06,1D,01,00,00,00,00,
43361842,00000011,false,Rx,0,8,34,14,00,00,59,01,00,00,
43363424,00000012,false,Rx,0,8,86,58,06,00,CF,14,00,00,
43364988,00000013,false,Rx,0,8,1A,E2,03,00,6E,B3,00,00,
43366287,00000014,false,Rx,0,4,2B,06,1D,01,00,00,00,00,
43418222,00000011,false,Rx,0,8,34,14,00,00,1E,01,00,00,
43419843,00000012,false,Rx,0,8,86,58,06,00,38,11,00,00,
43421445,00000013,false,Rx,0,8,1A,E2,03,00,CC,B2,00,00,
43422717,00000014,false,Rx,0,4,2B,06,1C,01,00,00,00,00,
43474716,00000011,false,Rx,0,8,3C,14,00,00,59,01,00,00,
43476333,00000012,false,Rx,0,8,06,5B,06,00,CF,14,00,00,
43477889,00000013,false,Rx,0,8,5D,E3,03,00,6E,B3,00,00,
43479212,00000014,false,Rx,0,4,2D,06,1D,01,00,00,00,00,
43531173,00000011,false,Rx,0,8,3C,14,00,00,59,01,00,00,
43532755,00000012,false,Rx,0,8,06,5B,06,00,CF,14,00,00,
43534317,00000013,false,Rx,0,8,5D,E3,03,00,6E,B3,00,00,
43535628,00000014,false,Rx,0,4,2D,06,1D,01,00,00,00,00,
43587567,00000011,false,Rx,0,8,85,13,00,00,59,01,00,00,
43589191,00000012,false,Rx,0,8,87,21,06,00,CF,14,00,00,
43590952,00000013,false,Rx,0,8,67,C6,03,00,6E,B3,00,00,
43592068,00000014,false,Rx,0,4,FF,05,1D,01,00,00,00,00,
43644072,00000011,false,Rx,0,8,51,10,00,00,90,51,00,00,
43645650,00000012,false,Rx,0,8,10,20,05,00,17,E8,04,00,
43647217,00000013,false,Rx,0,8,B5,44,03,00,01,8C,01,00,
43648537,00000014,false,Rx,0,4,31,05,75,02,00,00,00,00,
43700524,00000011,false,Rx,0,8,24,14,00,00,35,72,00,00,
43702094,00000012,false,Rx,0,8,86,53,06,00,D2,DE,06,00,
43703696,00000013,false,Rx,0,8,96,DF,03,00,25,E4,01,00,
43704998,00000014,false,Rx,0,4,27,06,01,03,00,00,00,00,
43756981,00000011,false,Rx,0,8,64,14,00,00,82,71,00,00,
43758588,00000012,false,Rx,0,8,85,67,06,00,0C,D4,06,00,
43760164,00000013,false,Rx,0,8,A8,E9,03,00,41,E2,01,00,
43761419,00000014,false,Rx,0,4,37,06,FE,02,00,00,00,00,
43813433,00000011,false,Rx,0,8,3C,14,00,00,CF,70,00,00,
43815012,00000012,false,Rx,0,8,06,5B,06,00,46,C9,06,00,
43816580,00000013,false,Rx,0,8,5D,E3,03,00,5E,E0,01,00,
43817872,00000014,false,Rx,0,4,2D,06,FB,02,00,00,00,00,
43869840,00000011,false,Rx,0,8,28,14,00,00,58,70,00,00,
43871431,00000012,false,Rx,0,8,C6,54,06,00,18,C2,06,00,
43873031,00000013,false,Rx,0,8,37,E0,03,00,1C,DF,01,00,
43874304,00000014,false,Rx,0,4,28,06,F9,02,00,00,00,00,
43926442,00000011,false,Rx,0,8,1C,14,00,00,1C,70,00,00,
43927921,00000012,false,Rx,0,8,06,51,06,00,80,BE,06,00,
43929501,00000013,false,Rx,0,8,53,DE,03,00,7A,DE,01,00,
43930812,00000014,false,Rx,0,4,25,06,F8,02,00,00,00,00,
43982767,00000011,false,Rx,0,8,10,14,00,00,E0,6F,00,00,
43984324,00000012,false,Rx,0,8,46,4D,06,00,E9,BA,06,00,
43985924,00000013,false,Rx,0,8,70,DC,03,00,D9,DD,01,00,
43987220,00000014,false,Rx,0,4,22,06,F7,02,00,00,00,00,
44039224,00000011,false,Rx,0,8,0C,14,00,00,A4,6F,00,00,
44040815,00000012,false,Rx,0,8,06,4C,06,00,52,B7,06,00,
44042390,00000013,false,Rx,0,8,CF,DB,03,00,38,DD,01,00,
44043695,00000014,false,Rx,0,4,21,06,F6,02,00,00,00,00,
44095708,00000011,false,Rx,0,8,04,14,00,00,A4,6F,00,00,
44097266,00000012,false,Rx,0,8,86,49,06,00,52,B7,06,00,
44098812,00000013,false,Rx,0,8,8C,DA,03,00,38,DD,01,00,
44100112,00000014,false,Rx,0,4,1F,06,F6,02,00,00,00,00,
44152073,00000011,false,Rx,0,8,00,14,00,00,A4,6F,00,00,
44153677,00000012,false,Rx,0,8,46,48,06,00,52,B7,06,00,
44155250,00000013,false,Rx,0,8,EB,D9,03,00,38,DD,01,00,
44156521,00000014,false,Rx,0,4,1E,06,F6,02,00,00,00,00,
44208524,00000011,false,Rx,0,8,FC,13,00,00,69,6F,00,00,
44210159,00000012,false,Rx,0,8,06,47,06,00,BA,B3,06,00,
44211709,00000013,false,Rx,0,8,4A,D9,03,00,97,DC,01,00,
44213012,00000014,false,Rx,0,4,1D,06,F5,02,00,00,00,00,
44264992,00000011,false,Rx,0,8,F8,13,00,00,2D,6F,00,00,
44266607,00000012,false,Rx,0,8,C6,45,06,00,23,B0,06,00,
44268188,00000013,false,Rx,0,8,A9,D8,03,00,F6,DB,01,00,
44269462,00000014,false,Rx,0,4,1C,06,F4,02,00,00,00,00,
44321480,00000011,false,Rx,0,8,FC,13,00,00,2D,6F,00,00,
44323054,00000012,false,Rx,0,8,06,47,06,00,23,B0,06,00,
44324632,00000013,false,Rx,0,8,4A,D9,03,00,F6,DB,01,00,
44325933,00000014,false,Rx,0,4,1D,06,F4,02,00,00,00,00,
44377888,00000011,false,Rx,0,8,FC,13,00,00,F1,6E,00,00,
44379496,00000012,false,Rx,0,8,06,47,06,00,8C,AC,06,00,
44381040,00000013,false,Rx,0,8,4A,D9,03,00,54,DB,01,00,
44382296,00000014,false,Rx,0,4,1D,06,F3,02,00,00,00,00,
44434308,00000011,false,Rx,0,8,FC,13,00,00,F1,6E,00,00,
44435902,00000012,false,Rx,0,8,06,47,06,00,8C,AC,06,00,
44437474,00000013,false,Rx,0,8,4A,D9,03,00,54,DB,01,00,
44438774,00000014,false,Rx,0,4,1D,06,F3,02,00,00,00,00,
44490741,00000011,false,Rx,0,8,F8,13,00,00,B6,6E,00,00,
44492334,00000012,false,Rx,0,8,C6,45,06,00,F5,A8,06,00,
44493906,00000013,false,Rx,0,8,A9,D8,03,00,B3,DA,01,00,
44495203,00000014,false,Rx,0,4,1C,06,F2,02,00,00,00,00,
44547138,00000011,false,Rx,0,8,F4,13,00,00,B6,6E,00,00,
44548789,00000012,false,Rx,0,8,86,44,06,00,F5,A8,06,00,
44550337,00000013,false,Rx,0,8,08,D8,03,00,B3,DA,01,00,
44551609,00000014,false,Rx,0,4,1B,06,F2,02,00,00,00,00,
44603604,00000011,false,Rx,0,8,F4,13,00,00,B6,6E,00,00,
44605200,00000012,false,Rx,0,8,86,44,06,00,F5,A8,06,00,
44606749,00000013,false,Rx,0,8,08,D8,03,00,B3,DA,01,00,
44608081,00000014,false,Rx,0,4,1B,06,F2,02,00,00,00,00,
44660034,00000011,false,Rx,0,8,F4,13,00,00,B6,6E,00,00,
44661644,00000012,false,Rx,0,8,86,44,06,00,F5,A8,06,00,
44663222,00000013,false,Rx,0,8,08,D8,03,00,B3,DA,01,00,
44664494,00000014,false,Rx,0,4,1B,06,F2,02,00,00,00,00,
44716473,00000011,false,Rx,0,8,F4,13,00,00,B6,6E,00,00,
44718052,00000012,false,Rx,0,8,86,44,06,00,F5,A8,06,00,
44719627,00000013,false,Rx,0,8,08,D8,03,00,B3,DA,01,00,
44720926,00000014,false,Rx,0,4,1B,06,F2,02,00,00,00,00,
44772905,00000011,false,Rx,0,8,FC,13,00,00,7A,6E,00,00,
44774520,00000012,false,Rx,0,8,06,47,06,00,5D,A5,06,00,
44776100,00000013,false,Rx,0,8,4A,D9,03,00,12,DA,01,00,
44777406,00000014,false,Rx,0,4,1D,06,F1,02,00,00,00,00,
44829309,00000011,false,Rx,0,8,F4,13,00,00,7A,6E,00,00,
44830971,00000012,false,Rx,0,8,86,44,06,00,5D,A5,06,00,
44832542,00000013,false,Rx,0,8,08,D8,03,00,12,DA,01,00,
44833817,00000014,false,Rx,0,4,1B,06,F1,02,00,00,00,00,
44885842,00000011,false,Rx,0,8,F8,13,00,00,3E,6E,00,00,
44887392,00000012,false,Rx,0,8,C6,45,06,00,C6,A1,06,00,
44888980,00000013,false,Rx,0,8,A9,D8,03,00,71,D9,01,00,
44890281,00000014,false,Rx,0,4,1C,06,F0,02,00,00,00,00,
44942284,00000011,false,Rx,0,8,F4,13,00,00,7A,6E,00,00,
44943885,00000012,false,Rx,0,8,86,44,06,00,5D,A5,06,00,
44945488,00000013,false,Rx,0,8,08,D8,03,00,12,DA,01,00,
44946955,00000014,false,Rx,0,4,1B,06,F1,02,00,00,00,00,
44998670,00000011,false,Rx,0,8,F4,13,00,00,3E,6E,00,00,
45000261,00000012,false,Rx,0,8,86,44,06,00,C6,A1,06,00,
45001835,00000013,false,Rx,0,8,08,D8,03,00,71,D9,01,00,
45003134,00000014,false,Rx,0,4,1B,06,F0,02,00,00,00,00,
45055156,00000011,false,Rx,0,8,F8,13,00,00,3E,6E,00,00,
45056773,00000012,false,Rx,0,8,C6,45,06,00,C6,A1,06,00,
45058349,00000013,false,Rx,0,8,A9,D8,03,00,71,D9,01,00,
45059654,00000014,false,Rx,0,4,1C,06,F0,02,00,00,00,00,
45111627,00000011,false,Rx,0,8,FC,13,00,00,03,6E,00,00,
45113209,00000012,false,Rx,0,8,06,47,06,00,2F,9E,06,00,
45114781,00000013,false,Rx,0,8,4A,D9,03,00,D0,D8,01,00,
45116100,00000014,false,Rx,0,4,1D,06,EF,02,00,00,00,00,
45168056,00000011,false,Rx,0,8,F8,13,00,00,03,6E,00,00,
45169675,00000012,false,Rx,0,8,C6,45,06,00,2F,9E,06,00,
45171224,00000013,false,Rx,0,8,A9,D8,03,00,D0,D8,01,00,
45172509,00000014,false,Rx,0,4,1C,06,EF,02,00,00,00,00,
45224557,00000011,false,Rx,0,8,FC,13,00,00,03,6E,00,00,
45226160,00000012,false,Rx,0,8,06,47,06,00,2F,9E,06,00,
45227739,00000013,false,Rx,0,8,4A,D9,03,00,D0,D8,01,00,
45229026,00000014,false,Rx,0,4,1D,06,EF,02,00,00,00,00,
45280998,00000011,false,Rx,0,8,FC,13,00,00,03,6E,00,00,
45282633,00000012,false,Rx,0,8,06,47,06,00,2F,9E,06,00,
45284204,00000013,false,Rx,0,8,4A,D9,03,00,D0,D8,01,00,
45285510,00000014,false,Rx,0,4,1D,06,EF,02,00,00,00,00,
45337495,00000011,false,Rx,0,8,FC,13,00,00,03,6E,00,00,
45339077,00000012,false,Rx,0,8,06,47,06,00,2F,9E,06,00,
45340799,00000013,false,Rx,0,8,4A,D9,03,00,D0,D8,01,00,
45341959,00000014,false,Rx,0,4,1D,06,EF,02,00,00,00,00,
45393991,00000011,false,Rx,0,8,00,14,00,00,03,6E,00,00,
45395605,00000012,false,Rx,0,8,46,48,06,00,2F,9E,06,00,
45397188,00000013,false,Rx,0,8,EB,D9,03,00,D0,D8,01,00,
45398469,00000014,false,Rx,0,4,1E,06,EF,02,00,00,00,00,
45450444,00000011,false,Rx,0,8,00,14,00,00,03,6E,00,00,
45452045,00000012,false,Rx,0,8,46,48,06,00,2F,9E,06,00,
45453621,00000013,false,Rx,0,8,EB,D9,03,00,D0,D8,01,00,
45454917,00000014,false,Rx,0,4,1E,06,EF,02,00,00,00,00,
45506938,00000011,false,Rx,0,8,00,14,00,00,7A,6E,00,00,
45508551,00000012,false,Rx,0,8,46,48,06,00,5D,A5,06,00,
45510130,00000013,false,Rx,0,8,EB,D9,03,00,12,DA,01,00,
45511429,00000014,false,Rx,0,4,1E,06,F1,02,00,00,00,00,
45563430,00000011,false,Rx,0,8,00,14,00,00,03,6E,00,00,
45565027,00000012,false,Rx,0,8,46,48,06,00,2F,9E,06,00,
45566546,00000013,false,Rx,0,8,EB,D9,03,00,D0,D8,01,00,
45567844,00000014,false,Rx,0,4,1E,06,EF,02,00,00,00,00,
45619863,00000011,false,Rx,0,8,04,14,00,00,C7,6D,00,00,
45621464,00000012,false,Rx,0,8,86,49,06,00,98,9A,06,00,
45623062,00000013,false,Rx,0,8,8C,DA,03,00,2F,D8,01,00,
45624513,00000014,false,Rx,0,4,1F,06,EE,02,00,00,00,00,
45676362,00000011,false,Rx,0,8,04,14,00,00,C7,6D,00,00,
45677966,00000012,false,Rx,0,8,86,49,06,00,98,9A,06,00,
45679560,00000013,false,Rx,0,8,8C,DA,03,00,2F,D8,01,00,
45681058,00000014,false,Rx,0,4,1F,06,EE,02,00,00,00,00,
45732804,00000011,false,Rx,0,8,08,14,00,00,03,6E,00,00,
45734443,00000012,false,Rx,0,8,C6,4A,06,00,2F,9E,06,00,
45735964,00000013,false,Rx,0,8,2D,DB,03,00,D0,D8,01,00,
45737263,00000014,false,Rx,0,4,20,06,EF,02,00,00,00,00,
45789310,00000011,false,Rx,0,8,08,14,00,00,C7,6D,00,00,
45790899,00000012,false,Rx,0,8,C6,4A,06,00,98,9A,06,00,
45792444,00000013,false,Rx,0,8,2D,DB,03,00,2F,D8,01,00,
45793752,00000014,false,Rx,0,4,20,06,EE,02,00,00,00,00,
45845777,00000011,false,Rx,0,8,08,14,00,00,C7,6D,00,00,
45847391,00000012,false,Rx,0,8,C6,4A,06,00,98,9A,06,00,
45848922,00000013,false,Rx,0,8,2D,DB,03,00,2F,D8,01,00,
45850215,00000014,false,Rx,0,4,20,06,EE,02,00,00,00,00,
45902267,00000011,false,Rx,0,8,08,14,00,00,C7,6D,00,00,
45903852,00000012,false,Rx,0,8,C6,4A,06,00,98,9A,06,00,
45905425,00000013,false,Rx,0,8,2D,DB,03,00,2F,D8,01,00,
45906723,00000014,false,Rx,0,4,20,06,EE,02,00,00,00,00,
45958713,00000011,false,Rx,0,8,08,14,00,00,C7,6D,00,00,
45960329,00000012,false,Rx,0,8,C6,4A,06,00,98,9A,06,00,
45961924,00000013,false,Rx,0,8,2D,DB,03,00,2F,D8,01,00,
45963191,00000014,false,Rx,0,4,20,06,EE,02,00,00,00,00,
46015183,00000011,false,Rx,0,8,08,14,00,00,8B,6D,00,00,
46016761,00000012,false,Rx,0,8,C6,4A,06,00,00,97,06,00,
46018374,00000013,false,Rx,0,8,2D,DB,03,00,8D,D7,01,00,
46019672,00000014,false,Rx,0,4,20,06,ED,02,00,00,00,00,
46071698,00000011,false,Rx,0,8,0C,14,00,00,8B,6D,00,00,
46073306,00000012,false,Rx,0,8,06,4C,06,00,00,97,06,00,
46074889,00000013,false,Rx,0,8,CF,DB,03,00,8D,D7,01,00,
46076154,00000014,false,Rx,0,4,21,06,ED,02,00,00,00,00,
46128140,00000011,false,Rx,0,8,0C,14,00,00,C7,6D,00,00,
46129767,00000012,false,Rx,0,8,06,4C,06,00,98,9A,06,00,
46131342,00000013,false,Rx,0,8,CF,DB,03,00,2F,D8,01,00,
46132597,00000014,false,Rx,0,4,21,06,EE,02,00,00,00,00,
46184603,00000011,false,Rx,0,8,10,14,00,00,8B,6D,00,00,
46186219,00000012,false,Rx,0,8,46,4D,06,00,00,97,06,00,
46187805,00000013,false,Rx,0,8,70,DC,03,00,8D,D7,01,00,
46189085,00000014,false,Rx,0,4,22,06,ED,02,00,00,00,00,
46241089,00000011,false,Rx,0,8,10,14,00,00,8B,6D,00,00,
46242658,00000012,false,Rx,0,8,46,4D,06,00,00,97,06,00,
46244231,00000013,false,Rx,0,8,70,DC,03,00,8D,D7,01,00,
46245531,00000014,false,Rx,0,4,22,06,ED,02,00,00,00,00,
46297530,00000011,false,Rx,0,8,10,14,00,00,C7,6D,00,00,
46299099,00000012,false,Rx,0,8,46,4D,06,00,98,9A,06,00,
46300721,00000013,false,Rx,0,8,70,DC,03,00,2F,D8,01,00,
46301943,00000014,false,Rx,0,4,22,06,EE,02,00,00,00,00,
46353990,00000011,false,Rx,0,8,14,14,00,00,8B,6D,00,00,
46355583,00000012,false,Rx,0,8,86,4E,06,00,00,97,06,00,
46357147,00000013,false,Rx,0,8,11,DD,03,00,8D,D7,01,00,
46358438,00000014,false,Rx,0,4,23,06,ED,02,00,00,00,00,
46410401,00000011,false,Rx,0,8,14,14,00,00,8B,6D,00,00,
46412046,00000012,false,Rx,0,8,86,4E,06,00,00,97,06,00,
46413618,00000013,false,Rx,0,8,11,DD,03,00,8D,D7,01,00,
46414837,00000014,false,Rx,0,4,23,06,ED,02,00,00,00,00,
46466860,00000011,false,Rx,0,8,14,14,00,00,8B,6D,00,00,
46468447,00000012,false,Rx,0,8,86,4E,06,00,00,97,06,00,
46470000,00000013,false,Rx,0,8,11,DD,03,00,8D,D7,01,00,
46471337,00000014,false,Rx,0,4,23,06,ED,02,00,00,00,00,
46523318,00000011,false,Rx,0,8,18,14,00,00,4F,6D,00,00,
46524910,00000012,false,Rx,0,8,C6,4F,06,00,69,93,06,00,
46526495,00000013,false,Rx,0,8,B2,DD,03,00,EC,D6,01,00,
46527784,00000014,false,Rx,0,4,24,06,EC,02,00,00,00,00,
46579726,00000011,false,Rx,0,8,14,14,00,00,8B,6D,00,00,
46581344,00000012,false,Rx,0,8,86,4E,06,00,00,97,06,00,
46582932,00000013,false,Rx,0,8,11,DD,03,00,8D,D7,01,00,
46584245,00000014,false,Rx,0,4,23,06,ED,02,00,00,00,00,
46636203,00000011,false,Rx,0,8,18,14,00,00,8B,6D,00,00,
46637841,00000012,false,Rx,0,8,C6,4F,06,00,00,97,06,00,
46639409,00000013,false,Rx,0,8,B2,DD,03,00,8D,D7,01,00,
46640711,00000014,false,Rx,0,4,24,06,ED,02,00,00,00,00,
46692705,00000011,false,Rx,0,8,18,14,00,00,8B,6D,00,00,
46694327,00000012,false,Rx,0,8,C6,4F,06,00,00,97,06,00,
46695857,00000013,false,Rx,0,8,B2,DD,03,00,8D,D7,01,00,
46697157,00000014,false,Rx,0,4,24,06,ED,02,00,00,00,00,
46749117,00000011,false,Rx,0,8,1C,14,00,00,8B,6D,00,00,
46750718,00000012,false,Rx,0,8,06,51,06,00,00,97,06,00,
46752300,00000013,false,Rx,0,8,53,DE,03,00,8D,D7,01,00,
46753603,00000014,false,Rx,0,4,25,06,ED,02,00,00,00,00,
46805621,00000011,false,Rx,0,8,1C,14,00,00,4F,6D,00,00,
46807235,00000012,false,Rx,0,8,06,51,06,00,69,93,06,00,
46808785,00000013,false,Rx,0,8,53,DE,03,00,EC,D6,01,00,
46810097,00000014,false,Rx,0,4,25,06,EC,02,00,00,00,00,
46862106,00000011,false,Rx,0,8,20,14,00,00,4F,6D,00,00,
46863725,00000012,false,Rx,0,8,46,52,06,00,69,93,06,00,
46865254,00000013,false,Rx,0,8,F4,DE,03,00,EC,D6,01,00,
46866563,00000014,false,Rx,0,4,26,06,EC,02,00,00,00,00,
46918580,00000011,false,Rx,0,8,1C,14,00,00,8B,6D,00,00,
46920193,00000012,false,Rx,0,8,06,51,06,00,00,97,06,00,
46921746,00000013,false,Rx,0,8,53,DE,03,00,8D,D7,01,00,
46923052,00000014,false,Rx,0,4,25,06,ED,02,00,00,00,00,
46975072,00000011,false,Rx,0,8,1C,14,00,00,4F,6D,00,00,
46976671,00000012,false,Rx,0,8,06,51,06,00,69,93,06,00,
46978203,00000013,false,Rx,0,8,53,DE,03,00,EC,D6,01,00,
46979547,00000014,false,Rx,0,4,25,06,EC,02,00,00,00,00,
47031533,00000011,false,Rx,0,8,20,14,00,00,4F,6D,00,00,
47033142,00000012,false,Rx,0,8,46,52,06,00,69,93,06,00,
47034712,00000013,false,Rx,0,8,F4,DE,03,00,EC,D6,01,00,
47036012,00000014,false,Rx,0,4,26,06,EC,02,00,00,00,00,
47088020,00000011,false,Rx,0,8,20,14,00,00,4F,6D,00,00,
47089593,00000012,false,Rx,0,8,46,52,06,00,69,93,06,00,
47091174,00000013,false,Rx,0,8,F4,DE,03,00,EC,D6,01,00,
47092442,00000014,false,Rx,0,4,26,06,EC,02,00,00,00,00,
47144509,00000011,false,Rx,0,8,24,14,00,00,4F,6D,00,00,
47146314,00000012,false,Rx,0,8,86,53,06,00,69,93,06,00,
47147672,00000013,false,Rx,0,8,96,DF,03,00,EC,D6,01,00,
47148980,00000014,false,Rx,0,4,27,06,EC,02,00,00,00,00,
47200959,00000011,false,Rx,0,8,24,14,00,00,4F,6D,00,00,
47202564,00000012,false,Rx,0,8,86,53,06,00,69,93,06,00,
47204138,00000013,false,Rx,0,8,96,DF,03,00,EC,D6,01,00,
47205416,00000014,false,Rx,0,4,27,06,EC,02,00,00,00,00,
47257436,00000011,false,Rx,0,8,24,14,00,00,4F,6D,00,00,
47259026,00000012,false,Rx,0,8,86,53,06,00,69,93,06,00,
47260822,00000013,false,Rx,0,8,96,DF,03,00,EC,D6,01,00,
47262116,00000014,false,Rx,0,4,27,06,EC,02,00,00,00,00,
47313896,00000011,false,Rx,0,8,24,14,00,00,14,6D,00,00,
47315508,00000012,false,Rx,0,8,86,53,06,00,D2,8F,06,00,
47317066,00000013,false,Rx,0,8,96,DF,03,00,4B,D6,01,00,
47318325,00000014,false,Rx,0,4,27,06,EB,02,00,00,00,00,
47370344,00000011,false,Rx,0,8,24,14,00,00,14,6D,00,00,
47372062,00000012,false,Rx,0,8,86,53,06,00,D2,8F,06,00,
47373518,00000013,false,Rx,0,8,96,DF,03,00,4B,D6,01,00,
47374817,00000014,false,Rx,0,4,27,06,EB,02,00,00,00,00,
47427056,00000011,false,Rx,0,8,28,14,00,00,14,6D,00,00,
47428489,00000012,false,Rx,0,8,C6,54,06,00,D2,8F,06,00,
47430071,00000013,false,Rx,0,8,37,E0,03,00,4B,D6,01,00,
47431337,00000014,false,Rx,0,4,28,06,EB,02,00,00,00,00,
47483423,00000011,false,Rx,0,8,28,14,00,00,14,6D,00,00,
47484976,00000012,false,Rx,0,8,C6,54,06,00,D2,8F,06,00,
47486604,00000013,false,Rx,0,8,37,E0,03,00,4B,D6,01,00,
47487890,00000014,false,Rx,0,4,28,06,EB,02,00,00,00,00,
47539928,00000011,false,Rx,0,8,28,14,00,00,14,6D,00,00,
47541544,00000012,false,Rx,0,8,C6,54,06,00,D2,8F,06,00,
47543118,00000013,false,Rx,0,8,37,E0,03,00,4B,D6,01,00,
47544406,00000014,false,Rx,0,4,28,06,EB,02,00,00,00,00,
47596443,00000011,false,Rx,0,8,28,14,00,00,14,6D,00,00,
47598027,00000012,false,Rx,0,8,C6,54,06,00,D2,8F,06,00,
47599576,00000013,false,Rx,0,8,37,E0,03,00,4B,D6,01,00,
47600873,00000014,false,Rx,0,4,28,06,EB,02,00,00,00,00,
47652918,00000011,false,Rx,0,8,28,14,00,00,14,6D,00,00,
47654536,00000012,false,Rx,0,8,C6,54,06,00,D2,8F,06,00,
47656106,00000013,false,Rx,0,8,37,E0,03,00,4B,D6,01,00,
47657380,00000014,false,Rx,0,4,28,06,EB,02,00,00,00,00,
47709468,00000011,false,Rx,0,8,28,14,00,00,14,6D,00,00,
47711057,00000012,false,Rx,0,8,C6,54,06,00,D2,8F,06,00,
47712645,00000013,false,Rx,0,8,37,E0,03,00,4B,D6,01,00,
47713942,00000014,false,Rx,0,4,28,06,EB,02,00,00,00,00,
47765940,00000011,false,Rx,0,8,2C,14,00,00,14,6D,00,00,
47767531,00000012,false,Rx,0,8,06,56,06,00,D2,8F,06,00,
47769105,00000013,false,Rx,0,8,D8,E0,03,00,4B,D6,01,00,
47770376,00000014,false,Rx,0,4,29,06,EB,02,00,00,00,00,
47822411,00000011,false,Rx,0,8,2C,14,00,00,14,6D,00,00,
47824037,00000012,false,Rx,0,8,06,56,06,00,D2,8F,06,00,
47825601,00000013,false,Rx,0,8,D8,E0,03,00,4B,D6,01,00,
47826882,00000014,false,Rx,0,4,29,06,EB,02,00,00,00,00,
47878948,00000011,false,Rx,0,8,2C,14,00,00,14,6D,00,00,
47880530,00000012,false,Rx,0,8,06,56,06,00,D2,8F,06,00,
47882092,00000013,false,Rx,0,8,D8,E0,03,00,4B,D6,01,00,
47883358,00000014,false,Rx,0,4,29,06,EB,02,00,00,00,00,
47935401,00000011,false,Rx,0,8,30,14,00,00,14,6D,00,00,
47936968,00000012,false,Rx,0,8,46,57,06,00,D2,8F,06,00,
47938717,00000013,false,Rx,0,8,79,E1,03,00,4B,D6,01,00,
47939887,00000014,false,Rx,0,4,2A,06,EB,02,00,00,00,00,
47991930,00000011,false,Rx,0,8,30,14,00,00,14,6D,00,00,
47993532,00000012,false,Rx,0,8,46,57,06,00,D2,8F,06,00,
47995120,00000013,false,Rx,0,8,79,E1,03,00,4B,D6,01,00,
47996445,00000014,false,Rx,0,4,2A,06,EB,02,00,00,00,00,
48048373,00000011,false,Rx,0,8,30,14,00,00,14,6D,00,00,
48049973,00000012,false,Rx,0,8,46,57,06,00,D2,8F,06,00,
48051575,00000013,false,Rx,0,8,79,E1,03,00,4B,D6,01,00,
48052880,00000014,false,Rx,0,4,2A,06,EB,02,00,00,00,00,
48104903,00000011,false,Rx,0,8,30,14,00,00,03,6E,00,00,
48106495,00000012,false,Rx,0,8,46,57,06,00,2F,9E,06,00,
48108069,00000013,false,Rx,0,8,79,E1,03,00,D0,D8,01,00,
48109369,00000014,false,Rx,0,4,2A,06,EF,02,00,00,00,00,
48161405,00000011,false,Rx,0,8,34,14,00,00,14,6D,00,00,
48163020,00000012,false,Rx,0,8,86,58,06,00,D2,8F,06,00,
48164562,00000013,false,Rx,0,8,1A,E2,03,00,4B,D6,01,00,
48165830,00000014,false,Rx,0,4,2B,06,EB,02,00,00,00,00,
48217866,00000011,false,Rx,0,8,30,14,00,00,14,6D,00,00,
48219456,00000012,false,Rx,0,8,46,57,06,00,D2,8F,06,00,
48221072,00000013,false,Rx,0,8,79,E1,03,00,4B,D6,01,00,
48222370,00000014,false,Rx,0,4,2A,06,EB,02,00,00,00,00,
48274362,00000011,false,Rx,0,8,34,14,00,00,D8,6C,00,00,
48276023,00000012,false,Rx,0,8,86,58,06,00,3A,8C,06,00,
48277603,00000013,false,Rx,0,8,1A,E2,03,00,AA,D5,01,00,
48278881,00000014,false,Rx,0,4,2B,06,EA,02,00,00,00,00,
48330840,00000011,false,Rx,0,8,34,14,00,00,14,6D,00,00,
48332471,00000012,false,Rx,0,8,86,58,06,00,D2,8F,06,00,
48334010,00000013,false,Rx,0,8,1A,E2,03,00,4B,D6,01,00,
48335305,00000014,false,Rx,0,4,2B,06,EB,02,00,00,00,00,
48387366,00000011,false,Rx,0,8,34,14,00,00,14,6D,00,00,
48388972,00000012,false,Rx,0,8,86,58,06,00,D2,8F,06,00,
48390546,00000013,false,Rx,0,8,1A,E2,03,00,4B,D6,01,00,
48391789,00000014,false,Rx,0,4,2B,06,EB,02,00,00,00,00,
48443806,00000011,false,Rx,0,8,38,14,00,00,D8,6C,00,00,
48445443,00000012,false,Rx,0,8,C6,59,06,00,3A,8C,06,00,
48446995,00000013,false,Rx,0,8,BC,E2,03,00,AA,D5,01,00,
48448283,00000014,false,Rx,0,4,2C,06,EA,02,00,00,00,00,
48500311,00000011,false,Rx,0,8,38,14,00,00,D8,6C,00,00,
48501904,00000012,false,Rx,0,8,C6,59,06,00,3A,8C,06,00,
48503474,00000013,false,Rx,0,8,BC,E2,03,00,AA,D5,01,00,
48504778,00000014,false,Rx,0,4,2C,06,EA,02,00,00,00,00,
48556794,00000011,false,Rx,0,8,38,14,00,00,D8,6C,00,00,
48558408,00000012,false,Rx,0,8,C6,59,06,00,3A,8C,06,00,
48560134,00000013,false,Rx,0,8,BC,E2,03,00,AA,D5,01,00,
48561256,00000014,false,Rx,0,4,2C,06,EA,02,00,00,00,00,
48613281,00000011,false,Rx,0,8,38,14,00,00,D8,6C,00,00,
48614898,00000012,false,Rx,0,8,C6,59,06,00,3A,8C,06,00,
48616412,00000013,false,Rx,0,8,BC,E2,03,00,AA,D5,01,00,
48617734,00000014,false,Rx,0,4,2C,06,EA,02,00,00,00,00,
48669691,00000011,false,Rx,0,8,38,14,00,00,14,6D,00,00,
48671327,00000012,false,Rx,0,8,C6,59,06,00,D2,8F,06,00,
48672905,00000013,false,Rx,0,8,BC,E2,03,00,4B,D6,01,00,
48674204,00000014,false,Rx,0,4,2C,06,EB,02,00,00,00,00,
48726193,00000011,false,Rx,0,8,34,14,00,00,D8,6C,00,00,
48727824,00000012,false,Rx,0,8,86,58,06,00,3A,8C,06,00,
48729401,00000013,false,Rx,0,8,1A,E2,03,00,AA,D5,01,00,
48730675,00000014,false,Rx,0,4,2B,06,EA,02,00,00,00,00,
48782635,00000011,false,Rx,0,8,38,14,00,00,D8,6C,00,00,
48784256,00000012,false,Rx,0,8,C6,59,06,00,3A,8C,06,00,
48785803,00000013,false,Rx,0,8,BC,E2,03,00,AA,D5,01,00,
48787106,00000014,false,Rx,0,4,2C,06,EA,02,00,00,00,00,
48839140,00000011,false,Rx,0,8,38,14,00,00,D8,6C,00,00,
48840759,00000012,false,Rx,0,8,C6,59,06,00,3A,8C,06,00,
48842333,00000013,false,Rx,0,8,BC,E2,03,00,AA,D5,01,00,
48843627,00000014,false,Rx,0,4,2C,06,EA,02,00,00,00,00,
48895696,00000011,false,Rx,0,8,3C,14,00,00,D8,6C,00,00,
48897182,00000012,false,Rx,0,8,06,5B,06,00,3A,8C,06,00,
48898757,00000013,false,Rx,0,8,5D,E3,03,00,AA,D5,01,00,
48900087,00000014,false,Rx,0,4,2D,06,EA,02,00,00,00,00,
48952110,00000011,false,Rx,0,8,3C,14,00,00,D8,6C,00,00,
48953736,00000012,false,Rx,0,8,06,5B,06,00,3A,8C,06,00,
48955277,00000013,false,Rx,0,8,5D,E3,03,00,AA,D5,01,00,
48956575,00000014,false,Rx,0,4,2D,06,EA,02,00,00,00,00,
49008515,00000011,false,Rx,0,8,3C,14,00,00,D8,6C,00,00,
49010111,00000012,false,Rx,0,8,06,5B,06,00,3A,8C,06,00,
49011717,00000013,false,Rx,0,8,5D,E3,03,00,AA,D5,01,00,
49013012,00000014,false,Rx,0,4,2D,06,EA,02,00,00,00,00,
49064991,00000011,false,Rx,0,8,4C,14,00,00,D8,6C,00,00,
49066607,00000012,false,Rx,0,8,05,60,06,00,3A,8C,06,00,
49068157,00000013,false,Rx,0,8,E1,E5,03,00,AA,D5,01,00,
49069452,00000014,false,Rx,0,4,31,06,EA,02,00,00,00,00,
49121462,00000011,false,Rx,0,8,3C,14,00,00,D8,6C,00,00,
49123123,00000012,false,Rx,0,8,06,5B,06,00,3A,8C,06,00,
49124674,00000013,false,Rx,0,8,5D,E3,03,00,AA,D5,01,00,
49125983,00000014,false,Rx,0,4,2D,06,EA,02,00,00,00,00,
49177979,00000011,false,Rx,0,8,3C,14,00,00,D8,6C,00,00,
49179606,00000012,false,Rx,0,8,06,5B,06,00,3A,8C,06,00,
49181104,00000013,false,Rx,0,8,5D,E3,03,00,AA,D5,01,00,
49182404,00000014,false,Rx,0,4,2D,06,EA,02,00,00,00,00,
49234475,00000011,false,Rx,0,8,3C,14,00,00,D8,6C,00,00,
49236065,00000012,false,Rx,0,8,06,5B,06,00,3A,8C,06,00,
49237610,00000013,false,Rx,0,8,5D,E3,03,00,AA,D5,01,00,
49238910,00000014,false,Rx,0,4,2D,06,EA,02,00,00,00,00,
49291071,00000011,false,Rx,0,8,3C,14,00,00,D8,6C,00,00,
49292540,00000012,false,Rx,0,8,06,5B,06,00,3A,8C,06,00,
49294103,00000013,false,Rx,0,8,5D,E3,03,00,AA,D5,01,00,
49295411,00000014,false,Rx,0,4,2D,06,EA,02,00,00,00,00,
49347446,00000011,false,Rx,0,8,40,14,00,00,D8,6C,00,00,
49349032,00000012,false,Rx,0,8,46,5C,06,00,3A,8C,06,00,
49350616,00000013,false,Rx,0,8,FE,E3,03,00,AA,D5,01,00,
49351910,00000014,false,Rx,0,4,2E,06,EA,02,00,00,00,00,
49403919,00000011,false,Rx,0,8,3C,14,00,00,D8,6C,00,00,
49405513,00000012,false,Rx,0,8,06,5B,06,00,3A,8C,06,00,
49407085,00000013,false,Rx,0,8,5D,E3,03,00,AA,D5,01,00,
49408394,00000014,false,Rx,0,4,2D,06,EA,02,00,00,00,00,
49460452,00000011,false,Rx,0,8,40,14,00,00,D8,6C,00,00,
49462043,00000012,false,Rx,0,8,46,5C,06,00,3A,8C,06,00,
49463619,00000013,false,Rx,0,8,FE,E3,03,00,AA,D5,01,00,
49464919,00000014,false,Rx,0,4,2E,06,EA,02,00,00,00,00,
49516868,00000011,false,Rx,0,8,44,14,00,00,D8,6C,00,00,
49518483,00000012,false,Rx,0,8,85,5D,06,00,3A,8C,06,00,
49520031,00000013,false,Rx,0,8,9F,E4,03,00,AA,D5,01,00,
49521333,00000014,false,Rx,0,4,2F,06,EA,02,00,00,00,00,
49573373,00000011,false,Rx,0,8,40,14,00,00,D8,6C,00,00,
49574999,00000012,false,Rx,0,8,46,5C,06,00,3A,8C,06,00,
49576553,00000013,false,Rx,0,8,FE,E3,03,00,AA,D5,01,00,
49577848,00000014,false,Rx,0,4,2E,06,EA,02,00,00,00,00,
49629865,00000011,false,Rx,0,8,40,14,00,00,D8,6C,00,00,
49631422,00000012,false,Rx,0,8,46,5C,06,00,3A,8C,06,00,
49633031,00000013,false,Rx,0,8,FE,E3,03,00,AA,D5,01,00,
49634328,00000014,false,Rx,0,4,2E,06,EA,02,00,00,00,00,
49686315,00000011,false,Rx,0,8,40,14,00,00,D8,6C,00,00,
49687936,00000012,false,Rx,0,8,46,5C,06,00,3A,8C,06,00,
49689544,00000013,false,Rx,0,8,FE,E3,03,00,AA,D5,01,00,
49690818,00000014,false,Rx,0,4,2E,06,EA,02,00,00,00,00,
49742789,00000011,false,Rx,0,8,40,14,00,00,D8,6C,00,00,
49744406,00000012,false,Rx,0,8,46,5C,06,00,3A,8C,06,00,
49745997,00000013,false,Rx,0,8,FE,E3,03,00,AA,D5,01,00,
49747242,00000014,false,Rx,0,4,2E,06,EA,02,00,00,00,00,
49799290,00000011,false,Rx,0,8,44,14,00,00,D8,6C,00,00,
49800885,00000012,false,Rx,0,8,85,5D,06,00,3A,8C,06,00,
49802456,00000013,false,Rx,0,8,9F,E4,03,00,AA,D5,01,00,
49803766,00000014,false,Rx,0,4,2F,06,EA,02,00,00,00,00,
49855729,00000011,false,Rx,0,8,44,14,00,00,9C,6C,00,00,
49857368,00000012,false,Rx,0,8,85,5D,06,00,A3,88,06,00,
49858930,00000013,false,Rx,0,8,9F,E4,03,00,09,D5,01,00,
49860229,00000014,false,Rx,0,4,2F,06,E9,02,00,00,00,00,
49912128,00000011,false,Rx,0,8,40,14,00,00,D8,6C,00,00,
49913720,00000012,false,Rx,0,8,46,5C,06,00,3A,8C,06,00,
49915318,00000013,false,Rx,0,8,FE,E3,03,00,AA,D5,01,00,
49916607,00000014,false,Rx,0,4,2E,06,EA,02,00,00,00,00,
49968632,00000011,false,Rx,0,8,44,14,00,00,D8,6C,00,00,
49970191,00000012,false,Rx,0,8,85,5D,06,00,3A,8C,06,00,
49971781,00000013,false,Rx,0,8,9F,E4,03,00,AA,D5,01,00,
49973069,00000014,false,Rx,0,4,2F,06,EA,02,00,00,00,00,
50025091,00000011,false,Rx,0,8,44,14,00,00,D8,6C,00,00,
50026646,00000012,false,Rx,0,8,85,5D,06,00,3A,8C,06,00,
50028382,00000013,false,Rx,0,8,9F,E4,03,00,AA,D5,01,00,
50029685,00000014,false,Rx,0,4,2F,06,EA,02,00,00,00,00,
50081508,00000011,false,Rx,0,8,44,14,00,00,9C,6C,00,00,
50083171,00000012,false,Rx,0,8,85,5D,06,00,A3,88,06,00,
50084701,00000013,false,Rx,0,8,9F,E4,03,00,09,D5,01,00,
50086036,00000014,false,Rx,0,4,2F,06,E9,02,00,00,00,00,
50137993,00000011,false,Rx,0,8,40,14,00,00,9C,6C,00,00,
50139608,00000012,false,Rx,0,8,46,5C,06,00,A3,88,06,00,
50141171,00000013,false,Rx,0,8,FE,E3,03,00,09,D5,01,00,
50142510,00000014,false,Rx,0,4,2E,06,E9,02,00,00,00,00,
50194490,00000011,false,Rx,0,8,44,14,00,00,D8,6C,00,00,
50196055,00000012,false,Rx,0,8,85,5D,06,00,3A,8C,06,00,
50197619,00000013,false,Rx,0,8,9F,E4,03,00,AA,D5,01,00,
50198895,00000014,false,Rx,0,4,2F,06,EA,02,00,00,00,00,
50250924,00000011,false,Rx,0,8,44,14,00,00,9C,6C,00,00,
50252548,00000012,false,Rx,0,8,85,5D,06,00,A3,88,06,00,
50254077,00000013,false,Rx,0,8,9F,E4,03,00,09,D5,01,00,
50255363,00000014,false,Rx,0,4,2F,06,E9,02,00,00,00,00,
50307377,00000011,false,Rx,0,8,48,14,00,00,9C,6C,00,00,
50309071,00000012,false,Rx,0,8,C5,5E,06,00,A3,88,06,00,
50310572,00000013,false,Rx,0,8,40,E5,03,00,09,D5,01,00,
50311816,00000014,false,Rx,0,4,30,06,E9,02,00,00,00,00,
50363856,00000011,false,Rx,0,8,4C,14,00,00,9C,6C,00,00,
50365416,00000012,false,Rx,0,8,05,60,06,00,A3,88,06,00,
50367169,00000013,false,Rx,0,8,E1,E5,03,00,09,D5,01,00,
50368472,00000014,false,Rx,0,4,31,06,E9,02,00,00,00,00,
50420257,00000011,false,Rx,0,8,44,14,00,00,9C,6C,00,00,
50421866,00000012,false,Rx,0,8,85,5D,06,00,A3,88,06,00,
50423413,00000013,false,Rx,0,8,9F,E4,03,00,09,D5,01,00,
50424742,00000014,false,Rx,0,4,2F,06,E9,02,00,00,00,00,
50476709,00000011,false,Rx,0,8,44,14,00,00,9C,6C,00,00,
50478340,00000012,false,Rx,0,8,85,5D,06,00,A3,88,06,00,
50479964,00000013,false,Rx,0,8,9F,E4,03,00,09,D5,01,00,
50481166,00000014,false,Rx,0,4,2F,06,E9,02,00,00,00,00,
50533121,00000011,false,Rx,0,8,44,14,00,00,9C,6C,00,00,
50534715,00000012,false,Rx,0,8,85,5D,06,00,A3,88,06,00,
50536316,00000013,false,Rx,0,8,9F,E4,03,00,09,D5,01,00,
50537590,00000014,false,Rx,0,4,2F,06,E9,02,00,00,00,00,
50589564,00000011,false,Rx,0,8,48,14,00,00,9C,6C,00,00,
50591176,00000012,false,Rx,0,8,C5,5E,06,00,A3,88,06,00,
50592764,00000013,false,Rx,0,8,40,E5,03,00,09,D5,01,00,
50594050,00000014,false,Rx,0,4,30,06,E9,02,00,00,00,00,
50646015,00000011,false,Rx,0,8,48,14,00,00,9C,6C,00,00,
50647623,00000012,false,Rx,0,8,C5,5E,06,00,A3,88,06,00,
50649192,00000013,false,Rx,0,8,40,E5,03,00,09,D5,01,00,
50650481,00000014,false,Rx,0,4,30,06,E9,02,00,00,00,00,
50702422,00000011,false,Rx,0,8,44,14,00,00,9C,6C,00,00,
50704039,00000012,false,Rx,0,8,85,5D,06,00,A3,88,06,00,
50705625,00000013,false,Rx,0,8,9F,E4,03,00,09,D5,01,00,
50706912,00000014,false,Rx,0,4,2F,06,E9,02,00,00,00,00,
50758855,00000011,false,Rx,0,8,44,14,00,00,9C,6C,00,00,
50760466,00000012,false,Rx,0,8,85,5D,06,00,A3,88,06,00,
50762044,00000013,false,Rx,0,8,9F,E4,03,00,09,D5,01,00,
50763313,00000014,false,Rx,0,4,2F,06,E9,02,00,00,00,00,
50815294,00000011,false,Rx,0,8,4C,14,00,00,9C,6C,00,00,
50816851,00000012,false,Rx,0,8,05,60,06,00,A3,88,06,00,
50818457,00000013,false,Rx,0,8,E1,E5,03,00,09,D5,01,00,
50819721,00000014,false,Rx,0,4,31,06,E9,02,00,00,00,00,
50871737,00000011,false,Rx,0,8,48,14,00,00,9C,6C,00,00,
50873312,00000012,false,Rx,0,8,C5,5E,06,00,A3,88,06,00,
50874881,00000013,false,Rx,0,8,40,E5,03,00,09,D5,01,00,
50876181,00000014,false,Rx,0,4,30,06,E9,02,00,00,00,00,
50928135,00000011,false,Rx,0,8,48,14,00,00,9C,6C,00,00,
50929742,00000012,false,Rx,0,8,C5,5E,06,00,A3,88,06,00,
50931312,00000013,false,Rx,0,8,40,E5,03,00,09,D5,01,00,
50932592,00000014,false,Rx,0,4,30,06,E9,02,00,00,00,00,
