Time Stamp,ID,Extended,Dir,Bus,LEN,D1,D2,D3,D4,D5,D6,D7,D8
12158811,00000011,false,Rx,0,8,4C,17,00,00,6B,00,00,00,
12160451,00000012,false,Rx,0,8,3D,51,07,00,72,06,00,00,
12161978,00000013,false,Rx,0,8,64,5F,04,00,E9,B0,00,00,
12163274,00000014,false,Rx,0,4,F2,06,19,01,00,00,00,00,
12215292,00000011,false,Rx,0,8,4C,17,00,00,A6,00,00,00,
12216880,00000012,false,Rx,0,8,3D,51,07,00,09,0A,00,00,
12218459,00000013,false,Rx,0,8,64,5F,04,00,8A,B1,00,00,
12219756,00000014,false,Rx,0,4,F2,06,1A,01,00,00,00,00,
12271785,00000011,false,Rx,0,8,4C,17,00,00,6B,00,00,00,
12273460,00000012,false,Rx,0,8,3D,51,07,00,72,06,00,00,
12275027,00000013,false,Rx,0,8,64,5F,04,00,E9,B0,00,00,
12276310,00000014,false,Rx,0,4,F2,06,19,01,00,00,00,00,
12328342,00000011,false,Rx,0,8,50,17,00,00,6B,00,00,00,
12329950,00000012,false,Rx,0,8,7D,52,07,00,72,06,00,00,
12331501,00000013,false,Rx,0,8,05,60,04,00,E9,B0,00,00,
12332800,00000014,false,Rx,0,4,F3,06,19,01,00,00,00,00,
12384814,00000011,false,Rx,0,8,48,17,00,00,6B,00,00,00,
12386408,00000012,false,Rx,0,8,FD,4F,07,00,72,06,00,00,
12387955,00000013,false,Rx,0,8,C2,5E,04,00,E9,B0,00,00,
12389326,00000014,false,Rx,0,4,F1,06,19,01,00,00,00,00,
12441260,00000011,false,Rx,0,8,48,17,00,00,6B,00,00,00,
12442906,00000012,false,Rx,0,8,FD,4F,07,00,72,06,00,00,
12444451,00000013,false,Rx,0,8,C2,5E,04,00,E9,B0,00,00,
12445774,00000014,false,Rx,0,4,F1,06,19,01,00,00,00,00,
12497770,00000011,false,Rx,0,8,4C,17,00,00,6B,00,00,00,
12499389,00000012,false,Rx,0,8,3D,51,07,00,72,06,00,00,
12500963,00000013,false,Rx,0,8,64,5F,04,00,E9,B0,00,00,
12502237,00000014,false,Rx,0,4,F2,06,19,01,00,00,00,00,
12554215,00000011,false,Rx,0,8,4C,17,00,00,6B,00,00,00,
12555853,00000012,false,Rx,0,8,3D,51,07,00,72,06,00,00,
12557441,00000013,false,Rx,0,8,64,5F,04,00,E9,B0,00,00,
12558730,00000014,false,Rx,0,4,F2,06,19,01,00,00,00,00,
12610723,00000011,false,Rx,0,8,4C,17,00,00,6B,00,00,00,
12612329,00000012,false,Rx,0,8,3D,51,07,00,72,06,00,00,
12613878,00000013,false,Rx,0,8,64,5F,04,00,E9,B0,00,00,
12615177,00000014,false,Rx,0,4,F2,06,19,01,00,00,00,00,
12667109,00000011,false,Rx,0,8,4C,17,00,00,A6,00,00,00,
12668758,00000012,false,Rx,0,8,3D,51,07,00,09,0A,00,00,
12670343,00000013,false,Rx,0,8,64,5F,04,00,8A,B1,00,00,
12671650,00000014,false,Rx,0,4,F2,06,1A,01,00,00,00,00,
12723635,00000011,false,Rx,0,8,4C,17,00,00,6B,00,00,00,
12725195,00000012,false,Rx,0,8,3D,51,07,00,72,06,00,00,
12726767,00000013,false,Rx,0,8,64,5F,04,00,E9,B0,00,00,
12728041,00000014,false,Rx,0,4,F2,06,19,01,00,00,00,00,
12780091,00000011,false,Rx,0,8,48,17,00,00,6B,00,00,00,
12781675,00000012,false,Rx,0,8,FD,4F,07,00,72,06,00,00,
12783232,00000013,false,Rx,0,8,C2,5E,04,00,E9,B0,00,00,
12784532,00000014,false,Rx,0,4,F1,06,19,01,00,00,00,00,
12836605,00000011,false,Rx,0,8,4C,17,00,00,6B,00,00,00,
12838200,00000012,false,Rx,0,8,3D,51,07,00,72,06,00,00,
12839759,00000013,false,Rx,0,8,64,5F,04,00,E9,B0,00,00,
12841284,00000014,false,Rx,0,4,F2,06,19,01,00,00,00,00,
12893280,00000011,false,Rx,0,8,4C,17,00,00,A6,00,00,00,
12894700,00000012,false,Rx,0,8,3D,51,07,00,09,0A,00,00,
12896257,00000013,false,Rx,0,8,64,5F,04,00,8A,B1,00,00,
12897507,00000014,false,Rx,0,4,F2,06,1A,01,00,00,00,00,
12949616,00000011,false,Rx,0,8,48,17,00,00,6B,00,00,00,
12951165,00000012,false,Rx,0,8,FD,4F,07,00,72,06,00,00,
12952782,00000013,false,Rx,0,8,C2,5E,04,00,E9,B0,00,00,
12954079,00000014,false,Rx,0,4,F1,06,19,01,00,00,00,00,
13006114,00000011,false,Rx,0,8,48,17,00,00,6B,00,00,00,
13007731,00000012,false,Rx,0,8,FD,4F,07,00,72,06,00,00,
13009295,00000013,false,Rx,0,8,C2,5E,04,00,E9,B0,00,00,
13010568,00000014,false,Rx,0,4,F1,06,19,01,00,00,00,00,
13062628,00000011,false,Rx,0,8,48,17,00,00,A6,00,00,00,
13064210,00000012,false,Rx,0,8,FD,4F,07,00,09,0A,00,00,
13065819,00000013,false,Rx,0,8,C2,5E,04,00,8A,B1,00,00,
13067093,00000014,false,Rx,0,4,F1,06,1A,01,00,00,00,00,
13119144,00000011,false,Rx,0,8,48,17,00,00,A6,00,00,00,
13120940,00000012,false,Rx,0,8,FD,4F,07,00,09,0A,00,00,
13122337,00000013,false,Rx,0,8,C2,5E,04,00,8A,B1,00,00,
13123612,00000014,false,Rx,0,4,F1,06,1A,01,00,00,00,00,
13175704,00000011,false,Rx,0,8,4C,17,00,00,6B,00,00,00,
13177311,00000012,false,Rx,0,8,3D,51,07,00,72,06,00,00,
13178862,00000013,false,Rx,0,8,64,5F,04,00,E9,B0,00,00,
13180155,00000014,false,Rx,0,4,F2,06,19,01,00,00,00,00,
13232143,00000011,false,Rx,0,8,48,17,00,00,A6,00,00,00,
13233739,00000012,false,Rx,0,8,FD,4F,07,00,09,0A,00,00,
13235321,00000013,false,Rx,0,8,C2,5E,04,00,8A,B1,00,00,
13236642,00000014,false,Rx,0,4,F1,06,1A,01,00,00,00,00,
13288634,00000011,false,Rx,0,8,48,17,00,00,A6,00,00,00,
13290251,00000012,false,Rx,0,8,FD,4F,07,00,09,0A,00,00,
13291858,00000013,false,Rx,0,8,C2,5E,04,00,8A,B1,00,00,
13293135,00000014,false,Rx,0,4,F1,06,1A,01,00,00,00,00,
13345126,00000011,false,Rx,0,8,48,17,00,00,A6,00,00,00,
13346743,00000012,false,Rx,0,8,FD,4F,07,00,09,0A,00,00,
13348315,00000013,false,Rx,0,8,C2,5E,04,00,8A,B1,00,00,
13349589,00000014,false,Rx,0,4,F1,06,1A,01,00,00,00,00,
13401619,00000011,false,Rx,0,8,48,17,00,00,6B,00,00,00,
13403269,00000012,false,Rx,0,8,FD,4F,07,00,72,06,00,00,
13405020,00000013,false,Rx,0,8,C2,5E,04,00,E9,B0,00,00,
13406168,00000014,false,Rx,0,4,F1,06,19,01,00,00,00,00,
13458150,00000011,false,Rx,0,8,44,17,00,00,6B,00,00,00,
13459798,00000012,false,Rx,0,8,BD,4E,07,00,72,06,00,00,
13461329,00000013,false,Rx,0,8,21,5E,04,00,E9,B0,00,00,
13462604,00000014,false,Rx,0,4,F0,06,19,01,00,00,00,00,
13514668,00000011,false,Rx,0,8,48,17,00,00,A6,00,00,00,
13516259,00000012,false,Rx,0,8,FD,4F,07,00,09,0A,00,00,
13517832,00000013,false,Rx,0,8,C2,5E,04,00,8A,B1,00,00,
13519134,00000014,false,Rx,0,4,F1,06,1A,01,00,00,00,00,
13571172,00000011,false,Rx,0,8,48,17,00,00,6B,00,00,00,
13572886,00000012,false,Rx,0,8,FD,4F,07,00,72,06,00,00,
13574346,00000013,false,Rx,0,8,C2,5E,04,00,E9,B0,00,00,
13575646,00000014,false,Rx,0,4,F1,06,19,01,00,00,00,00,
13627669,00000011,false,Rx,0,8,44,17,00,00,6B,00,00,00,
13629287,00000012,false,Rx,0,8,BD,4E,07,00,72,06,00,00,
13630875,00000013,false,Rx,0,8,21,5E,04,00,E9,B0,00,00,
13632153,00000014,false,Rx,0,4,F0,06,19,01,00,00,00,00,
13684218,00000011,false,Rx,0,8,48,17,00,00,6B,00,00,00,
13685801,00000012,false,Rx,0,8,FD,4F,07,00,72,06,00,00,
13687347,00000013,false,Rx,0,8,C2,5E,04,00,E9,B0,00,00,
13688654,00000014,false,Rx,0,4,F1,06,19,01,00,00,00,00,
13740875,00000011,false,Rx,0,8,48,17,00,00,6B,00,00,00,
13742339,00000012,false,Rx,0,8,FD,4F,07,00,72,06,00,00,
13743886,00000013,false,Rx,0,8,C2,5E,04,00,E9,B0,00,00,
13745180,00000014,false,Rx,0,4,F1,06,19,01,00,00,00,00,
13797210,00000011,false,Rx,0,8,2F,15,00,00,A6,00,00,00,
13798805,00000012,false,Rx,0,8,43,A7,06,00,09,0A,00,00,
13800402,00000013,false,Rx,0,8,C4,09,04,00,8A,B1,00,00,
13801681,00000014,false,Rx,0,4,6A,06,1A,01,00,00,00,00,
13853753,00000011,false,Rx,0,8,EC,13,00,00,2E,68,00,00,
13855458,00000012,false,Rx,0,8,06,42,06,00,69,44,06,00,
13857110,00000013,false,Rx,0,8,C5,D6,03,00,12,C9,01,00,
13858221,00000014,false,Rx,0,4,19,06,D6,02,00,00,00,00,
13910392,00000011,false,Rx,0,8,70,17,00,00,43,86,00,00,
13911852,00000012,false,Rx,0,8,7D,5C,07,00,A4,13,08,00,
13913435,00000013,false,Rx,0,8,0E,65,04,00,4A,1A,02,00,
13914696,00000014,false,Rx,0,4,FB,06,57,03,00,00,00,00,
13966781,00000011,false,Rx,0,8,B0,17,00,00,54,85,00,00,
13968404,00000012,false,Rx,0,8,7C,70,07,00,47,05,08,00,
13969952,00000013,false,Rx,0,8,21,6F,04,00,C5,17,02,00,
13971500,00000014,false,Rx,0,4,0B,07,53,03,00,00,00,00,
14023328,00000011,false,Rx,0,8,90,17,00,00,A1,84,00,00,
14024975,00000012,false,Rx,0,8,7C,66,07,00,81,FA,07,00,
14026749,00000013,false,Rx,0,8,18,6A,04,00,E1,15,02,00,
14027815,00000014,false,Rx,0,4,03,07,50,03,00,00,00,00,
14079836,00000011,false,Rx,0,8,74,17,00,00,EE,83,00,00,
14081528,00000012,false,Rx,0,8,BD,5D,07,00,BB,EF,07,00,
14083061,00000013,false,Rx,0,8,AF,65,04,00,FE,13,02,00,
14084325,00000014,false,Rx,0,4,FC,06,4D,03,00,00,00,00,
14136380,00000011,false,Rx,0,8,68,17,00,00,B2,83,00,00,
14138001,00000012,false,Rx,0,8,FD,59,07,00,24,EC,07,00,
14139597,00000013,false,Rx,0,8,CC,63,04,00,5D,13,02,00,
14141113,00000014,false,Rx,0,4,F9,06,4C,03,00,00,00,00,
14193147,00000011,false,Rx,0,8,5C,17,00,00,3B,83,00,00,
14194544,00000012,false,Rx,0,8,3D,56,07,00,F5,E4,07,00,
14196104,00000013,false,Rx,0,8,E8,61,04,00,1A,12,02,00,
14197505,00000014,false,Rx,0,4,F6,06,4A,03,00,00,00,00,
14249564,00000011,false,Rx,0,8,54,17,00,00,C3,82,00,00,
14251152,00000012,false,Rx,0,8,BD,53,07,00,C7,DD,07,00,
14252726,00000013,false,Rx,0,8,A6,60,04,00,D8,10,02,00,
14254025,00000014,false,Rx,0,4,F4,06,48,03,00,00,00,00,
14306085,00000011,false,Rx,0,8,58,17,00,00,C3,82,00,00,
14307676,00000012,false,Rx,0,8,FD,54,07,00,C7,DD,07,00,
14309479,00000013,false,Rx,0,8,47,61,04,00,D8,10,02,00,
14310535,00000014,false,Rx,0,4,F5,06,48,03,00,00,00,00,
14362537,00000011,false,Rx,0,8,4C,17,00,00,88,82,00,00,
14364160,00000012,false,Rx,0,8,3D,51,07,00,2F,DA,07,00,
14365732,00000013,false,Rx,0,8,64,5F,04,00,37,10,02,00,
14367004,00000014,false,Rx,0,4,F2,06,47,03,00,00,00,00,
14418982,00000011,false,Rx,0,8,48,17,00,00,4C,82,00,00,
14420600,00000012,false,Rx,0,8,FD,4F,07,00,98,D6,07,00,
14422177,00000013,false,Rx,0,8,C2,5E,04,00,96,0F,02,00,
14423492,00000014,false,Rx,0,4,F1,06,46,03,00,00,00,00,
14475608,00000011,false,Rx,0,8,48,17,00,00,10,82,00,00,
14477101,00000012,false,Rx,0,8,FD,4F,07,00,01,D3,07,00,
14478684,00000013,false,Rx,0,8,C2,5E,04,00,F5,0E,02,00,
14479983,00000014,false,Rx,0,4,F1,06,45,03,00,00,00,00,
14531987,00000011,false,Rx,0,8,48,17,00,00,10,82,00,00,
14533594,00000012,false,Rx,0,8,FD,4F,07,00,01,D3,07,00,
14535153,00000013,false,Rx,0,8,C2,5E,04,00,F5,0E,02,00,
14536507,00000014,false,Rx,0,4,F1,06,45,03,00,00,00,00,
14588701,00000011,false,Rx,0,8,48,17,00,00,D5,81,00,00,
14590085,00000012,false,Rx,0,8,FD,4F,07,00,69,CF,07,00,
14591682,00000013,false,Rx,0,8,C2,5E,04,00,53,0E,02,00,
14593114,00000014,false,Rx,0,4,F1,06,44,03,00,00,00,00,
14644927,00000011,false,Rx,0,8,48,17,00,00,D5,81,00,00,
14646563,00000012,false,Rx,0,8,FD,4F,07,00,69,CF,07,00,
14648138,00000013,false,Rx,0,8,C2,5E,04,00,53,0E,02,00,
14649424,00000014,false,Rx,0,4,F1,06,44,03,00,00,00,00,
14701429,00000011,false,Rx,0,8,48,17,00,00,D5,81,00,00,
14703011,00000012,false,Rx,0,8,FD,4F,07,00,69,CF,07,00,
14704585,00000013,false,Rx,0,8,C2,5E,04,00,53,0E,02,00,
14705891,00000014,false,Rx,0,4,F1,06,44,03,00,00,00,00,
14758122,00000011,false,Rx,0,8,48,17,00,00,5D,81,00,00,
14759606,00000012,false,Rx,0,8,FD,4F,07,00,3B,C8,07,00,
14761037,00000013,false,Rx,0,8,C2,5E,04,00,11,0D,02,00,
14762368,00000014,false,Rx,0,4,F1,06,42,03,00,00,00,00,
14814354,00000011,false,Rx,0,8,48,17,00,00,5D,81,00,00,
14815973,00000012,false,Rx,0,8,FD,4F,07,00,3B,C8,07,00,
14817520,00000013,false,Rx,0,8,C2,5E,04,00,11,0D,02,00,
14818814,00000014,false,Rx,0,4,F1,06,42,03,00,00,00,00,
14870767,00000011,false,Rx,0,8,50,17,00,00,5D,81,00,00,
14872514,00000012,false,Rx,0,8,7D,52,07,00,3B,C8,07,00,
14873963,00000013,false,Rx,0,8,05,60,04,00,11,0D,02,00,
14875258,00000014,false,Rx,0,4,F3,06,42,03,00,00,00,00,
14927247,00000011,false,Rx,0,8,50,17,00,00,5D,81,00,00,
14928888,00000012,false,Rx,0,8,7D,52,07,00,3B,C8,07,00,
14930453,00000013,false,Rx,0,8,05,60,04,00,11,0D,02,00,
14931715,00000014,false,Rx,0,4,F3,06,42,03,00,00,00,00,
14983731,00000011,false,Rx,0,8,50,17,00,00,21,81,00,00,
14985324,00000012,false,Rx,0,8,7D,52,07,00,A4,C4,07,00,
14986861,00000013,false,Rx,0,8,05,60,04,00,70,0C,02,00,
14988280,00000014,false,Rx,0,4,F3,06,41,03,00,00,00,00,
15040193,00000011,false,Rx,0,8,50,17,00,00,21,81,00,00,
15041757,00000012,false,Rx,0,8,7D,52,07,00,A4,C4,07,00,
15043305,00000013,false,Rx,0,8,05,60,04,00,70,0C,02,00,
15044612,00000014,false,Rx,0,4,F3,06,41,03,00,00,00,00,
15096595,00000011,false,Rx,0,8,34,17,00,00,21,81,00,00,
15098217,00000012,false,Rx,0,8,BD,49,07,00,A4,C4,07,00,
15099799,00000013,false,Rx,0,8,9D,5B,04,00,70,0C,02,00,
15101099,00000014,false,Rx,0,4,EC,06,41,03,00,00,00,00,
15153085,00000011,false,Rx,0,8,58,17,00,00,21,81,00,00,
15154665,00000012,false,Rx,0,8,FD,54,07,00,A4,C4,07,00,
15156253,00000013,false,Rx,0,8,47,61,04,00,70,0C,02,00,
15157677,00000014,false,Rx,0,4,F5,06,41,03,00,00,00,00,
15209666,00000011,false,Rx,0,8,50,17,00,00,E6,80,00,00,
15211118,00000012,false,Rx,0,8,7D,52,07,00,0C,C1,07,00,
15212664,00000013,false,Rx,0,8,05,60,04,00,CF,0B,02,00,
15213964,00000014,false,Rx,0,4,F3,06,40,03,00,00,00,00,
15265941,00000011,false,Rx,0,8,41,16,00,00,3C,7C,00,00,
15267570,00000012,false,Rx,0,8,80,FD,06,00,3B,79,07,00,
15269248,00000013,false,Rx,0,8,35,35,04,00,37,FF,01,00,
15270530,00000014,false,Rx,0,4,AF,06,2C,03,00,00,00,00,
15322418,00000011,false,Rx,0,8,00,17,00,00,CA,58,00,00,
15324010,00000012,false,Rx,0,8,7E,39,07,00,69,57,05,00,
15325816,00000013,false,Rx,0,8,6D,53,04,00,85,9F,01,00,
15326871,00000014,false,Rx,0,4,DF,06,94,02,00,00,00,00,
15378816,00000011,false,Rx,0,8,48,17,00,00,35,3E,00,00,
15380439,00000012,false,Rx,0,8,FD,4F,07,00,0B,BE,03,00,
15381985,00000013,false,Rx,0,8,C2,5E,04,00,BF,57,01,00,
15383283,00000014,false,Rx,0,4,F1,06,22,02,00,00,00,00,
15435269,00000011,false,Rx,0,8,60,17,00,00,28,2A,00,00,
15437138,00000012,false,Rx,0,8,7D,57,07,00,39,89,02,00,
15438487,00000013,false,Rx,0,8,89,62,04,00,9B,21,01,00,
15439735,00000014,false,Rx,0,4,F7,06,CC,01,00,00,00,00,
15491745,00000011,false,Rx,0,8,6C,17,00,00,EE,1B,00,00,
15493449,00000012,false,Rx,0,8,3D,5B,07,00,2D,AE,01,00,
15494916,00000013,false,Rx,0,8,6D,64,04,00,33,FB,00,00,
15496165,00000014,false,Rx,0,4,FA,06,8F,01,00,00,00,00,
15548172,00000011,false,Rx,0,8,70,17,00,00,82,10,00,00,
15549787,00000012,false,Rx,0,8,7D,5C,07,00,38,FE,00,00,
15551374,00000013,false,Rx,0,8,0E,65,04,00,5A,DC,00,00,
15552820,00000014,false,Rx,0,4,FB,06,5E,01,00,00,00,00,
15604874,00000011,false,Rx,0,8,78,17,00,00,58,08,00,00,
15606263,00000012,false,Rx,0,8,FC,5E,07,00,8A,80,00,00,
15607815,00000013,false,Rx,0,8,51,66,04,00,51,C6,00,00,
15609338,00000014,false,Rx,0,4,FD,06,3B,01,00,00,00,00,
15661085,00000011,false,Rx,0,8,7C,17,00,00,EA,03,00,00,
15662706,00000012,false,Rx,0,8,3C,60,07,00,4F,3C,00,00,
15664237,00000013,false,Rx,0,8,F2,66,04,00,5A,BA,00,00,
15665515,00000014,false,Rx,0,4,FE,06,28,01,00,00,00,00,
15717557,00000011,false,Rx,0,8,80,17,00,00,0D,02,00,00,
15719418,00000012,false,Rx,0,8,7C,61,07,00,95,1F,00,00,
15720969,00000013,false,Rx,0,8,93,67,04,00,51,B5,00,00,
15721986,00000014,false,Rx,0,4,FF,06,20,01,00,00,00,00,
15774240,00000011,false,Rx,0,8,88,17,00,00,59,01,00,00,
15775868,00000012,false,Rx,0,8,FC,63,07,00,CF,14,00,00,
15777141,00000013,false,Rx,0,8,D5,68,04,00,6E,B3,00,00,
15778438,00000014,false,Rx,0,4,01,07,1D,01,00,00,00,00,
15830446,00000011,false,Rx,0,8,88,17,00,00,E2,00,00,00,
15832039,00000012,false,Rx,0,8,FC,63,07,00,A1,0D,00,00,
15833613,00000013,false,Rx,0,8,D5,68,04,00,2B,B2,00,00,
15834945,00000014,false,Rx,0,4,01,07,1B,01,00,00,00,00,
15886906,00000011,false,Rx,0,8,88,17,00,00,E2,00,00,00,
15888772,00000012,false,Rx,0,8,FC,63,07,00,A1,0D,00,00,
15890094,00000013,false,Rx,0,8,D5,68,04,00,2B,B2,00,00,
15891416,00000014,false,Rx,0,4,01,07,1B,01,00,00,00,00,
15943360,00000011,false,Rx,0,8,90,17,00,00,E2,00,00,00,
15944978,00000012,false,Rx,0,8,7C,66,07,00,A1,0D,00,00,
15946522,00000013,false,Rx,0,8,18,6A,04,00,2B,B2,00,00,
15947829,00000014,false,Rx,0,4,03,07,1B,01,00,00,00,00,
15999805,00000011,false,Rx,0,8,8C,17,00,00,E2,00,00,00,
16001395,00000012,false,Rx,0,8,3C,65,07,00,A1,0D,00,00,
16002944,00000013,false,Rx,0,8,76,69,04,00,2B,B2,00,00,
16004238,00000014,false,Rx,0,4,02,07,1B,01,00,00,00,00,
16056341,00000011,false,Rx,0,8,94,17,00,00,1E,01,00,00,
16058036,00000012,false,Rx,0,8,BC,67,07,00,38,11,00,00,
16059584,00000013,false,Rx,0,8,B9,6A,04,00,CC,B2,00,00,
16060753,00000014,false,Rx,0,4,04,07,1C,01,00,00,00,00,
16112729,00000011,false,Rx,0,8,90,17,00,00,1E,01,00,00,
16114351,00000012,false,Rx,0,8,7C,66,07,00,38,11,00,00,
16115922,00000013,false,Rx,0,8,18,6A,04,00,CC,B2,00,00,
16117222,00000014,false,Rx,0,4,03,07,1C,01,00,00,00,00,
16169207,00000011,false,Rx,0,8,94,17,00,00,E2,00,00,00,
16170804,00000012,false,Rx,0,8,BC,67,07,00,A1,0D,00,00,
16172376,00000013,false,Rx,0,8,B9,6A,04,00,2B,B2,00,00,
16173671,00000014,false,Rx,0,4,04,07,1B,01,00,00,00,00,
16225701,00000011,false,Rx,0,8,98,17,00,00,1E,01,00,00,
16227246,00000012,false,Rx,0,8,FC,68,07,00,38,11,00,00,
16228798,00000013,false,Rx,0,8,5A,6B,04,00,CC,B2,00,00,
16230139,00000014,false,Rx,0,4,05,07,1C,01,00,00,00,00,
16282122,00000011,false,Rx,0,8,98,17,00,00,E2,00,00,00,
16283718,00000012,false,Rx,0,8,FC,68,07,00,A1,0D,00,00,
16285278,00000013,false,Rx,0,8,5A,6B,04,00,2B,B2,00,00,
16286591,00000014,false,Rx,0,4,05,07,1B,01,00,00,00,00,
16338612,00000011,false,Rx,0,8,98,17,00,00,E2,00,00,00,
16340215,00000012,false,Rx,0,8,FC,68,07,00,A1,0D,00,00,
16341737,00000013,false,Rx,0,8,5A,6B,04,00,2B,B2,00,00,
16343031,00000014,false,Rx,0,4,05,07,1B,01,00,00,00,00,
16395082,00000011,false,Rx,0,8,98,17,00,00,E2,00,00,00,
16396677,00000012,false,Rx,0,8,FC,68,07,00,A1,0D,00,00,
16398247,00000013,false,Rx,0,8,5A,6B,04,00,2B,B2,00,00,
16399521,00000014,false,Rx,0,4,05,07,1B,01,00,00,00,00,
16451611,00000011,false,Rx,0,8,9C,17,00,00,E2,00,00,00,
16453376,00000012,false,Rx,0,8,3C,6A,07,00,A1,0D,00,00,
16455032,00000013,false,Rx,0,8,FB,6B,04,00,2B,B2,00,00,
16456244,00000014,false,Rx,0,4,06,07,1B,01,00,00,00,00,
16508131,00000011,false,Rx,0,8,94,17,00,00,E2,00,00,00,
16509731,00000012,false,Rx,0,8,BC,67,07,00,A1,0D,00,00,
16511249,00000013,false,Rx,0,8,B9,6A,04,00,2B,B2,00,00,
16512548,00000014,false,Rx,0,4,04,07,1B,01,00,00,00,00,
16564628,00000011,false,Rx,0,8,12,10,00,00,B8,2C,00,00,
16566226,00000012,false,Rx,0,8,11,0C,05,00,B9,B0,02,00,
16567796,00000013,false,Rx,0,8,A3,3A,03,00,88,28,01,00,
16569078,00000014,false,Rx,0,4,21,05,D7,01,00,00,00,00,
16621218,00000011,false,Rx,0,8,12,16,00,00,55,7E,00,00,
16622733,00000012,false,Rx,0,8,80,EE,06,00,8C,99,07,00,
16624296,00000013,false,Rx,0,8,A7,2D,04,00,E2,04,02,00,
16625674,00000014,false,Rx,0,4,A3,06,35,03,00,00,00,00,
16677607,00000011,false,Rx,0,8,BB,17,00,00,07,86,00,00,
16679149,00000012,false,Rx,0,8,3C,74,07,00,0C,10,08,00,
16680756,00000013,false,Rx,0,8,04,71,04,00,A9,19,02,00,
16682048,00000014,false,Rx,0,4,0E,07,56,03,00,00,00,00,
16734303,00000011,false,Rx,0,8,A0,17,00,00,54,85,00,00,
16735932,00000012,false,Rx,0,8,7C,6B,07,00,47,05,08,00,
16737511,00000013,false,Rx,0,8,9C,6C,04,00,C5,17,02,00,
16738809,00000014,false,Rx,0,4,07,07,53,03,00,00,00,00,
16790585,00000011,false,Rx,0,8,84,17,00,00,A1,84,00,00,
16792176,00000012,false,Rx,0,8,BC,62,07,00,81,FA,07,00,
16793743,00000013,false,Rx,0,8,34,68,04,00,E1,15,02,00,
16795004,00000014,false,Rx,0,4,00,07,50,03,00,00,00,00,
16847025,00000011,false,Rx,0,8,6C,17,00,00,65,84,00,00,
16848638,00000012,false,Rx,0,8,3D,5B,07,00,E9,F6,07,00,
16850185,00000013,false,Rx,0,8,6D,64,04,00,40,15,02,00,
16851511,00000014,false,Rx,0,4,FA,06,4F,03,00,00,00,00,
16903629,00000011,false,Rx,0,8,60,17,00,00,EE,83,00,00,
16905368,00000012,false,Rx,0,8,7D,57,07,00,BB,EF,07,00,
16906727,00000013,false,Rx,0,8,89,62,04,00,FE,13,02,00,
16908002,00000014,false,Rx,0,4,F7,06,4D,03,00,00,00,00,
16960016,00000011,false,Rx,0,8,58,17,00,00,B2,83,00,00,
16961608,00000012,false,Rx,0,8,FD,54,07,00,24,EC,07,00,
16963213,00000013,false,Rx,0,8,47,61,04,00,5D,13,02,00,
16964453,00000014,false,Rx,0,4,F5,06,4C,03,00,00,00,00,
17016508,00000011,false,Rx,0,8,54,17,00,00,76,83,00,00,
17018134,00000012,false,Rx,0,8,BD,53,07,00,8C,E8,07,00,
17019927,00000013,false,Rx,0,8,A6,60,04,00,BC,12,02,00,
17020993,00000014,false,Rx,0,4,F4,06,4B,03,00,00,00,00,
17073121,00000011,false,Rx,0,8,50,17,00,00,3B,83,00,00,
17074857,00000012,false,Rx,0,8,7D,52,07,00,F5,E4,07,00,
17076275,00000013,false,Rx,0,8,05,60,04,00,1A,12,02,00,
17077438,00000014,false,Rx,0,4,F3,06,4A,03,00,00,00,00,
17129484,00000011,false,Rx,0,8,4C,17,00,00,FF,82,00,00,
17131078,00000012,false,Rx,0,8,3D,51,07,00,5E,E1,07,00,
17132653,00000013,false,Rx,0,8,64,5F,04,00,79,11,02,00,
17134200,00000014,false,Rx,0,4,F2,06,49,03,00,00,00,00,
17186179,00000011,false,Rx,0,8,4C,17,00,00,FF,82,00,00,
17187656,00000012,false,Rx,0,8,3D,51,07,00,5E,E1,07,00,
17189283,00000013,false,Rx,0,8,64,5F,04,00,79,11,02,00,
17190459,00000014,false,Rx,0,4,F2,06,49,03,00,00,00,00,
17242553,00000011,false,Rx,0,8,48,17,00,00,C3,82,00,00,
17244047,00000012,false,Rx,0,8,FD,4F,07,00,C7,DD,07,00,
17245595,00000013,false,Rx,0,8,C2,5E,04,00,D8,10,02,00,
17246882,00000014,false,Rx,0,4,F1,06,48,03,00,00,00,00,
17298861,00000011,false,Rx,0,8,48,17,00,00,C3,82,00,00,
17300500,00000012,false,Rx,0,8,FD,4F,07,00,C7,DD,07,00,
17302079,00000013,false,Rx,0,8,C2,5E,04,00,D8,10,02,00,
17303356,00000014,false,Rx,0,4,F1,06,48,03,00,00,00,00,
17355365,00000011,false,Rx,0,8,4C,17,00,00,88,82,00,00,
17357142,00000012,false,Rx,0,8,3D,51,07,00,2F,DA,07,00,
17358784,00000013,false,Rx,0,8,64,5F,04,00,37,10,02,00,
17359812,00000014,false,Rx,0,4,F2,06,47,03,00,00,00,00,
17411837,00000011,false,Rx,0,8,50,17,00,00,88,82,00,00,
17413434,00000012,false,Rx,0,8,7D,52,07,00,2F,DA,07,00,
17415032,00000013,false,Rx,0,8,05,60,04,00,37,10,02,00,
17416307,00000014,false,Rx,0,4,F3,06,47,03,00,00,00,00,
17468462,00000011,false,Rx,0,8,50,17,00,00,4C,82,00,00,
17469943,00000012,false,Rx,0,8,7D,52,07,00,98,D6,07,00,
17471557,00000013,false,Rx,0,8,05,60,04,00,96,0F,02,00,
17472956,00000014,false,Rx,0,4,F3,06,46,03,00,00,00,00,
17524956,00000011,false,Rx,0,8,50,17,00,00,FF,82,00,00,
17526436,00000012,false,Rx,0,8,7D,52,07,00,5E,E1,07,00,
17528039,00000013,false,Rx,0,8,05,60,04,00,79,11,02,00,
17529291,00000014,false,Rx,0,4,F3,06,49,03,00,00,00,00,
17581320,00000011,false,Rx,0,8,50,17,00,00,3B,83,00,00,
17582914,00000012,false,Rx,0,8,7D,52,07,00,F5,E4,07,00,
17584487,00000013,false,Rx,0,8,05,60,04,00,1A,12,02,00,
17585827,00000014,false,Rx,0,4,F3,06,4A,03,00,00,00,00,
17637776,00000011,false,Rx,0,8,54,17,00,00,10,82,00,00,
17639410,00000012,false,Rx,0,8,BD,53,07,00,01,D3,07,00,
17640952,00000013,false,Rx,0,8,A6,60,04,00,F5,0E,02,00,
17642237,00000014,false,Rx,0,4,F4,06,45,03,00,00,00,00,
17694233,00000011,false,Rx,0,8,54,17,00,00,10,82,00,00,
17695841,00000012,false,Rx,0,8,BD,53,07,00,01,D3,07,00,
17697414,00000013,false,Rx,0,8,A6,60,04,00,F5,0E,02,00,
17698689,00000014,false,Rx,0,4,F4,06,45,03,00,00,00,00,
17750724,00000011,false,Rx,0,8,58,17,00,00,10,82,00,00,
17752379,00000012,false,Rx,0,8,FD,54,07,00,01,D3,07,00,
17753888,00000013,false,Rx,0,8,47,61,04,00,F5,0E,02,00,
17755211,00000014,false,Rx,0,4,F5,06,45,03,00,00,00,00,
17807218,00000011,false,Rx,0,8,5C,17,00,00,D5,81,00,00,
17809037,00000012,false,Rx,0,8,3D,56,07,00,69,CF,07,00,
17810377,00000013,false,Rx,0,8,E8,61,04,00,53,0E,02,00,
17811670,00000014,false,Rx,0,4,F6,06,44,03,00,00,00,00,
17863672,00000011,false,Rx,0,8,60,17,00,00,D5,81,00,00,
17865265,00000012,false,Rx,0,8,7D,57,07,00,69,CF,07,00,
17866841,00000013,false,Rx,0,8,89,62,04,00,53,0E,02,00,
17868139,00000014,false,Rx,0,4,F7,06,44,03,00,00,00,00,
17920122,00000011,false,Rx,0,8,60,17,00,00,D5,81,00,00,
17921772,00000012,false,Rx,0,8,7D,57,07,00,69,CF,07,00,
17923316,00000013,false,Rx,0,8,89,62,04,00,53,0E,02,00,
17924707,00000014,false,Rx,0,4,F7,06,44,03,00,00,00,00,
17976651,00000011,false,Rx,0,8,64,17,00,00,99,81,00,00,
17978218,00000012,false,Rx,0,8,BD,58,07,00,D2,CB,07,00,
17979793,00000013,false,Rx,0,8,2B,63,04,00,B2,0D,02,00,
17981090,00000014,false,Rx,0,4,F8,06,43,03,00,00,00,00,
18033075,00000011,false,Rx,0,8,68,17,00,00,D5,81,00,00,
18034705,00000012,false,Rx,0,8,FD,59,07,00,69,CF,07,00,
18036283,00000013,false,Rx,0,8,CC,63,04,00,53,0E,02,00,
18037682,00000014,false,Rx,0,4,F9,06,44,03,00,00,00,00,
18089685,00000011,false,Rx,0,8,6C,17,00,00,99,81,00,00,
18091373,00000012,false,Rx,0,8,3D,5B,07,00,D2,CB,07,00,
18092764,00000013,false,Rx,0,8,6D,64,04,00,B2,0D,02,00,
18094029,00000014,false,Rx,0,4,FA,06,43,03,00,00,00,00,
18146064,00000011,false,Rx,0,8,6C,17,00,00,99,81,00,00,
18147671,00000012,false,Rx,0,8,3D,5B,07,00,D2,CB,07,00,
18149207,00000013,false,Rx,0,8,6D,64,04,00,B2,0D,02,00,
18150505,00000014,false,Rx,0,4,FA,06,43,03,00,00,00,00,
18202664,00000011,false,Rx,0,8,70,17,00,00,99,81,00,00,
18204231,00000012,false,Rx,0,8,7D,5C,07,00,D2,CB,07,00,
18205712,00000013,false,Rx,0,8,0E,65,04,00,B2,0D,02,00,
18207221,00000014,false,Rx,0,4,FB,06,43,03,00,00,00,00,
18259215,00000011,false,Rx,0,8,41,16,00,00,55,7E,00,00,
18260606,00000012,false,Rx,0,8,80,FD,06,00,8C,99,07,00,
18262184,00000013,false,Rx,0,8,35,35,04,00,E2,04,02,00,
18263479,00000014,false,Rx,0,4,AF,06,35,03,00,00,00,00,
18315478,00000011,false,Rx,0,8,00,17,00,00,A8,5A,00,00,
18317069,00000012,false,Rx,0,8,7E,39,07,00,23,74,05,00,
18318893,00000013,false,Rx,0,8,6D,53,04,00,8F,A4,01,00,
18320169,00000014,false,Rx,0,4,DF,06,9C,02,00,00,00,00,
18371950,00000011,false,Rx,0,8,48,17,00,00,D7,3F,00,00,
18373633,00000012,false,Rx,0,8,FD,4F,07,00,2E,D7,03,00,
18375351,00000013,false,Rx,0,8,C2,5E,04,00,28,5C,01,00,
18376401,00000014,false,Rx,0,4,F1,06,29,02,00,00,00,00,
18428353,00000011,false,Rx,0,8,5C,17,00,00,8E,2B,00,00,
18429973,00000012,false,Rx,0,8,3D,56,07,00,C4,9E,02,00,
18431549,00000013,false,Rx,0,8,E8,61,04,00,62,25,01,00,
18432821,00000014,false,Rx,0,4,F6,06,D2,01,00,00,00,00,
18485006,00000011,false,Rx,0,8,6C,17,00,00,DD,1C,00,00,
18486448,00000012,false,Rx,0,8,3D,5B,07,00,8A,BC,01,00,
18488018,00000013,false,Rx,0,8,6D,64,04,00,B8,FD,00,00,
18489552,00000014,false,Rx,0,4,FA,06,93,01,00,00,00,00,
18541463,00000011,false,Rx,0,8,78,17,00,00,F9,10,00,00,
18542898,00000012,false,Rx,0,8,FC,5E,07,00,67,05,01,00,
18544447,00000013,false,Rx,0,8,51,66,04,00,9C,DD,00,00,
18545750,00000014,false,Rx,0,4,FD,06,60,01,00,00,00,00,
18597753,00000011,false,Rx,0,8,7C,17,00,00,D0,08,00,00,
18599347,00000012,false,Rx,0,8,3C,60,07,00,B8,87,00,00,
18600928,00000013,false,Rx,0,8,F2,66,04,00,93,C7,00,00,
18602222,00000014,false,Rx,0,4,FE,06,3D,01,00,00,00,00,
18654253,00000011,false,Rx,0,8,80,17,00,00,EA,03,00,00,
18655848,00000012,false,Rx,0,8,7C,61,07,00,4F,3C,00,00,
18657662,00000013,false,Rx,0,8,93,67,04,00,5A,BA,00,00,
18658948,00000014,false,Rx,0,4,FF,06,28,01,00,00,00,00,
18710704,00000011,false,Rx,0,8,88,17,00,00,95,01,00,00,
18712307,00000012,false,Rx,0,8,FC,63,07,00,66,18,00,00,
18713873,00000013,false,Rx,0,8,D5,68,04,00,0F,B4,00,00,
18715176,00000014,false,Rx,0,4,01,07,1E,01,00,00,00,00,
18767208,00000011,false,Rx,0,8,90,17,00,00,1E,01,00,00,
18769025,00000012,false,Rx,0,8,7C,66,07,00,38,11,00,00,
18770372,00000013,false,Rx,0,8,18,6A,04,00,CC,B2,00,00,
18771669,00000014,false,Rx,0,4,03,07,1C,01,00,00,00,00,
18823705,00000011,false,Rx,0,8,94,17,00,00,1E,01,00,00,
18825460,00000012,false,Rx,0,8,BC,67,07,00,38,11,00,00,
18826866,00000013,false,Rx,0,8,B9,6A,04,00,CC,B2,00,00,
18828154,00000014,false,Rx,0,4,04,07,1C,01,00,00,00,00,
18880157,00000011,false,Rx,0,8,94,17,00,00,E2,00,00,00,
18881758,00000012,false,Rx,0,8,BC,67,07,00,A1,0D,00,00,
18883330,00000013,false,Rx,0,8,B9,6A,04,00,2B,B2,00,00,
18884632,00000014,false,Rx,0,4,04,07,1B,01,00,00,00,00,
18936611,00000011,false,Rx,0,8,98,17,00,00,1E,01,00,00,
18938476,00000012,false,Rx,0,8,FC,68,07,00,38,11,00,00,
18940053,00000013,false,Rx,0,8,5A,6B,04,00,CC,B2,00,00,
18941172,00000014,false,Rx,0,4,05,07,1C,01,00,00,00,00,
18993087,00000011,false,Rx,0,8,98,17,00,00,E2,00,00,00,
18994677,00000012,false,Rx,0,8,FC,68,07,00,A1,0D,00,00,
18996254,00000013,false,Rx,0,8,5A,6B,04,00,2B,B2,00,00,
18997558,00000014,false,Rx,0,4,05,07,1B,01,00,00,00,00,
19049562,00000011,false,Rx,0,8,98,17,00,00,E2,00,00,00,
19051423,00000012,false,Rx,0,8,FC,68,07,00,A1,0D,00,00,
19053006,00000013,false,Rx,0,8,5A,6B,04,00,2B,B2,00,00,
19054051,00000014,false,Rx,0,4,05,07,1B,01,00,00,00,00,
19106071,00000011,false,Rx,0,8,9C,17,00,00,E2,00,00,00,
19107673,00000012,false,Rx,0,8,3C,6A,07,00,A1,0D,00,00,
19109235,00000013,false,Rx,0,8,FB,6B,04,00,2B,B2,00,00,
19110555,00000014,false,Rx,0,4,06,07,1B,01,00,00,00,00,
19162560,00000011,false,Rx,0,8,98,17,00,00,A6,00,00,00,
19164128,00000012,false,Rx,0,8,FC,68,07,00,09,0A,00,00,
19165708,00000013,false,Rx,0,8,5A,6B,04,00,8A,B1,00,00,
19167009,00000014,false,Rx,0,4,05,07,1A,01,00,00,00,00,
19219234,00000011,false,Rx,0,8,A0,17,00,00,E2,00,00,00,
19220858,00000012,false,Rx,0,8,7C,6B,07,00,A1,0D,00,00,
19222183,00000013,false,Rx,0,8,9C,6C,04,00,2B,B2,00,00,
19223453,00000014,false,Rx,0,4,07,07,1B,01,00,00,00,00,
19275556,00000011,false,Rx,0,8,A0,17,00,00,A6,00,00,00,
19277059,00000012,false,Rx,0,8,7C,6B,07,00,09,0A,00,00,
19278604,00000013,false,Rx,0,8,9C,6C,04,00,8A,B1,00,00,
19279901,00000014,false,Rx,0,4,07,07,1A,01,00,00,00,00,
19331884,00000011,false,Rx,0,8,A0,17,00,00,E2,00,00,00,
19333575,00000012,false,Rx,0,8,7C,6B,07,00,A1,0D,00,00,
19335110,00000013,false,Rx,0,8,9C,6C,04,00,2B,B2,00,00,
19336632,00000014,false,Rx,0,4,07,07,1B,01,00,00,00,00,
19388668,00000011,false,Rx,0,8,A0,17,00,00,E2,00,00,00,
19390017,00000012,false,Rx,0,8,7C,6B,07,00,A1,0D,00,00,
19391604,00000013,false,Rx,0,8,9C,6C,04,00,2B,B2,00,00,
19392884,00000014,false,Rx,0,4,07,07,1B,01,00,00,00,00,
19444871,00000011,false,Rx,0,8,A0,17,00,00,E2,00,00,00,
19446502,00000012,false,Rx,0,8,7C,6B,07,00,A1,0D,00,00,
19448076,00000013,false,Rx,0,8,9C,6C,04,00,2B,B2,00,00,
19449546,00000014,false,Rx,0,4,07,07,1B,01,00,00,00,00,
19501547,00000011,false,Rx,0,8,A4,17,00,00,E2,00,00,00,
19503234,00000012,false,Rx,0,8,BC,6C,07,00,A1,0D,00,00,
19504808,00000013,false,Rx,0,8,3D,6D,04,00,2B,B2,00,00,
19505835,00000014,false,Rx,0,4,08,07,1B,01,00,00,00,00,
19558077,00000011,false,Rx,0,8,A0,17,00,00,E2,00,00,00,
19559472,00000012,false,Rx,0,8,7C,6B,07,00,A1,0D,00,00,
19561008,00000013,false,Rx,0,8,9C,6C,04,00,2B,B2,00,00,
19562319,00000014,false,Rx,0,4,07,07,1B,01,00,00,00,00,
19614313,00000011,false,Rx,0,8,A4,17,00,00,A6,00,00,00,
19615907,00000012,false,Rx,0,8,BC,6C,07,00,09,0A,00,00,
19617530,00000013,false,Rx,0,8,3D,6D,04,00,8A,B1,00,00,
19618807,00000014,false,Rx,0,4,08,07,1A,01,00,00,00,00,
19670843,00000011,false,Rx,0,8,A4,17,00,00,A6,00,00,00,
19672441,00000012,false,Rx,0,8,BC,6C,07,00,09,0A,00,00,
19674019,00000013,false,Rx,0,8,3D,6D,04,00,8A,B1,00,00,
19675369,00000014,false,Rx,0,4,08,07,1A,01,00,00,00,00,
19727312,00000011,false,Rx,0,8,A8,17,00,00,A6,00,00,00,
19728886,00000012,false,Rx,0,8,FC,6D,07,00,09,0A,00,00,
19730454,00000013,false,Rx,0,8,DF,6D,04,00,8A,B1,00,00,
19731752,00000014,false,Rx,0,4,09,07,1A,01,00,00,00,00,
19783736,00000011,false,Rx,0,8,A4,17,00,00,A6,00,00,00,
19785422,00000012,false,Rx,0,8,BC,6C,07,00,09,0A,00,00,
19786983,00000013,false,Rx,0,8,3D,6D,04,00,8A,B1,00,00,
19788286,00000014,false,Rx,0,4,08,07,1A,01,00,00,00,00,
19840266,00000011,false,Rx,0,8,A8,17,00,00,A6,00,00,00,
19841857,00000012,false,Rx,0,8,FC,6D,07,00,09,0A,00,00,
19843410,00000013,false,Rx,0,8,DF,6D,04,00,8A,B1,00,00,
19844689,00000014,false,Rx,0,4,09,07,1A,01,00,00,00,00,
19896687,00000011,false,Rx,0,8,A8,17,00,00,A6,00,00,00,
19898280,00000012,false,Rx,0,8,FC,6D,07,00,09,0A,00,00,
19899885,00000013,false,Rx,0,8,DF,6D,04,00,8A,B1,00,00,
19901245,00000014,false,Rx,0,4,09,07,1A,01,00,00,00,00,
19953317,00000011,false,Rx,0,8,A4,17,00,00,A6,00,00,00,
19954810,00000012,false,Rx,0,8,BC,6C,07,00,09,0A,00,00,
19956497,00000013,false,Rx,0,8,3D,6D,04,00,8A,B1,00,00,
19957684,00000014,false,Rx,0,4,08,07,1A,01,00,00,00,00,
20009659,00000011,false,Rx,0,8,A8,17,00,00,A6,00,00,00,
20011234,00000012,false,Rx,0,8,FC,6D,07,00,09,0A,00,00,
20012808,00000013,false,Rx,0,8,DF,6D,04,00,8A,B1,00,00,
20014082,00000014,false,Rx,0,4,09,07,1A,01,00,00,00,00,
20066086,00000011,false,Rx,0,8,A4,17,00,00,A6,00,00,00,
20067891,00000012,false,Rx,0,8,BC,6C,07,00,09,0A,00,00,
20069384,00000013,false,Rx,0,8,3D,6D,04,00,8A,B1,00,00,
20070611,00000014,false,Rx,0,4,08,07,1A,01,00,00,00,00,
20122538,00000011,false,Rx,0,8,A8,17,00,00,A6,00,00,00,
20124162,00000012,false,Rx,0,8,FC,6D,07,00,09,0A,00,00,
20125764,00000013,false,Rx,0,8,DF,6D,04,00,8A,B1,00,00,
20127036,00000014,false,Rx,0,4,09,07,1A,01,00,00,00,00,
20179015,00000011,false,Rx,0,8,A8,17,00,00,A6,00,00,00,
20180635,00000012,false,Rx,0,8,FC,6D,07,00,09,0A,00,00,
20182239,00000013,false,Rx,0,8,DF,6D,04,00,8A,B1,00,00,
20183517,00000014,false,Rx,0,4,09,07,1A,01,00,00,00,00,
20235628,00000011,false,Rx,0,8,A8,17,00,00,A6,00,00,00,
20237286,00000012,false,Rx,0,8,FC,6D,07,00,09,0A,00,00,
20238735,00000013,false,Rx,0,8,DF,6D,04,00,8A,B1,00,00,
20240013,00000014,false,Rx,0,4,09,07,1A,01,00,00,00,00,
20291971,00000011,false,Rx,0,8,A4,17,00,00,A6,00,00,00,
20293588,00000012,false,Rx,0,8,BC,6C,07,00,09,0A,00,00,
20295164,00000013,false,Rx,0,8,3D,6D,04,00,8A,B1,00,00,
20296434,00000014,false,Rx,0,4,08,07,1A,01,00,00,00,00,
20348468,00000011,false,Rx,0,8,68,11,00,00,4C,4E,00,00,
20350060,00000012,false,Rx,0,8,8D,77,05,00,D1,B5,04,00,
20351921,00000013,false,Rx,0,8,C7,70,03,00,30,83,01,00,
20353192,00000014,false,Rx,0,4,77,05,67,02,00,00,00,00,
20405124,00000011,false,Rx,0,8,DD,16,00,00,3B,83,00,00,
20406816,00000012,false,Rx,0,8,3E,2E,07,00,F5,E4,07,00,
20408430,00000013,false,Rx,0,8,C3,4D,04,00,1A,12,02,00,
20409438,00000014,false,Rx,0,4,D6,06,4A,03,00,00,00,00,
20461394,00000011,false,Rx,0,8,BF,17,00,00,54,85,00,00,
20463015,00000012,false,Rx,0,8,7C,75,07,00,47,05,08,00,
20464586,00000013,false,Rx,0,8,A6,71,04,00,C5,17,02,00,
20465886,00000014,false,Rx,0,4,0F,07,53,03,00,00,00,00,
20517993,00000011,false,Rx,0,8,9C,17,00,00,65,84,00,00,
20519564,00000012,false,Rx,0,8,3C,6A,07,00,E9,F6,07,00,
20521187,00000013,false,Rx,0,8,FB,6B,04,00,40,15,02,00,
20522390,00000014,false,Rx,0,4,06,07,4F,03,00,00,00,00,
20574556,00000011,false,Rx,0,8,80,17,00,00,29,84,00,00,
20575988,00000012,false,Rx,0,8,7C,61,07,00,52,F3,07,00,
20577592,00000013,false,Rx,0,8,93,67,04,00,9F,14,02,00,
20578872,00000014,false,Rx,0,4,FF,06,4E,03,00,00,00,00,
20630874,00000011,false,Rx,0,8,6C,17,00,00,B2,83,00,00,
20632470,00000012,false,Rx,0,8,3D,5B,07,00,24,EC,07,00,
20634292,00000013,false,Rx,0,8,6D,64,04,00,5D,13,02,00,
20635595,00000014,false,Rx,0,4,FA,06,4C,03,00,00,00,00,
20687352,00000011,false,Rx,0,8,60,17,00,00,3B,83,00,00,
20689142,00000012,false,Rx,0,8,7D,57,07,00,F5,E4,07,00,
20690745,00000013,false,Rx,0,8,89,62,04,00,1A,12,02,00,
20691806,00000014,false,Rx,0,4,F7,06,4A,03,00,00,00,00,
20743777,00000011,false,Rx,0,8,5C,17,00,00,3B,83,00,00,
20745396,00000012,false,Rx,0,8,3D,56,07,00,F5,E4,07,00,
20746970,00000013,false,Rx,0,8,E8,61,04,00,1A,12,02,00,
20748269,00000014,false,Rx,0,4,F6,06,4A,03,00,00,00,00,
20800282,00000011,false,Rx,0,8,50,17,00,00,FF,82,00,00,
20801872,00000012,false,Rx,0,8,7D,52,07,00,5E,E1,07,00,
20803446,00000013,false,Rx,0,8,05,60,04,00,79,11,02,00,
20804743,00000014,false,Rx,0,4,F3,06,49,03,00,00,00,00,
20856974,00000011,false,Rx,0,8,50,17,00,00,C3,82,00,00,
20858363,00000012,false,Rx,0,8,7D,52,07,00,C7,DD,07,00,
20859895,00000013,false,Rx,0,8,05,60,04,00,D8,10,02,00,
20861170,00000014,false,Rx,0,4,F3,06,48,03,00,00,00,00,
20913200,00000011,false,Rx,0,8,50,17,00,00,88,82,00,00,
20914793,00000012,false,Rx,0,8,7D,52,07,00,2F,DA,07,00,
20916375,00000013,false,Rx,0,8,05,60,04,00,37,10,02,00,
20917698,00000014,false,Rx,0,4,F3,06,47,03,00,00,00,00,
20969683,00000011,false,Rx,0,8,50,17,00,00,4C,82,00,00,
20971320,00000012,false,Rx,0,8,7D,52,07,00,98,D6,07,00,
20973103,00000013,false,Rx,0,8,05,60,04,00,96,0F,02,00,
20974421,00000014,false,Rx,0,4,F3,06,46,03,00,00,00,00,
21026143,00000011,false,Rx,0,8,50,17,00,00,4C,82,00,00,
21027778,00000012,false,Rx,0,8,7D,52,07,00,98,D6,07,00,
21029354,00000013,false,Rx,0,8,05,60,04,00,96,0F,02,00,
21030624,00000014,false,Rx,0,4,F3,06,46,03,00,00,00,00,
21082600,00000011,false,Rx,0,8,4C,17,00,00,4C,82,00,00,
21084220,00000012,false,Rx,0,8,3D,51,07,00,98,D6,07,00,
21085831,00000013,false,Rx,0,8,64,5F,04,00,96,0F,02,00,
21087123,00000014,false,Rx,0,4,F2,06,46,03,00,00,00,00,
21139156,00000011,false,Rx,0,8,4C,17,00,00,10,82,00,00,
21140735,00000012,false,Rx,0,8,3D,51,07,00,01,D3,07,00,
21142338,00000013,false,Rx,0,8,64,5F,04,00,F5,0E,02,00,
21143601,00000014,false,Rx,0,4,F2,06,45,03,00,00,00,00,
21195578,00000011,false,Rx,0,8,54,17,00,00,10,82,00,00,
21197203,00000012,false,Rx,0,8,BD,53,07,00,01,D3,07,00,
21198774,00000013,false,Rx,0,8,A6,60,04,00,F5,0E,02,00,
21200050,00000014,false,Rx,0,4,F4,06,45,03,00,00,00,00,
21252300,00000011,false,Rx,0,8,50,17,00,00,10,82,00,00,
21253703,00000012,false,Rx,0,8,7D,52,07,00,01,D3,07,00,
21255274,00000013,false,Rx,0,8,05,60,04,00,F5,0E,02,00,
21256558,00000014,false,Rx,0,4,F3,06,45,03,00,00,00,00,
21308483,00000011,false,Rx,0,8,54,17,00,00,D5,81,00,00,
21310137,00000012,false,Rx,0,8,BD,53,07,00,69,CF,07,00,
21311707,00000013,false,Rx,0,8,A6,60,04,00,53,0E,02,00,
21313006,00000014,false,Rx,0,4,F4,06,44,03,00,00,00,00,
21364986,00000011,false,Rx,0,8,54,17,00,00,D5,81,00,00,
21366579,00000012,false,Rx,0,8,BD,53,07,00,69,CF,07,00,
21368332,00000013,false,Rx,0,8,A6,60,04,00,53,0E,02,00,
21369618,00000014,false,Rx,0,4,F4,06,44,03,00,00,00,00,
21421405,00000011,false,Rx,0,8,54,17,00,00,99,81,00,00,
21423063,00000012,false,Rx,0,8,BD,53,07,00,D2,CB,07,00,
21424626,00000013,false,Rx,0,8,A6,60,04,00,B2,0D,02,00,
21425911,00000014,false,Rx,0,4,F4,06,43,03,00,00,00,00,
21477886,00000011,false,Rx,0,8,58,17,00,00,99,81,00,00,
21479481,00000012,false,Rx,0,8,FD,54,07,00,D2,CB,07,00,
21481074,00000013,false,Rx,0,8,47,61,04,00,B2,0D,02,00,
21482355,00000014,false,Rx,0,4,F5,06,43,03,00,00,00,00,
21534254,00000011,false,Rx,0,8,58,17,00,00,99,81,00,00,
21535878,00000012,false,Rx,0,8,FD,54,07,00,D2,CB,07,00,
21537451,00000013,false,Rx,0,8,47,61,04,00,B2,0D,02,00,
21538727,00000014,false,Rx,0,4,F5,06,43,03,00,00,00,00,
21590977,00000011,false,Rx,0,8,60,17,00,00,5D,81,00,00,
21592316,00000012,false,Rx,0,8,7D,57,07,00,3B,C8,07,00,
21593879,00000013,false,Rx,0,8,89,62,04,00,11,0D,02,00,
21595177,00000014,false,Rx,0,4,F7,06,42,03,00,00,00,00,
21647130,00000011,false,Rx,0,8,60,17,00,00,5D,81,00,00,
21648723,00000012,false,Rx,0,8,7D,57,07,00,3B,C8,07,00,
21650348,00000013,false,Rx,0,8,89,62,04,00,11,0D,02,00,
21651635,00000014,false,Rx,0,4,F7,06,42,03,00,00,00,00,
21703710,00000011,false,Rx,0,8,64,17,00,00,5D,81,00,00,
21705384,00000012,false,Rx,0,8,BD,58,07,00,3B,C8,07,00,
21706807,00000013,false,Rx,0,8,2B,63,04,00,11,0D,02,00,
21708077,00000014,false,Rx,0,4,F8,06,42,03,00,00,00,00,
21760009,00000011,false,Rx,0,8,68,17,00,00,21,81,00,00,
21761644,00000012,false,Rx,0,8,FD,59,07,00,A4,C4,07,00,
21763205,00000013,false,Rx,0,8,CC,63,04,00,70,0C,02,00,
21764501,00000014,false,Rx,0,4,F9,06,41,03,00,00,00,00,
21816534,00000011,false,Rx,0,8,68,17,00,00,21,81,00,00,
21818125,00000012,false,Rx,0,8,FD,59,07,00,A4,C4,07,00,
21819699,00000013,false,Rx,0,8,CC,63,04,00,70,0C,02,00,
21820969,00000014,false,Rx,0,4,F9,06,41,03,00,00,00,00,
21872996,00000011,false,Rx,0,8,6C,17,00,00,21,81,00,00,
21874609,00000012,false,Rx,0,8,3D,5B,07,00,A4,C4,07,00,
21876130,00000013,false,Rx,0,8,6D,64,04,00,70,0C,02,00,
21877458,00000014,false,Rx,0,4,FA,06,41,03,00,00,00,00,
21929409,00000011,false,Rx,0,8,6C,17,00,00,5D,81,00,00,
21931033,00000012,false,Rx,0,8,3D,5B,07,00,3B,C8,07,00,
21932784,00000013,false,Rx,0,8,6D,64,04,00,11,0D,02,00,
21933878,00000014,false,Rx,0,4,FA,06,42,03,00,00,00,00,
21985931,00000011,false,Rx,0,8,70,17,00,00,21,81,00,00,
21987551,00000012,false,Rx,0,8,7D,5C,07,00,A4,C4,07,00,
21989114,00000013,false,Rx,0,8,0E,65,04,00,70,0C,02,00,
21990502,00000014,false,Rx,0,4,FB,06,41,03,00,00,00,00,
22042388,00000011,false,Rx,0,8,70,17,00,00,E6,80,00,00,
22044010,00000012,false,Rx,0,8,7D,5C,07,00,0C,C1,07,00,
22045578,00000013,false,Rx,0,8,0E,65,04,00,CF,0B,02,00,
22046858,00000014,false,Rx,0,4,FB,06,40,03,00,00,00,00,
22098819,00000011,false,Rx,0,8,74,17,00,00,E6,80,00,00,
22100462,00000012,false,Rx,0,8,BD,5D,07,00,0C,C1,07,00,
22102041,00000013,false,Rx,0,8,AF,65,04,00,CF,0B,02,00,
22103338,00000014,false,Rx,0,4,FC,06,40,03,00,00,00,00,
22155351,00000011,false,Rx,0,8,78,17,00,00,E6,80,00,00,
22156951,00000012,false,Rx,0,8,FC,5E,07,00,0C,C1,07,00,
22158482,00000013,false,Rx,0,8,51,66,04,00,CF,0B,02,00,
22159785,00000014,false,Rx,0,4,FD,06,40,03,00,00,00,00,
22211790,00000011,false,Rx,0,8,78,17,00,00,E6,80,00,00,
22213411,00000012,false,Rx,0,8,FC,5E,07,00,0C,C1,07,00,
22214959,00000013,false,Rx,0,8,51,66,04,00,CF,0B,02,00,
22216262,00000014,false,Rx,0,4,FD,06,40,03,00,00,00,00,
22268269,00000011,false,Rx,0,8,7C,17,00,00,E6,80,00,00,
22269862,00000012,false,Rx,0,8,3C,60,07,00,0C,C1,07,00,
22271435,00000013,false,Rx,0,8,F2,66,04,00,CF,0B,02,00,
22272728,00000014,false,Rx,0,4,FE,06,40,03,00,00,00,00,
22324670,00000011,false,Rx,0,8,80,17,00,00,AA,80,00,00,
22326267,00000012,false,Rx,0,8,7C,61,07,00,75,BD,07,00,
22327870,00000013,false,Rx,0,8,93,67,04,00,2E,0B,02,00,
22329165,00000014,false,Rx,0,4,FF,06,3F,03,00,00,00,00,
22381168,00000011,false,Rx,0,8,80,17,00,00,AA,80,00,00,
22382779,00000012,false,Rx,0,8,7C,61,07,00,75,BD,07,00,
22384325,00000013,false,Rx,0,8,93,67,04,00,2E,0B,02,00,
22385598,00000014,false,Rx,0,4,FF,06,3F,03,00,00,00,00,
22437690,00000011,false,Rx,0,8,88,17,00,00,AA,80,00,00,
22439242,00000012,false,Rx,0,8,FC,63,07,00,75,BD,07,00,
22440805,00000013,false,Rx,0,8,D5,68,04,00,2E,0B,02,00,
22442070,00000014,false,Rx,0,4,01,07,3F,03,00,00,00,00,
22494081,00000011,false,Rx,0,8,84,17,00,00,AA,80,00,00,
22495670,00000012,false,Rx,0,8,BC,62,07,00,75,BD,07,00,
22497243,00000013,false,Rx,0,8,34,68,04,00,2E,0B,02,00,
22498566,00000014,false,Rx,0,4,00,07,3F,03,00,00,00,00,
22550523,00000011,false,Rx,0,8,88,17,00,00,AA,80,00,00,
22552167,00000012,false,Rx,0,8,FC,63,07,00,75,BD,07,00,
22553738,00000013,false,Rx,0,8,D5,68,04,00,2E,0B,02,00,
22555032,00000014,false,Rx,0,4,01,07,3F,03,00,00,00,00,
22607061,00000011,false,Rx,0,8,90,17,00,00,E6,80,00,00,
22608605,00000012,false,Rx,0,8,7C,66,07,00,0C,C1,07,00,
22610168,00000013,false,Rx,0,8,18,6A,04,00,CF,0B,02,00,
22611469,00000014,false,Rx,0,4,03,07,40,03,00,00,00,00,
22663450,00000011,false,Rx,0,8,90,17,00,00,AA,80,00,00,
22665043,00000012,false,Rx,0,8,7C,66,07,00,75,BD,07,00,
22666618,00000013,false,Rx,0,8,18,6A,04,00,2E,0B,02,00,
22667915,00000014,false,Rx,0,4,03,07,3F,03,00,00,00,00,
22719931,00000011,false,Rx,0,8,90,17,00,00,AA,80,00,00,
22721519,00000012,false,Rx,0,8,7C,66,07,00,75,BD,07,00,
22723094,00000013,false,Rx,0,8,18,6A,04,00,2E,0B,02,00,
22724403,00000014,false,Rx,0,4,03,07,3F,03,00,00,00,00,
22776337,00000011,false,Rx,0,8,90,17,00,00,AA,80,00,00,
22777918,00000012,false,Rx,0,8,7C,66,07,00,75,BD,07,00,
22779487,00000013,false,Rx,0,8,18,6A,04,00,2E,0B,02,00,
22780786,00000014,false,Rx,0,4,03,07,3F,03,00,00,00,00,
22832772,00000011,false,Rx,0,8,90,17,00,00,6E,80,00,00,
22834420,00000012,false,Rx,0,8,7C,66,07,00,DE,B9,07,00,
22836009,00000013,false,Rx,0,8,18,6A,04,00,8C,0A,02,00,
22837282,00000014,false,Rx,0,4,03,07,3E,03,00,00,00,00,
22889279,00000011,false,Rx,0,8,90,17,00,00,6E,80,00,00,
22891033,00000012,false,Rx,0,8,7C,66,07,00,DE,B9,07,00,
22892398,00000013,false,Rx,0,8,18,6A,04,00,8C,0A,02,00,
22893737,00000014,false,Rx,0,4,03,07,3E,03,00,00,00,00,
22945706,00000011,false,Rx,0,8,8C,17,00,00,6E,80,00,00,
22947332,00000012,false,Rx,0,8,3C,65,07,00,DE,B9,07,00,
22948884,00000013,false,Rx,0,8,76,69,04,00,8C,0A,02,00,
22950183,00000014,false,Rx,0,4,02,07,3E,03,00,00,00,00,
23002154,00000011,false,Rx,0,8,98,17,00,00,6E,80,00,00,
23003822,00000012,false,Rx,0,8,FC,68,07,00,DE,B9,07,00,
23005379,00000013,false,Rx,0,8,5A,6B,04,00,8C,0A,02,00,
23006681,00000014,false,Rx,0,4,05,07,3E,03,00,00,00,00,
23058609,00000011,false,Rx,0,8,94,17,00,00,33,80,00,00,
23060225,00000012,false,Rx,0,8,BC,67,07,00,46,B6,07,00,
23061813,00000013,false,Rx,0,8,B9,6A,04,00,EB,09,02,00,
23063099,00000014,false,Rx,0,4,04,07,3D,03,00,00,00,00,
23115130,00000011,false,Rx,0,8,94,17,00,00,6E,80,00,00,
23116723,00000012,false,Rx,0,8,BC,67,07,00,DE,B9,07,00,
23118325,00000013,false,Rx,0,8,B9,6A,04,00,8C,0A,02,00,
23119631,00000014,false,Rx,0,4,04,07,3E,03,00,00,00,00,
23171622,00000011,false,Rx,0,8,98,17,00,00,6E,80,00,00,
23173203,00000012,false,Rx,0,8,FC,68,07,00,DE,B9,07,00,
23174748,00000013,false,Rx,0,8,5A,6B,04,00,8C,0A,02,00,
23176085,00000014,false,Rx,0,4,05,07,3E,03,00,00,00,00,
23228079,00000011,false,Rx,0,8,98,17,00,00,6E,80,00,00,
23229695,00000012,false,Rx,0,8,FC,68,07,00,DE,B9,07,00,
23231245,00000013,false,Rx,0,8,5A,6B,04,00,8C,0A,02,00,
23232567,00000014,false,Rx,0,4,05,07,3E,03,00,00,00,00,
23284804,00000011,false,Rx,0,8,98,17,00,00,AA,80,00,00,
23286395,00000012,false,Rx,0,8,FC,68,07,00,75,BD,07,00,
23287978,00000013,false,Rx,0,8,5A,6B,04,00,2E,0B,02,00,
23289031,00000014,false,Rx,0,4,05,07,3F,03,00,00,00,00,
23341005,00000011,false,Rx,0,8,9C,17,00,00,6E,80,00,00,
23342631,00000012,false,Rx,0,8,3C,6A,07,00,DE,B9,07,00,
23344174,00000013,false,Rx,0,8,FB,6B,04,00,8C,0A,02,00,
23345499,00000014,false,Rx,0,4,06,07,3E,03,00,00,00,00,
23397482,00000011,false,Rx,0,8,98,17,00,00,33,80,00,00,
23399070,00000012,false,Rx,0,8,FC,68,07,00,46,B6,07,00,
23400760,00000013,false,Rx,0,8,5A,6B,04,00,EB,09,02,00,
23401977,00000014,false,Rx,0,4,05,07,3D,03,00,00,00,00,
23453963,00000011,false,Rx,0,8,9C,17,00,00,33,80,00,00,
23455622,00000012,false,Rx,0,8,3C,6A,07,00,46,B6,07,00,
23457375,00000013,false,Rx,0,8,FB,6B,04,00,EB,09,02,00,
23458412,00000014,false,Rx,0,4,06,07,3D,03,00,00,00,00,
23510408,00000011,false,Rx,0,8,9C,17,00,00,33,80,00,00,
23512026,00000012,false,Rx,0,8,3C,6A,07,00,46,B6,07,00,
23513596,00000013,false,Rx,0,8,FB,6B,04,00,EB,09,02,00,
23514860,00000014,false,Rx,0,4,06,07,3D,03,00,00,00,00,
23567103,00000011,false,Rx,0,8,A0,17,00,00,33,80,00,00,
23568728,00000012,false,Rx,0,8,7C,6B,07,00,46,B6,07,00,
23570050,00000013,false,Rx,0,8,9C,6C,04,00,EB,09,02,00,
23571373,00000014,false,Rx,0,4,07,07,3D,03,00,00,00,00,
23623607,00000011,false,Rx,0,8,A0,17,00,00,33,80,00,00,
23624933,00000012,false,Rx,0,8,7C,6B,07,00,46,B6,07,00,
23626527,00000013,false,Rx,0,8,9C,6C,04,00,EB,09,02,00,
23627803,00000014,false,Rx,0,4,07,07,3D,03,00,00,00,00,
23679831,00000011,false,Rx,0,8,26,16,00,00,6E,80,00,00,
23681422,00000012,false,Rx,0,8,C0,F4,06,00,DE,B9,07,00,
23682972,00000013,false,Rx,0,8,CD,30,04,00,8C,0A,02,00,
23684269,00000014,false,Rx,0,4,A8,06,3E,03,00,00,00,00,
23736304,00000011,false,Rx,0,8,79,16,00,00,A6,68,00,00,
23738145,00000012,false,Rx,0,8,FF,0E,07,00,97,4B,06,00,
23739592,00000013,false,Rx,0,8,06,3E,04,00,55,CA,01,00,
23740777,00000014,false,Rx,0,4,BD,06,D8,02,00,00,00,00,
23792758,00000011,false,Rx,0,8,E5,16,00,00,DE,49,00,00,
23794385,00000012,false,Rx,0,8,BE,30,07,00,97,71,04,00,
23795951,00000013,false,Rx,0,8,05,4F,04,00,3A,77,01,00,
23797226,00000014,false,Rx,0,4,D8,06,54,02,00,00,00,00,
23849209,00000011,false,Rx,0,8,1C,17,00,00,40,33,00,00,
23851072,00000012,false,Rx,0,8,3D,42,07,00,45,15,03,00,
23852659,00000013,false,Rx,0,8,D6,57,04,00,28,3A,01,00,
23853724,00000014,false,Rx,0,4,E6,06,F3,01,00,00,00,00,
23905715,00000011,false,Rx,0,8,30,17,00,00,FF,21,00,00,
23907363,00000012,false,Rx,0,8,7D,48,07,00,8A,0B,02,00,
23908856,00000013,false,Rx,0,8,FB,5A,04,00,92,0B,01,00,
23910185,00000014,false,Rx,0,4,EB,06,A9,01,00,00,00,00,
23962162,00000011,false,Rx,0,8,40,17,00,00,DE,15,00,00,
23963783,00000012,false,Rx,0,8,7D,4D,07,00,D0,50,01,00,
23965329,00000013,false,Rx,0,8,80,5D,04,00,D5,EA,00,00,
23966631,00000014,false,Rx,0,4,EF,06,75,01,00,00,00,00,
24018779,00000011,false,Rx,0,8,48,17,00,00,13,0C,00,00,
24020403,00000012,false,Rx,0,8,FD,4F,07,00,FE,B9,00,00,
24021807,00000013,false,Rx,0,8,C2,5E,04,00,63,D0,00,00,
24023099,00000014,false,Rx,0,4,F1,06,4B,01,00,00,00,00,
24075162,00000011,false,Rx,0,8,54,17,00,00,C8,05,00,00,
24076736,00000012,false,Rx,0,8,BD,53,07,00,09,59,00,00,
24078311,00000013,false,Rx,0,8,A6,60,04,00,64,BF,00,00,
24079609,00000014,false,Rx,0,4,F4,06,30,01,00,00,00,00,
24131617,00000011,false,Rx,0,8,5C,17,00,00,84,02,00,00,
24133207,00000012,false,Rx,0,8,3D,56,07,00,C4,26,00,00,
24134802,00000013,false,Rx,0,8,E8,61,04,00,93,B6,00,00,
24136090,00000014,false,Rx,0,4,F6,06,22,01,00,00,00,00,
24188115,00000011,false,Rx,0,8,60,17,00,00,59,01,00,00,
24189720,00000012,false,Rx,0,8,7D,57,07,00,CF,14,00,00,
24191253,00000013,false,Rx,0,8,89,62,04,00,6E,B3,00,00,
24192531,00000014,false,Rx,0,4,F7,06,1D,01,00,00,00,00,
24244575,00000011,false,Rx,0,8,64,17,00,00,1E,01,00,00,
24246185,00000012,false,Rx,0,8,BD,58,07,00,38,11,00,00,
24247739,00000013,false,Rx,0,8,2B,63,04,00,CC,B2,00,00,
24249007,00000014,false,Rx,0,4,F8,06,1C,01,00,00,00,00,
24301126,00000011,false,Rx,0,8,68,17,00,00,1E,01,00,00,
24302654,00000012,false,Rx,0,8,FD,59,07,00,38,11,00,00,
24304231,00000013,false,Rx,0,8,CC,63,04,00,CC,B2,00,00,
24305614,00000014,false,Rx,0,4,F9,06,1C,01,00,00,00,00,
24357494,00000011,false,Rx,0,8,70,17,00,00,1E,01,00,00,
24359139,00000012,false,Rx,0,8,7D,5C,07,00,38,11,00,00,
24360696,00000013,false,Rx,0,8,0E,65,04,00,CC,B2,00,00,
24361933,00000014,false,Rx,0,4,FB,06,1C,01,00,00,00,00,
24413938,00000011,false,Rx,0,8,74,17,00,00,E2,00,00,00,
24415586,00000012,false,Rx,0,8,BD,5D,07,00,A1,0D,00,00,
24417131,00000013,false,Rx,0,8,AF,65,04,00,2B,B2,00,00,
24418429,00000014,false,Rx,0,4,FC,06,1B,01,00,00,00,00,
24470496,00000011,false,Rx,0,8,78,17,00,00,1E,01,00,00,
24472111,00000012,false,Rx,0,8,FC,5E,07,00,38,11,00,00,
24473668,00000013,false,Rx,0,8,51,66,04,00,CC,B2,00,00,
24474985,00000014,false,Rx,0,4,FD,06,1C,01,00,00,00,00,
24526979,00000011,false,Rx,0,8,7C,17,00,00,00,00,00,00,
24528626,00000012,false,Rx,0,8,3C,60,07,00,00,00,00,00,
24530150,00000013,false,Rx,0,8,F2,66,04,00,A7,AF,00,00,
24531450,00000014,false,Rx,0,4,FE,06,17,01,00,00,00,00,
24583422,00000011,false,Rx,0,8,80,17,00,00,E2,00,00,00,
24585238,00000012,false,Rx,0,8,7C,61,07,00,A1,0D,00,00,
24586617,00000013,false,Rx,0,8,93,67,04,00,2B,B2,00,00,
24587940,00000014,false,Rx,0,4,FF,06,1B,01,00,00,00,00,
24639949,00000011,false,Rx,0,8,84,17,00,00,E2,00,00,00,
24641502,00000012,false,Rx,0,8,BC,62,07,00,A1,0D,00,00,
24643063,00000013,false,Rx,0,8,34,68,04,00,2B,B2,00,00,
24644367,00000014,false,Rx,0,4,00,07,1B,01,00,00,00,00,
24696408,00000011,false,Rx,0,8,88,17,00,00,E2,00,00,00,
24698027,00000012,false,Rx,0,8,FC,63,07,00,A1,0D,00,00,
24699577,00000013,false,Rx,0,8,D5,68,04,00,2B,B2,00,00,
24700868,00000014,false,Rx,0,4,01,07,1B,01,00,00,00,00,
24752876,00000011,false,Rx,0,8,88,17,00,00,A6,00,00,00,
24754481,00000012,false,Rx,0,8,FC,63,07,00,09,0A,00,00,
24756055,00000013,false,Rx,0,8,D5,68,04,00,8A,B1,00,00,
24757357,00000014,false,Rx,0,4,01,07,1A,01,00,00,00,00,
24809294,00000011,false,Rx,0,8,8C,17,00,00,A6,00,00,00,
24810891,00000012,false,Rx,0,8,3C,65,07,00,09,0A,00,00,
24812494,00000013,false,Rx,0,8,76,69,04,00,8A,B1,00,00,
24813791,00000014,false,Rx,0,4,02,07,1A,01,00,00,00,00,
24865777,00000011,false,Rx,0,8,90,17,00,00,E2,00,00,00,
24867364,00000012,false,Rx,0,8,7C,66,07,00,A1,0D,00,00,
24868954,00000013,false,Rx,0,8,18,6A,04,00,2B,B2,00,00,
24870254,00000014,false,Rx,0,4,03,07,1B,01,00,00,00,00,
24922251,00000011,false,Rx,0,8,90,17,00,00,E2,00,00,00,
24923821,00000012,false,Rx,0,8,7C,66,07,00,A1,0D,00,00,
24925387,00000013,false,Rx,0,8,18,6A,04,00,2B,B2,00,00,
24926668,00000014,false,Rx,0,4,03,07,1B,01,00,00,00,00,
24978721,00000011,false,Rx,0,8,94,17,00,00,A6,00,00,00,
24980299,00000012,false,Rx,0,8,BC,67,07,00,09,0A,00,00,
24981814,00000013,false,Rx,0,8,B9,6A,04,00,8A,B1,00,00,
24983112,00000014,false,Rx,0,4,04,07,1A,01,00,00,00,00,
25035129,00000011,false,Rx,0,8,98,17,00,00,A6,00,00,00,
25036735,00000012,false,Rx,0,8,FC,68,07,00,09,0A,00,00,
25038276,00000013,false,Rx,0,8,5A,6B,04,00,8A,B1,00,00,
25039635,00000014,false,Rx,0,4,05,07,1A,01,00,00,00,00,
25091540,00000011,false,Rx,0,8,98,17,00,00,A6,00,00,00,
25093165,00000012,false,Rx,0,8,FC,68,07,00,09,0A,00,00,
25094702,00000013,false,Rx,0,8,5A,6B,04,00,8A,B1,00,00,
25096000,00000014,false,Rx,0,4,05,07,1A,01,00,00,00,00,
25148113,00000011,false,Rx,0,8,98,17,00,00,E2,00,00,00,
25149617,00000012,false,Rx,0,8,FC,68,07,00,A1,0D,00,00,
25151198,00000013,false,Rx,0,8,5A,6B,04,00,2B,B2,00,00,
25152497,00000014,false,Rx,0,4,05,07,1B,01,00,00,00,00,
25204442,00000011,false,Rx,0,8,A0,17,00,00,A6,00,00,00,
25206036,00000012,false,Rx,0,8,7C,6B,07,00,09,0A,00,00,
25207622,00000013,false,Rx,0,8,9C,6C,04,00,8A,B1,00,00,
25208914,00000014,false,Rx,0,4,07,07,1A,01,00,00,00,00,
25260946,00000011,false,Rx,0,8,A0,17,00,00,A6,00,00,00,
25262531,00000012,false,Rx,0,8,7C,6B,07,00,09,0A,00,00,
25264136,00000013,false,Rx,0,8,9C,6C,04,00,8A,B1,00,00,
25265446,00000014,false,Rx,0,4,07,07,1A,01,00,00,00,00,
25317436,00000011,false,Rx,0,8,A0,17,00,00,A6,00,00,00,
25319036,00000012,false,Rx,0,8,7C,6B,07,00,09,0A,00,00,
25320814,00000013,false,Rx,0,8,9C,6C,04,00,8A,B1,00,00,
25321856,00000014,false,Rx,0,4,07,07,1A,01,00,00,00,00,
25373885,00000011,false,Rx,0,8,A0,17,00,00,A6,00,00,00,
25375472,00000012,false,Rx,0,8,7C,6B,07,00,09,0A,00,00,
25377040,00000013,false,Rx,0,8,9C,6C,04,00,8A,B1,00,00,
25378303,00000014,false,Rx,0,4,07,07,1A,01,00,00,00,00,
25430347,00000011,false,Rx,0,8,A0,17,00,00,6B,00,00,00,
25431953,00000012,false,Rx,0,8,7C,6B,07,00,72,06,00,00,
25433504,00000013,false,Rx,0,8,9C,6C,04,00,E9,B0,00,00,
25434816,00000014,false,Rx,0,4,07,07,19,01,00,00,00,00,
25486814,00000011,false,Rx,0,8,A8,17,00,00,A6,00,00,00,
25488410,00000012,false,Rx,0,8,FC,6D,07,00,09,0A,00,00,
25490174,00000013,false,Rx,0,8,DF,6D,04,00,8A,B1,00,00,
25491262,00000014,false,Rx,0,4,09,07,1A,01,00,00,00,00,
25543275,00000011,false,Rx,0,8,A4,17,00,00,A6,00,00,00,
25544869,00000012,false,Rx,0,8,BC,6C,07,00,09,0A,00,00,
25546455,00000013,false,Rx,0,8,3D,6D,04,00,8A,B1,00,00,
25547739,00000014,false,Rx,0,4,08,07,1A,01,00,00,00,00,
25599737,00000011,false,Rx,0,8,A8,17,00,00,59,01,00,00,
25601303,00000012,false,Rx,0,8,FC,6D,07,00,CF,14,00,00,
25602873,00000013,false,Rx,0,8,DF,6D,04,00,6E,B3,00,00,
25604172,00000014,false,Rx,0,4,09,07,1D,01,00,00,00,00,
25656362,00000011,false,Rx,0,8,A8,17,00,00,A6,00,00,00,
25657831,00000012,false,Rx,0,8,FC,6D,07,00,09,0A,00,00,
25659370,00000013,false,Rx,0,8,DF,6D,04,00,8A,B1,00,00,
25660669,00000014,false,Rx,0,4,09,07,1A,01,00,00,00,00,
25712705,00000011,false,Rx,0,8,AC,17,00,00,A6,00,00,00,
25714324,00000012,false,Rx,0,8,3C,6F,07,00,09,0A,00,00,
25716122,00000013,false,Rx,0,8,80,6E,04,00,8A,B1,00,00,
25717425,00000014,false,Rx,0,4,0A,07,1A,01,00,00,00,00,
25769215,00000011,false,Rx,0,8,A8,17,00,00,6B,00,00,00,
25770828,00000012,false,Rx,0,8,FC,6D,07,00,72,06,00,00,
25772616,00000013,false,Rx,0,8,DF,6D,04,00,E9,B0,00,00,
25773697,00000014,false,Rx,0,4,09,07,19,01,00,00,00,00,
25825697,00000011,false,Rx,0,8,AC,17,00,00,A6,00,00,00,
25827311,00000012,false,Rx,0,8,3C,6F,07,00,09,0A,00,00,
25828867,00000013,false,Rx,0,8,80,6E,04,00,8A,B1,00,00,
25830166,00000014,false,Rx,0,4,0A,07,1A,01,00,00,00,00,
25882130,00000011,false,Rx,0,8,AC,17,00,00,A6,00,00,00,
25883793,00000012,false,Rx,0,8,3C,6F,07,00,09,0A,00,00,
25885372,00000013,false,Rx,0,8,80,6E,04,00,8A,B1,00,00,
25886654,00000014,false,Rx,0,4,0A,07,1A,01,00,00,00,00,
25938662,00000011,false,Rx,0,8,B0,17,00,00,A6,00,00,00,
25940277,00000012,false,Rx,0,8,7C,70,07,00,09,0A,00,00,
25941814,00000013,false,Rx,0,8,21,6F,04,00,8A,B1,00,00,
25943079,00000014,false,Rx,0,4,0B,07,1A,01,00,00,00,00,
25995138,00000011,false,Rx,0,8,B0,17,00,00,A6,00,00,00,
25996725,00000012,false,Rx,0,8,7C,70,07,00,09,0A,00,00,
25998270,00000013,false,Rx,0,8,21,6F,04,00,8A,B1,00,00,
25999626,00000014,false,Rx,0,4,0B,07,1A,01,00,00,00,00,
26051578,00000011,false,Rx,0,8,B0,17,00,00,A6,00,00,00,
26053162,00000012,false,Rx,0,8,7C,70,07,00,09,0A,00,00,
26054737,00000013,false,Rx,0,8,21,6F,04,00,8A,B1,00,00,
26056046,00000014,false,Rx,0,4,0B,07,1A,01,00,00,00,00,
26108058,00000011,false,Rx,0,8,B0,17,00,00,A6,00,00,00,
26109640,00000012,false,Rx,0,8,7C,70,07,00,09,0A,00,00,
26111186,00000013,false,Rx,0,8,21,6F,04,00,8A,B1,00,00,
26112525,00000014,false,Rx,0,4,0B,07,1A,01,00,00,00,00,
26164501,00000011,false,Rx,0,8,B4,17,00,00,A6,00,00,00,
26166116,00000012,false,Rx,0,8,BC,71,07,00,09,0A,00,00,
26167666,00000013,false,Rx,0,8,C2,6F,04,00,8A,B1,00,00,
26168972,00000014,false,Rx,0,4,0C,07,1A,01,00,00,00,00,
26220997,00000011,false,Rx,0,8,B4,17,00,00,A6,00,00,00,
26222584,00000012,false,Rx,0,8,BC,71,07,00,09,0A,00,00,
26224107,00000013,false,Rx,0,8,C2,6F,04,00,8A,B1,00,00,
26225448,00000014,false,Rx,0,4,0C,07,1A,01,00,00,00,00,
26277383,00000011,false,Rx,0,8,B7,17,00,00,A6,00,00,00,
26279002,00000012,false,Rx,0,8,FC,72,07,00,09,0A,00,00,
26280603,00000013,false,Rx,0,8,63,70,04,00,8A,B1,00,00,
26281892,00000014,false,Rx,0,4,0D,07,1A,01,00,00,00,00,
26333890,00000011,false,Rx,0,8,B7,17,00,00,6B,00,00,00,
26335530,00000012,false,Rx,0,8,FC,72,07,00,72,06,00,00,
26337060,00000013,false,Rx,0,8,63,70,04,00,E9,B0,00,00,
26338387,00000014,false,Rx,0,4,0D,07,19,01,00,00,00,00,
26390358,00000011,false,Rx,0,8,B4,17,00,00,A6,00,00,00,
26391937,00000012,false,Rx,0,8,BC,71,07,00,09,0A,00,00,
26393508,00000013,false,Rx,0,8,C2,6F,04,00,8A,B1,00,00,
26394784,00000014,false,Rx,0,4,0C,07,1A,01,00,00,00,00,
26446999,00000011,false,Rx,0,8,B7,17,00,00,A6,00,00,00,
26448614,00000012,false,Rx,0,8,FC,72,07,00,09,0A,00,00,
26450035,00000013,false,Rx,0,8,63,70,04,00,8A,B1,00,00,
26451276,00000014,false,Rx,0,4,0D,07,1A,01,00,00,00,00,
26503276,00000011,false,Rx,0,8,B7,17,00,00,A6,00,00,00,
26504863,00000012,false,Rx,0,8,FC,72,07,00,09,0A,00,00,
26506445,00000013,false,Rx,0,8,63,70,04,00,8A,B1,00,00,
26507777,00000014,false,Rx,0,4,0D,07,1A,01,00,00,00,00,
26559733,00000011,false,Rx,0,8,B7,17,00,00,A6,00,00,00,
26561339,00000012,false,Rx,0,8,FC,72,07,00,09,0A,00,00,
26562921,00000013,false,Rx,0,8,63,70,04,00,8A,B1,00,00,
26564177,00000014,false,Rx,0,4,0D,07,1A,01,00,00,00,00,
26616215,00000011,false,Rx,0,8,B7,17,00,00,A6,00,00,00,
26617792,00000012,false,Rx,0,8,FC,72,07,00,09,0A,00,00,
26619403,00000013,false,Rx,0,8,63,70,04,00,8A,B1,00,00,
26620665,00000014,false,Rx,0,4,0D,07,1A,01,00,00,00,00,
26672667,00000011,false,Rx,0,8,BB,17,00,00,A6,00,00,00,
26674299,00000012,false,Rx,0,8,3C,74,07,00,09,0A,00,00,
26675849,00000013,false,Rx,0,8,04,71,04,00,8A,B1,00,00,
26677134,00000014,false,Rx,0,4,0E,07,1A,01,00,00,00,00,
26729185,00000011,false,Rx,0,8,B7,17,00,00,A6,00,00,00,
26730777,00000012,false,Rx,0,8,FC,72,07,00,09,0A,00,00,
26732351,00000013,false,Rx,0,8,63,70,04,00,8A,B1,00,00,
26733622,00000014,false,Rx,0,4,0D,07,1A,01,00,00,00,00,
26785627,00000011,false,Rx,0,8,B7,17,00,00,A6,00,00,00,
26787240,00000012,false,Rx,0,8,FC,72,07,00,09,0A,00,00,
26788806,00000013,false,Rx,0,8,63,70,04,00,8A,B1,00,00,
26790114,00000014,false,Rx,0,4,0D,07,1A,01,00,00,00,00,
26842045,00000011,false,Rx,0,8,BB,17,00,00,A6,00,00,00,
26843640,00000012,false,Rx,0,8,3C,74,07,00,09,0A,00,00,
26845216,00000013,false,Rx,0,8,04,71,04,00,8A,B1,00,00,
26846515,00000014,false,Rx,0,4,0E,07,1A,01,00,00,00,00,
26898506,00000011,false,Rx,0,8,B7,17,00,00,A6,00,00,00,
26900095,00000012,false,Rx,0,8,FC,72,07,00,09,0A,00,00,
26901674,00000013,false,Rx,0,8,63,70,04,00,8A,B1,00,00,
26902999,00000014,false,Rx,0,4,0D,07,1A,01,00,00,00,00,
