Time Stamp,ID,Extended,Dir,Bus,LEN,D1,D2,D3,D4,D5,D6,D7,D8
19836634,00000011,false,Rx,0,8,1B,1B,00,00,A6,00,00,00,
19838229,00000012,false,Rx,0,8,72,83,08,00,09,0A,00,00,
19839843,00000013,false,Rx,0,8,A3,F9,04,00,8A,B1,00,00,
19841236,00000014,false,Rx,0,4,E7,07,1A,01,00,00,00,00,
19893140,00000011,false,Rx,0,8,17,1B,00,00,A6,00,00,00,
19894692,00000012,false,Rx,0,8,32,82,08,00,09,0A,00,00,
19896261,00000013,false,Rx,0,8,02,F9,04,00,8A,B1,00,00,
19897533,00000014,false,Rx,0,4,E6,07,1A,01,00,00,00,00,
19949532,00000011,false,Rx,0,8,17,1B,00,00,6B,00,00,00,
19951126,00000012,false,Rx,0,8,32,82,08,00,72,06,00,00,
19952726,00000013,false,Rx,0,8,02,F9,04,00,E9,B0,00,00,
19954023,00000014,false,Rx,0,4,E6,07,19,01,00,00,00,00,
20006000,00000011,false,Rx,0,8,1B,1B,00,00,A6,00,00,00,
20007589,00000012,false,Rx,0,8,72,83,08,00,09,0A,00,00,
20009158,00000013,false,Rx,0,8,A3,F9,04,00,8A,B1,00,00,
20010406,00000014,false,Rx,0,4,E7,07,1A,01,00,00,00,00,
20062429,00000011,false,Rx,0,8,1B,1B,00,00,6B,00,00,00,
20064027,00000012,false,Rx,0,8,72,83,08,00,72,06,00,00,
20065586,00000013,false,Rx,0,8,A3,F9,04,00,E9,B0,00,00,
20066852,00000014,false,Rx,0,4,E7,07,19,01,00,00,00,00,
20118877,00000011,false,Rx,0,8,17,1B,00,00,6B,00,00,00,
20120430,00000012,false,Rx,0,8,32,82,08,00,72,06,00,00,
20122010,00000013,false,Rx,0,8,02,F9,04,00,E9,B0,00,00,
20123347,00000014,false,Rx,0,4,E6,07,19,01,00,00,00,00,
20175262,00000011,false,Rx,0,8,1B,1B,00,00,A6,00,00,00,
20176954,00000012,false,Rx,0,8,72,83,08,00,09,0A,00,00,
20178455,00000013,false,Rx,0,8,A3,F9,04,00,8A,B1,00,00,
20179751,00000014,false,Rx,0,4,E7,07,1A,01,00,00,00,00,
20231754,00000011,false,Rx,0,8,1B,1B,00,00,6B,00,00,00,
20233346,00000012,false,Rx,0,8,72,83,08,00,72,06,00,00,
20234955,00000013,false,Rx,0,8,A3,F9,04,00,E9,B0,00,00,
20236187,00000014,false,Rx,0,4,E7,07,19,01,00,00,00,00,
20288194,00000011,false,Rx,0,8,1B,1B,00,00,A6,00,00,00,
20289786,00000012,false,Rx,0,8,72,83,08,00,09,0A,00,00,
20291356,00000013,false,Rx,0,8,A3,F9,04,00,8A,B1,00,00,
20292616,00000014,false,Rx,0,4,E7,07,1A,01,00,00,00,00,
20344593,00000011,false,Rx,0,8,1B,1B,00,00,A6,00,00,00,
20346203,00000012,false,Rx,0,8,72,83,08,00,09,0A,00,00,
20347778,00000013,false,Rx,0,8,A3,F9,04,00,8A,B1,00,00,
20349053,00000014,false,Rx,0,4,E7,07,1A,01,00,00,00,00,
20401058,00000011,false,Rx,0,8,1B,1B,00,00,A6,00,00,00,
20402649,00000012,false,Rx,0,8,72,83,08,00,09,0A,00,00,
20404226,00000013,false,Rx,0,8,A3,F9,04,00,8A,B1,00,00,
20405499,00000014,false,Rx,0,4,E7,07,1A,01,00,00,00,00,
20457685,00000011,false,Rx,0,8,1B,1B,00,00,A6,00,00,00,
20459064,00000012,false,Rx,0,8,72,83,08,00,09,0A,00,00,
20460605,00000013,false,Rx,0,8,A3,F9,04,00,8A,B1,00,00,
20461957,00000014,false,Rx,0,4,E7,07,1A,01,00,00,00,00,
20513888,00000011,false,Rx,0,8,1F,1B,00,00,6B,00,00,00,
20515456,00000012,false,Rx,0,8,B2,84,08,00,72,06,00,00,
20517081,00000013,false,Rx,0,8,44,FA,04,00,E9,B0,00,00,
20518586,00000014,false,Rx,0,4,E8,07,19,01,00,00,00,00,
20570340,00000011,false,Rx,0,8,1B,1B,00,00,6B,00,00,00,
20572053,00000012,false,Rx,0,8,72,83,08,00,72,06,00,00,
20573759,00000013,false,Rx,0,8,A3,F9,04,00,E9,B0,00,00,
20574793,00000014,false,Rx,0,4,E7,07,19,01,00,00,00,00,
20626770,00000011,false,Rx,0,8,1F,1B,00,00,6B,00,00,00,
20628381,00000012,false,Rx,0,8,B2,84,08,00,72,06,00,00,
20629963,00000013,false,Rx,0,8,44,FA,04,00,E9,B0,00,00,
20631236,00000014,false,Rx,0,4,E8,07,19,01,00,00,00,00,
20683259,00000011,false,Rx,0,8,1B,1B,00,00,A6,00,00,00,
20684813,00000012,false,Rx,0,8,72,83,08,00,09,0A,00,00,
20686436,00000013,false,Rx,0,8,A3,F9,04,00,8A,B1,00,00,
20687903,00000014,false,Rx,0,4,E7,07,1A,01,00,00,00,00,
20739835,00000011,false,Rx,0,8,1F,1B,00,00,6B,00,00,00,
20741395,00000012,false,Rx,0,8,B2,84,08,00,72,06,00,00,
20742994,00000013,false,Rx,0,8,44,FA,04,00,E9,B0,00,00,
20744267,00000014,false,Rx,0,4,E8,07,19,01,00,00,00,00,
20796247,00000011,false,Rx,0,8,1B,1B,00,00,A6,00,00,00,
20797850,00000012,false,Rx,0,8,72,83,08,00,09,0A,00,00,
20799424,00000013,false,Rx,0,8,A3,F9,04,00,8A,B1,00,00,
20800686,00000014,false,Rx,0,4,E7,07,1A,01,00,00,00,00,
20852715,00000011,false,Rx,0,8,1B,1B,00,00,A6,00,00,00,
20854310,00000012,false,Rx,0,8,72,83,08,00,09,0A,00,00,
20855974,00000013,false,Rx,0,8,A3,F9,04,00,8A,B1,00,00,
20857410,00000014,false,Rx,0,4,E7,07,1A,01,00,00,00,00,
20909113,00000011,false,Rx,0,8,1B,1B,00,00,A6,00,00,00,
20910745,00000012,false,Rx,0,8,72,83,08,00,09,0A,00,00,
20912313,00000013,false,Rx,0,8,A3,F9,04,00,8A,B1,00,00,
20913614,00000014,false,Rx,0,4,E7,07,1A,01,00,00,00,00,
20965621,00000011,false,Rx,0,8,1F,1B,00,00,6B,00,00,00,
20967319,00000012,false,Rx,0,8,B2,84,08,00,72,06,00,00,
20968813,00000013,false,Rx,0,8,44,FA,04,00,E9,B0,00,00,
20970090,00000014,false,Rx,0,4,E8,07,19,01,00,00,00,00,
21022372,00000011,false,Rx,0,8,1F,1B,00,00,A6,00,00,00,
21023997,00000012,false,Rx,0,8,B2,84,08,00,09,0A,00,00,
21025331,00000013,false,Rx,0,8,44,FA,04,00,8A,B1,00,00,
21026588,00000014,false,Rx,0,4,E8,07,1A,01,00,00,00,00,
21078592,00000011,false,Rx,0,8,1B,1B,00,00,6B,00,00,00,
21080187,00000012,false,Rx,0,8,72,83,08,00,72,06,00,00,
21081968,00000013,false,Rx,0,8,A3,F9,04,00,E9,B0,00,00,
21083242,00000014,false,Rx,0,4,E7,07,19,01,00,00,00,00,
21135276,00000011,false,Rx,0,8,1B,1B,00,00,6B,00,00,00,
21136690,00000012,false,Rx,0,8,72,83,08,00,72,06,00,00,
21138288,00000013,false,Rx,0,8,A3,F9,04,00,E9,B0,00,00,
21139788,00000014,false,Rx,0,4,E7,07,19,01,00,00,00,00,
21191554,00000011,false,Rx,0,8,1F,1B,00,00,6B,00,00,00,
21193177,00000012,false,Rx,0,8,B2,84,08,00,72,06,00,00,
21194744,00000013,false,Rx,0,8,44,FA,04,00,E9,B0,00,00,
21196017,00000014,false,Rx,0,4,E8,07,19,01,00,00,00,00,
21248040,00000011,false,Rx,0,8,1F,1B,00,00,A6,00,00,00,
21249597,00000012,false,Rx,0,8,B2,84,08,00,09,0A,00,00,
21251163,00000013,false,Rx,0,8,44,FA,04,00,8A,B1,00,00,
21252438,00000014,false,Rx,0,4,E8,07,1A,01,00,00,00,00,
21304679,00000011,false,Rx,0,8,23,1B,00,00,6B,00,00,00,
21306346,00000012,false,Rx,0,8,F2,85,08,00,72,06,00,00,
21307676,00000013,false,Rx,0,8,E5,FA,04,00,E9,B0,00,00,
21308977,00000014,false,Rx,0,4,E9,07,19,01,00,00,00,00,
21360951,00000011,false,Rx,0,8,1F,1B,00,00,A6,00,00,00,
21362582,00000012,false,Rx,0,8,B2,84,08,00,09,0A,00,00,
21364156,00000013,false,Rx,0,8,44,FA,04,00,8A,B1,00,00,
21365443,00000014,false,Rx,0,4,E8,07,1A,01,00,00,00,00,
21417422,00000011,false,Rx,0,8,1F,1B,00,00,6B,00,00,00,
21419265,00000012,false,Rx,0,8,B2,84,08,00,72,06,00,00,
21420631,00000013,false,Rx,0,8,44,FA,04,00,E9,B0,00,00,
21421948,00000014,false,Rx,0,4,E8,07,19,01,00,00,00,00,
21474036,00000011,false,Rx,0,8,23,1B,00,00,6B,00,00,00,
21475503,00000012,false,Rx,0,8,F2,85,08,00,72,06,00,00,
21477086,00000013,false,Rx,0,8,E5,FA,04,00,E9,B0,00,00,
21478372,00000014,false,Rx,0,4,E9,07,19,01,00,00,00,00,
21530352,00000011,false,Rx,0,8,23,1B,00,00,6B,00,00,00,
21531946,00000012,false,Rx,0,8,F2,85,08,00,72,06,00,00,
21533558,00000013,false,Rx,0,8,E5,FA,04,00,E9,B0,00,00,
21534865,00000014,false,Rx,0,4,E9,07,19,01,00,00,00,00,
21586883,00000011,false,Rx,0,8,1F,1B,00,00,A6,00,00,00,
21588604,00000012,false,Rx,0,8,B2,84,08,00,09,0A,00,00,
21590033,00000013,false,Rx,0,8,44,FA,04,00,8A,B1,00,00,
21591300,00000014,false,Rx,0,4,E8,07,1A,01,00,00,00,00,
21643277,00000011,false,Rx,0,8,1F,1B,00,00,6B,00,00,00,
21644898,00000012,false,Rx,0,8,B2,84,08,00,72,06,00,00,
21646452,00000013,false,Rx,0,8,44,FA,04,00,E9,B0,00,00,
21647746,00000014,false,Rx,0,4,E8,07,19,01,00,00,00,00,
21699755,00000011,false,Rx,0,8,27,1B,00,00,6B,00,00,00,
21701401,00000012,false,Rx,0,8,32,87,08,00,72,06,00,00,
21702997,00000013,false,Rx,0,8,86,FB,04,00,E9,B0,00,00,
21704491,00000014,false,Rx,0,4,EA,07,19,01,00,00,00,00,
21756492,00000011,false,Rx,0,8,1F,1B,00,00,6B,00,00,00,
21757859,00000012,false,Rx,0,8,B2,84,08,00,72,06,00,00,
21759428,00000013,false,Rx,0,8,44,FA,04,00,E9,B0,00,00,
21760744,00000014,false,Rx,0,4,E8,07,19,01,00,00,00,00,
21812696,00000011,false,Rx,0,8,23,1B,00,00,6B,00,00,00,
21814312,00000012,false,Rx,0,8,F2,85,08,00,72,06,00,00,
21815849,00000013,false,Rx,0,8,E5,FA,04,00,E9,B0,00,00,
21817145,00000014,false,Rx,0,4,E9,07,19,01,00,00,00,00,
21869156,00000011,false,Rx,0,8,1F,1B,00,00,A6,00,00,00,
21870731,00000012,false,Rx,0,8,B2,84,08,00,09,0A,00,00,
21872272,00000013,false,Rx,0,8,44,FA,04,00,8A,B1,00,00,
21873573,00000014,false,Rx,0,4,E8,07,1A,01,00,00,00,00,
21925610,00000011,false,Rx,0,8,23,1B,00,00,A6,00,00,00,
21927210,00000012,false,Rx,0,8,F2,85,08,00,09,0A,00,00,
21928790,00000013,false,Rx,0,8,E5,FA,04,00,8A,B1,00,00,
21930062,00000014,false,Rx,0,4,E9,07,1A,01,00,00,00,00,
21982075,00000011,false,Rx,0,8,27,1B,00,00,A6,00,00,00,
21983659,00000012,false,Rx,0,8,32,87,08,00,09,0A,00,00,
21985233,00000013,false,Rx,0,8,86,FB,04,00,8A,B1,00,00,
21986509,00000014,false,Rx,0,4,EA,07,1A,01,00,00,00,00,
22038560,00000011,false,Rx,0,8,27,1B,00,00,A6,00,00,00,
22040297,00000012,false,Rx,0,8,32,87,08,00,09,0A,00,00,
22041711,00000013,false,Rx,0,8,86,FB,04,00,8A,B1,00,00,
22042978,00000014,false,Rx,0,4,EA,07,1A,01,00,00,00,00,
22094957,00000011,false,Rx,0,8,23,1B,00,00,A6,00,00,00,
22096575,00000012,false,Rx,0,8,F2,85,08,00,09,0A,00,00,
22098150,00000013,false,Rx,0,8,E5,FA,04,00,8A,B1,00,00,
22099635,00000014,false,Rx,0,4,E9,07,1A,01,00,00,00,00,
22151535,00000011,false,Rx,0,8,27,1B,00,00,A6,00,00,00,
22153082,00000012,false,Rx,0,8,32,87,08,00,09,0A,00,00,
22154652,00000013,false,Rx,0,8,86,FB,04,00,8A,B1,00,00,
22155997,00000014,false,Rx,0,4,EA,07,1A,01,00,00,00,00,
22207892,00000011,false,Rx,0,8,2B,1B,00,00,6B,00,00,00,
22209478,00000012,false,Rx,0,8,72,88,08,00,72,06,00,00,
22211056,00000013,false,Rx,0,8,27,FC,04,00,E9,B0,00,00,
22212327,00000014,false,Rx,0,4,EB,07,19,01,00,00,00,00,
22264334,00000011,false,Rx,0,8,27,1B,00,00,A6,00,00,00,
22266160,00000012,false,Rx,0,8,32,87,08,00,09,0A,00,00,
22267679,00000013,false,Rx,0,8,86,FB,04,00,8A,B1,00,00,
22268833,00000014,false,Rx,0,4,EA,07,1A,01,00,00,00,00,
22320800,00000011,false,Rx,0,8,27,1B,00,00,6B,00,00,00,
22322408,00000012,false,Rx,0,8,32,87,08,00,72,06,00,00,
22323977,00000013,false,Rx,0,8,86,FB,04,00,E9,B0,00,00,
22325266,00000014,false,Rx,0,4,EA,07,19,01,00,00,00,00,
22377268,00000011,false,Rx,0,8,27,1B,00,00,6B,00,00,00,
22378894,00000012,false,Rx,0,8,32,87,08,00,72,06,00,00,
22380460,00000013,false,Rx,0,8,86,FB,04,00,E9,B0,00,00,
22381735,00000014,false,Rx,0,4,EA,07,19,01,00,00,00,00,
22433985,00000011,false,Rx,0,8,23,1B,00,00,6B,00,00,00,
22435587,00000012,false,Rx,0,8,F2,85,08,00,72,06,00,00,
22436934,00000013,false,Rx,0,8,E5,FA,04,00,E9,B0,00,00,
22438231,00000014,false,Rx,0,4,E9,07,19,01,00,00,00,00,
22490346,00000011,false,Rx,0,8,27,1B,00,00,A6,00,00,00,
22491790,00000012,false,Rx,0,8,32,87,08,00,09,0A,00,00,
22493359,00000013,false,Rx,0,8,86,FB,04,00,8A,B1,00,00,
22494656,00000014,false,Rx,0,4,EA,07,1A,01,00,00,00,00,
22546635,00000011,false,Rx,0,8,23,1B,00,00,6B,00,00,00,
22548439,00000012,false,Rx,0,8,F2,85,08,00,72,06,00,00,
22549835,00000013,false,Rx,0,8,E5,FA,04,00,E9,B0,00,00,
22551132,00000014,false,Rx,0,4,E9,07,19,01,00,00,00,00,
22603166,00000011,false,Rx,0,8,2B,1B,00,00,A6,00,00,00,
22604735,00000012,false,Rx,0,8,72,88,08,00,09,0A,00,00,
22606439,00000013,false,Rx,0,8,27,FC,04,00,8A,B1,00,00,
22607563,00000014,false,Rx,0,4,EB,07,1A,01,00,00,00,00,
22659540,00000011,false,Rx,0,8,23,1B,00,00,6B,00,00,00,
22661160,00000012,false,Rx,0,8,F2,85,08,00,72,06,00,00,
22662733,00000013,false,Rx,0,8,E5,FA,04,00,E9,B0,00,00,
22664008,00000014,false,Rx,0,4,E9,07,19,01,00,00,00,00,
22716124,00000011,false,Rx,0,8,27,1B,00,00,A6,00,00,00,
22717638,00000012,false,Rx,0,8,32,87,08,00,09,0A,00,00,
22719210,00000013,false,Rx,0,8,86,FB,04,00,8A,B1,00,00,
22720677,00000014,false,Rx,0,4,EA,07,1A,01,00,00,00,00,
22772679,00000011,false,Rx,0,8,27,1B,00,00,A6,00,00,00,
22774039,00000012,false,Rx,0,8,32,87,08,00,09,0A,00,00,
22775611,00000013,false,Rx,0,8,86,FB,04,00,8A,B1,00,00,
22776914,00000014,false,Rx,0,4,EA,07,1A,01,00,00,00,00,
22828917,00000011,false,Rx,0,8,1F,1B,00,00,A6,00,00,00,
22830496,00000012,false,Rx,0,8,B2,84,08,00,09,0A,00,00,
22832062,00000013,false,Rx,0,8,44,FA,04,00,8A,B1,00,00,
22833360,00000014,false,Rx,0,4,E8,07,1A,01,00,00,00,00,
22885584,00000011,false,Rx,0,8,8A,12,00,00,80,4B,00,00,
22887219,00000012,false,Rx,0,8,CA,D2,05,00,BA,8A,04,00,
22888693,00000013,false,Rx,0,8,BD,9E,03,00,A2,7B,01,00,
22889837,00000014,false,Rx,0,4,C0,05,5B,02,00,00,00,00,
22941795,00000011,false,Rx,0,8,CD,19,00,00,F3,94,00,00,
22943426,00000012,false,Rx,0,8,76,1A,08,00,DE,F5,08,00,
22944989,00000013,false,Rx,0,8,C0,C4,04,00,F4,41,02,00,
22946264,00000014,false,Rx,0,4,93,07,96,03,00,00,00,00,
22998219,00000011,false,Rx,0,8,32,1C,00,00,2D,A3,00,00,
22999841,00000012,false,Rx,0,8,EF,DA,08,00,EA,D0,09,00,
23001437,00000013,false,Rx,0,8,B5,25,05,00,5B,68,02,00,
23002730,00000014,false,Rx,0,4,2D,08,D3,03,00,00,00,00,
23054726,00000011,false,Rx,0,8,22,1C,00,00,C7,A1,00,00,
23056552,00000012,false,Rx,0,8,EF,D5,08,00,5E,BB,09,00,
23057880,00000013,false,Rx,0,8,30,23,05,00,94,64,02,00,
23059142,00000014,false,Rx,0,4,29,08,CD,03,00,00,00,00,
23111151,00000011,false,Rx,0,8,02,1C,00,00,4F,A1,00,00,
23112776,00000012,false,Rx,0,8,F0,CB,08,00,30,B4,09,00,
23114341,00000013,false,Rx,0,8,27,1E,05,00,52,63,02,00,
23115590,00000014,false,Rx,0,4,21,08,CB,03,00,00,00,00,
23167876,00000011,false,Rx,0,8,E6,1B,00,00,60,A0,00,00,
23169217,00000012,false,Rx,0,8,30,C3,08,00,D3,A5,09,00,
23170794,00000013,false,Rx,0,8,BF,19,05,00,CD,60,02,00,
23172092,00000014,false,Rx,0,4,1A,08,C7,03,00,00,00,00,
23224085,00000011,false,Rx,0,8,D6,1B,00,00,25,A0,00,00,
23225645,00000012,false,Rx,0,8,30,BE,08,00,3C,A2,09,00,
23227261,00000013,false,Rx,0,8,3A,17,05,00,2C,60,02,00,
23228547,00000014,false,Rx,0,4,16,08,C6,03,00,00,00,00,
23280507,00000011,false,Rx,0,8,D2,1B,00,00,AD,9F,00,00,
23282090,00000012,false,Rx,0,8,F0,BC,08,00,0D,9B,09,00,
23283773,00000013,false,Rx,0,8,99,16,05,00,E9,5E,02,00,
23285240,00000014,false,Rx,0,4,15,08,C4,03,00,00,00,00,
23336954,00000011,false,Rx,0,8,CA,1B,00,00,72,9F,00,00,
23338592,00000012,false,Rx,0,8,70,BA,08,00,76,97,09,00,
23340092,00000013,false,Rx,0,8,56,15,05,00,48,5E,02,00,
23341424,00000014,false,Rx,0,4,13,08,C3,03,00,00,00,00,
23393402,00000011,false,Rx,0,8,C6,1B,00,00,36,9F,00,00,
23395020,00000012,false,Rx,0,8,30,B9,08,00,DE,93,09,00,
23396586,00000013,false,Rx,0,8,B5,14,05,00,A7,5D,02,00,
23397868,00000014,false,Rx,0,4,12,08,C2,03,00,00,00,00,
23450025,00000011,false,Rx,0,8,BE,1B,00,00,FA,9E,00,00,
23451682,00000012,false,Rx,0,8,B1,B6,08,00,47,90,09,00,
23453214,00000013,false,Rx,0,8,73,13,05,00,06,5D,02,00,
23454523,00000014,false,Rx,0,4,10,08,C1,03,00,00,00,00,
23506610,00000011,false,Rx,0,8,BE,1B,00,00,BE,9E,00,00,
23507964,00000012,false,Rx,0,8,B1,B6,08,00,B0,8C,09,00,
23509505,00000013,false,Rx,0,8,73,13,05,00,65,5C,02,00,
23510804,00000014,false,Rx,0,4,10,08,C0,03,00,00,00,00,
23562805,00000011,false,Rx,0,8,C2,1B,00,00,83,9E,00,00,
23564396,00000012,false,Rx,0,8,F1,B7,08,00,19,89,09,00,
23565970,00000013,false,Rx,0,8,14,14,05,00,C4,5B,02,00,
23567420,00000014,false,Rx,0,4,11,08,BF,03,00,00,00,00,
23619296,00000011,false,Rx,0,8,BE,1B,00,00,47,9E,00,00,
23621109,00000012,false,Rx,0,8,B1,B6,08,00,81,85,09,00,
23622700,00000013,false,Rx,0,8,73,13,05,00,22,5B,02,00,
23623731,00000014,false,Rx,0,4,10,08,BE,03,00,00,00,00,
23675709,00000011,false,Rx,0,8,C2,1B,00,00,47,9E,00,00,
23677355,00000012,false,Rx,0,8,F1,B7,08,00,81,85,09,00,
23678937,00000013,false,Rx,0,8,14,14,05,00,22,5B,02,00,
23680212,00000014,false,Rx,0,4,11,08,BE,03,00,00,00,00,
23732238,00000011,false,Rx,0,8,C2,1B,00,00,0B,9E,00,00,
23733814,00000012,false,Rx,0,8,F1,B7,08,00,EA,81,09,00,
23735378,00000013,false,Rx,0,8,14,14,05,00,81,5A,02,00,
23736648,00000014,false,Rx,0,4,11,08,BD,03,00,00,00,00,
23788650,00000011,false,Rx,0,8,C6,1B,00,00,D0,9D,00,00,
23790309,00000012,false,Rx,0,8,30,B9,08,00,53,7E,09,00,
23791859,00000013,false,Rx,0,8,B5,14,05,00,E0,59,02,00,
23793127,00000014,false,Rx,0,4,12,08,BC,03,00,00,00,00,
23845123,00000011,false,Rx,0,8,C6,1B,00,00,D0,9D,00,00,
23847003,00000012,false,Rx,0,8,30,B9,08,00,53,7E,09,00,
23848595,00000013,false,Rx,0,8,B5,14,05,00,E0,59,02,00,
23849626,00000014,false,Rx,0,4,12,08,BC,03,00,00,00,00,
23901640,00000011,false,Rx,0,8,CA,1B,00,00,94,9D,00,00,
23903254,00000012,false,Rx,0,8,70,BA,08,00,BB,7A,09,00,
23904903,00000013,false,Rx,0,8,56,15,05,00,3F,59,02,00,
23906332,00000014,false,Rx,0,4,13,08,BB,03,00,00,00,00,
23958057,00000011,false,Rx,0,8,CE,1B,00,00,94,9D,00,00,
23959683,00000012,false,Rx,0,8,B0,BB,08,00,BB,7A,09,00,
23961252,00000013,false,Rx,0,8,F8,15,05,00,3F,59,02,00,
23962550,00000014,false,Rx,0,4,14,08,BB,03,00,00,00,00,
24014713,00000011,false,Rx,0,8,D2,1B,00,00,58,9D,00,00,
24016329,00000012,false,Rx,0,8,F0,BC,08,00,24,77,09,00,
24017750,00000013,false,Rx,0,8,99,16,05,00,9E,58,02,00,
24019051,00000014,false,Rx,0,4,15,08,BA,03,00,00,00,00,
24071035,00000011,false,Rx,0,8,D2,1B,00,00,94,9D,00,00,
24072621,00000012,false,Rx,0,8,F0,BC,08,00,BB,7A,09,00,
24074198,00000013,false,Rx,0,8,99,16,05,00,3F,59,02,00,
24075455,00000014,false,Rx,0,4,15,08,BB,03,00,00,00,00,
24127436,00000011,false,Rx,0,8,D6,1B,00,00,58,9D,00,00,
24129056,00000012,false,Rx,0,8,30,BE,08,00,24,77,09,00,
24130603,00000013,false,Rx,0,8,3A,17,05,00,9E,58,02,00,
24131902,00000014,false,Rx,0,4,16,08,BA,03,00,00,00,00,
24183942,00000011,false,Rx,0,8,DA,1B,00,00,1D,9D,00,00,
24185527,00000012,false,Rx,0,8,70,BF,08,00,8D,73,09,00,
24187103,00000013,false,Rx,0,8,DB,17,05,00,FD,57,02,00,
24188379,00000014,false,Rx,0,4,17,08,B9,03,00,00,00,00,
24240371,00000011,false,Rx,0,8,DA,1B,00,00,1D,9D,00,00,
24241983,00000012,false,Rx,0,8,70,BF,08,00,8D,73,09,00,
24243536,00000013,false,Rx,0,8,DB,17,05,00,FD,57,02,00,
24244831,00000014,false,Rx,0,4,17,08,B9,03,00,00,00,00,
24296810,00000011,false,Rx,0,8,DE,1B,00,00,1D,9D,00,00,
24298429,00000012,false,Rx,0,8,B0,C0,08,00,8D,73,09,00,
24300078,00000013,false,Rx,0,8,7C,18,05,00,FD,57,02,00,
24301334,00000014,false,Rx,0,4,18,08,B9,03,00,00,00,00,
24353338,00000011,false,Rx,0,8,DE,1B,00,00,E1,9C,00,00,
24354955,00000012,false,Rx,0,8,B0,C0,08,00,F6,6F,09,00,
24356489,00000013,false,Rx,0,8,7C,18,05,00,5B,57,02,00,
24357816,00000014,false,Rx,0,4,18,08,B8,03,00,00,00,00,
24409762,00000011,false,Rx,0,8,E6,1B,00,00,E1,9C,00,00,
24411444,00000012,false,Rx,0,8,30,C3,08,00,F6,6F,09,00,
24413025,00000013,false,Rx,0,8,BF,19,05,00,5B,57,02,00,
24414305,00000014,false,Rx,0,4,1A,08,B8,03,00,00,00,00,
24466268,00000011,false,Rx,0,8,E6,1B,00,00,A5,9C,00,00,
24467927,00000012,false,Rx,0,8,30,C3,08,00,5E,6C,09,00,
24469490,00000013,false,Rx,0,8,BF,19,05,00,BA,56,02,00,
24470783,00000014,false,Rx,0,4,1A,08,B7,03,00,00,00,00,
24523023,00000011,false,Rx,0,8,E6,1B,00,00,A5,9C,00,00,
24524391,00000012,false,Rx,0,8,30,C3,08,00,5E,6C,09,00,
24525938,00000013,false,Rx,0,8,BF,19,05,00,BA,56,02,00,
24527239,00000014,false,Rx,0,4,1A,08,B7,03,00,00,00,00,
24579248,00000011,false,Rx,0,8,EA,1B,00,00,A5,9C,00,00,
24580836,00000012,false,Rx,0,8,70,C4,08,00,5E,6C,09,00,
24582459,00000013,false,Rx,0,8,60,1A,05,00,BA,56,02,00,
24583988,00000014,false,Rx,0,4,1B,08,B7,03,00,00,00,00,
24635728,00000011,false,Rx,0,8,EA,1B,00,00,A5,9C,00,00,
24637360,00000012,false,Rx,0,8,70,C4,08,00,5E,6C,09,00,
24638934,00000013,false,Rx,0,8,60,1A,05,00,BA,56,02,00,
24640192,00000014,false,Rx,0,4,1B,08,B7,03,00,00,00,00,
24692167,00000011,false,Rx,0,8,EE,1B,00,00,A5,9C,00,00,
24693817,00000012,false,Rx,0,8,B0,C5,08,00,5E,6C,09,00,
24695388,00000013,false,Rx,0,8,01,1B,05,00,BA,56,02,00,
24696687,00000014,false,Rx,0,4,1C,08,B7,03,00,00,00,00,
24748671,00000011,false,Rx,0,8,EE,1B,00,00,A5,9C,00,00,
24750294,00000012,false,Rx,0,8,B0,C5,08,00,5E,6C,09,00,
24751863,00000013,false,Rx,0,8,01,1B,05,00,BA,56,02,00,
24753163,00000014,false,Rx,0,4,1C,08,B7,03,00,00,00,00,
24805389,00000011,false,Rx,0,8,EE,1B,00,00,6A,9C,00,00,
24806771,00000012,false,Rx,0,8,B0,C5,08,00,C7,68,09,00,
24808313,00000013,false,Rx,0,8,01,1B,05,00,19,56,02,00,
24809648,00000014,false,Rx,0,4,1C,08,B6,03,00,00,00,00,
24861624,00000011,false,Rx,0,8,EE,1B,00,00,6A,9C,00,00,
24863242,00000012,false,Rx,0,8,B0,C5,08,00,C7,68,09,00,
24864788,00000013,false,Rx,0,8,01,1B,05,00,19,56,02,00,
24866121,00000014,false,Rx,0,4,1C,08,B6,03,00,00,00,00,
24918097,00000011,false,Rx,0,8,F2,1B,00,00,6A,9C,00,00,
24919939,00000012,false,Rx,0,8,F0,C6,08,00,C7,68,09,00,
24921488,00000013,false,Rx,0,8,A2,1B,05,00,19,56,02,00,
24922826,00000014,false,Rx,0,4,1D,08,B6,03,00,00,00,00,
24974523,00000011,false,Rx,0,8,4C,1A,00,00,F2,9B,00,00,
24976114,00000012,false,Rx,0,8,75,42,08,00,99,61,09,00,
24977705,00000013,false,Rx,0,8,E6,D8,04,00,D7,54,02,00,
24979017,00000014,false,Rx,0,4,B3,07,B4,03,00,00,00,00,
25030946,00000011,false,Rx,0,8,17,1B,00,00,81,78,00,00,
25032618,00000012,false,Rx,0,8,32,82,08,00,C6,3F,07,00,
25034164,00000013,false,Rx,0,8,02,F9,04,00,25,F5,01,00,
25035686,00000014,false,Rx,0,4,E6,07,1C,03,00,00,00,00,
25087663,00000011,false,Rx,0,8,A6,1B,00,00,B1,56,00,00,
25089079,00000012,false,Rx,0,8,31,AF,08,00,17,37,05,00,
25090662,00000013,false,Rx,0,8,AC,0F,05,00,DB,99,01,00,
25091864,00000014,false,Rx,0,4,0A,08,8B,02,00,00,00,00,
25143877,00000011,false,Rx,0,8,E2,1B,00,00,47,3D,00,00,
25145470,00000012,false,Rx,0,8,F0,C1,08,00,AE,AF,03,00,
25147040,00000013,false,Rx,0,8,1D,19,05,00,3B,55,01,00,
25148317,00000014,false,Rx,0,4,19,08,1E,02,00,00,00,00,
25200575,00000011,false,Rx,0,8,F2,1B,00,00,B0,29,00,00,
25201967,00000012,false,Rx,0,8,F0,C6,08,00,0A,82,02,00,
25203764,00000013,false,Rx,0,8,A2,1B,05,00,58,20,01,00,
25205065,00000014,false,Rx,0,4,1D,08,CA,01,00,00,00,00,
25256812,00000011,false,Rx,0,8,FE,1B,00,00,77,1B,00,00,
25258400,00000012,false,Rx,0,8,B0,CA,08,00,FE,A6,01,00,
25260024,00000013,false,Rx,0,8,86,1D,05,00,F1,F9,00,00,
25261271,00000014,false,Rx,0,4,20,08,8D,01,00,00,00,00,
25313227,00000011,false,Rx,0,8,02,1C,00,00,46,10,00,00,
25314821,00000012,false,Rx,0,8,F0,CB,08,00,A1,FA,00,00,
25316612,00000013,false,Rx,0,8,27,1E,05,00,B9,DB,00,00,
25317718,00000014,false,Rx,0,4,21,08,5D,01,00,00,00,00,
25369700,00000011,false,Rx,0,8,06,1C,00,00,58,08,00,00,
25371314,00000012,false,Rx,0,8,30,CD,08,00,8A,80,00,00,
25372880,00000013,false,Rx,0,8,C8,1E,05,00,51,C6,00,00,
25374150,00000014,false,Rx,0,4,22,08,3B,01,00,00,00,00,
25426107,00000011,false,Rx,0,8,0A,1C,00,00,AE,03,00,00,
25427776,00000012,false,Rx,0,8,70,CE,08,00,B8,38,00,00,
25429321,00000013,false,Rx,0,8,69,1F,05,00,B9,B9,00,00,
25430605,00000014,false,Rx,0,4,23,08,27,01,00,00,00,00,
25482543,00000011,false,Rx,0,8,0A,1C,00,00,95,01,00,00,
25484147,00000012,false,Rx,0,8,70,CE,08,00,66,18,00,00,
25485797,00000013,false,Rx,0,8,69,1F,05,00,0F,B4,00,00,
25487052,00000014,false,Rx,0,4,23,08,1E,01,00,00,00,00,
25539231,00000011,false,Rx,0,8,0A,1C,00,00,1E,01,00,00,
25540580,00000012,false,Rx,0,8,70,CE,08,00,38,11,00,00,
25542181,00000013,false,Rx,0,8,69,1F,05,00,CC,B2,00,00,
25543471,00000014,false,Rx,0,4,23,08,1C,01,00,00,00,00,
25595473,00000011,false,Rx,0,8,0E,1C,00,00,1E,01,00,00,
25597064,00000012,false,Rx,0,8,B0,CF,08,00,38,11,00,00,
25598642,00000013,false,Rx,0,8,0A,20,05,00,CC,B2,00,00,
25599941,00000014,false,Rx,0,4,24,08,1C,01,00,00,00,00,
25651899,00000011,false,Rx,0,8,0E,1C,00,00,E2,00,00,00,
25653606,00000012,false,Rx,0,8,B0,CF,08,00,A1,0D,00,00,
25655316,00000013,false,Rx,0,8,0A,20,05,00,2B,B2,00,00,
25656369,00000014,false,Rx,0,4,24,08,1B,01,00,00,00,00,
25708307,00000011,false,Rx,0,8,0A,1C,00,00,1E,01,00,00,
25709936,00000012,false,Rx,0,8,70,CE,08,00,38,11,00,00,
25711479,00000013,false,Rx,0,8,69,1F,05,00,CC,B2,00,00,
25712776,00000014,false,Rx,0,4,23,08,1C,01,00,00,00,00,
25764732,00000011,false,Rx,0,8,0E,1C,00,00,E2,00,00,00,
25766604,00000012,false,Rx,0,8,B0,CF,08,00,A1,0D,00,00,
25767974,00000013,false,Rx,0,8,0A,20,05,00,2B,B2,00,00,
25769477,00000014,false,Rx,0,4,24,08,1B,01,00,00,00,00,
25821208,00000011,false,Rx,0,8,0E,1C,00,00,1E,01,00,00,
25822802,00000012,false,Rx,0,8,B0,CF,08,00,38,11,00,00,
25824354,00000013,false,Rx,0,8,0A,20,05,00,CC,B2,00,00,
25825651,00000014,false,Rx,0,4,24,08,1C,01,00,00,00,00,
25877640,00000011,false,Rx,0,8,0E,1C,00,00,E2,00,00,00,
25879231,00000012,false,Rx,0,8,B0,CF,08,00,A1,0D,00,00,
25880828,00000013,false,Rx,0,8,0A,20,05,00,2B,B2,00,00,
25882281,00000014,false,Rx,0,4,24,08,1B,01,00,00,00,00,
25934082,00000011,false,Rx,0,8,0E,1C,00,00,A6,00,00,00,
25935925,00000012,false,Rx,0,8,B0,CF,08,00,09,0A,00,00,
25937476,00000013,false,Rx,0,8,0A,20,05,00,8A,B1,00,00,
25938780,00000014,false,Rx,0,4,24,08,1A,01,00,00,00,00,
25990506,00000011,false,Rx,0,8,0A,1C,00,00,A6,00,00,00,
25992109,00000012,false,Rx,0,8,70,CE,08,00,09,0A,00,00,
25993680,00000013,false,Rx,0,8,69,1F,05,00,8A,B1,00,00,
25994955,00000014,false,Rx,0,4,23,08,1A,01,00,00,00,00,
26046938,00000011,false,Rx,0,8,0E,1C,00,00,0D,02,00,00,
26048556,00000012,false,Rx,0,8,B0,CF,08,00,95,1F,00,00,
26050103,00000013,false,Rx,0,8,0A,20,05,00,51,B5,00,00,
26051376,00000014,false,Rx,0,4,24,08,20,01,00,00,00,00,
26103486,00000011,false,Rx,0,8,12,1C,00,00,E2,00,00,00,
26105225,00000012,false,Rx,0,8,F0,D0,08,00,A1,0D,00,00,
26106578,00000013,false,Rx,0,8,AB,20,05,00,2B,B2,00,00,
26107801,00000014,false,Rx,0,4,25,08,1B,01,00,00,00,00,
26159816,00000011,false,Rx,0,8,0E,1C,00,00,E2,00,00,00,
26161407,00000012,false,Rx,0,8,B0,CF,08,00,A1,0D,00,00,
26162960,00000013,false,Rx,0,8,0A,20,05,00,2B,B2,00,00,
26164285,00000014,false,Rx,0,4,24,08,1B,01,00,00,00,00,
26216304,00000011,false,Rx,0,8,0E,1C,00,00,A6,00,00,00,
26217880,00000012,false,Rx,0,8,B0,CF,08,00,09,0A,00,00,
26219573,00000013,false,Rx,0,8,0A,20,05,00,8A,B1,00,00,
26220737,00000014,false,Rx,0,4,24,08,1A,01,00,00,00,00,
26272669,00000011,false,Rx,0,8,12,1C,00,00,A6,00,00,00,
26274290,00000012,false,Rx,0,8,F0,D0,08,00,09,0A,00,00,
26275866,00000013,false,Rx,0,8,AB,20,05,00,8A,B1,00,00,
26277134,00000014,false,Rx,0,4,25,08,1A,01,00,00,00,00,
26329116,00000011,false,Rx,0,8,0E,1C,00,00,A6,00,00,00,
26330711,00000012,false,Rx,0,8,B0,CF,08,00,09,0A,00,00,
26332258,00000013,false,Rx,0,8,0A,20,05,00,8A,B1,00,00,
26333555,00000014,false,Rx,0,4,24,08,1A,01,00,00,00,00,
26385566,00000011,false,Rx,0,8,0A,1C,00,00,A6,00,00,00,
26387159,00000012,false,Rx,0,8,70,CE,08,00,09,0A,00,00,
26388716,00000013,false,Rx,0,8,69,1F,05,00,8A,B1,00,00,
26389992,00000014,false,Rx,0,4,23,08,1A,01,00,00,00,00,
26441939,00000011,false,Rx,0,8,0A,1C,00,00,A6,00,00,00,
26443563,00000012,false,Rx,0,8,70,CE,08,00,09,0A,00,00,
26445136,00000013,false,Rx,0,8,69,1F,05,00,8A,B1,00,00,
26446443,00000014,false,Rx,0,4,23,08,1A,01,00,00,00,00,
26498419,00000011,false,Rx,0,8,0E,1C,00,00,A6,00,00,00,
26500056,00000012,false,Rx,0,8,B0,CF,08,00,09,0A,00,00,
26501704,00000013,false,Rx,0,8,0A,20,05,00,8A,B1,00,00,
26503139,00000014,false,Rx,0,4,24,08,1A,01,00,00,00,00,
26554892,00000011,false,Rx,0,8,0E,1C,00,00,0D,02,00,00,
26556470,00000012,false,Rx,0,8,B0,CF,08,00,95,1F,00,00,
26558040,00000013,false,Rx,0,8,0A,20,05,00,51,B5,00,00,
26559318,00000014,false,Rx,0,4,24,08,20,01,00,00,00,00,
26611345,00000011,false,Rx,0,8,0E,1C,00,00,A6,00,00,00,
26612939,00000012,false,Rx,0,8,B0,CF,08,00,09,0A,00,00,
26614515,00000013,false,Rx,0,8,0A,20,05,00,8A,B1,00,00,
26615990,00000014,false,Rx,0,4,24,08,1A,01,00,00,00,00,
26667951,00000011,false,Rx,0,8,0E,1C,00,00,A6,00,00,00,
26669411,00000012,false,Rx,0,8,B0,CF,08,00,09,0A,00,00,
26670964,00000013,false,Rx,0,8,0A,20,05,00,8A,B1,00,00,
26672241,00000014,false,Rx,0,4,24,08,1A,01,00,00,00,00,
26724201,00000011,false,Rx,0,8,12,1C,00,00,A6,00,00,00,
26725821,00000012,false,Rx,0,8,F0,D0,08,00,09,0A,00,00,
26727383,00000013,false,Rx,0,8,AB,20,05,00,8A,B1,00,00,
26728668,00000014,false,Rx,0,4,25,08,1A,01,00,00,00,00,
26780626,00000011,false,Rx,0,8,0A,1C,00,00,A6,00,00,00,
26782245,00000012,false,Rx,0,8,70,CE,08,00,09,0A,00,00,
26783964,00000013,false,Rx,0,8,69,1F,05,00,8A,B1,00,00,
26785097,00000014,false,Rx,0,4,23,08,1A,01,00,00,00,00,
26837286,00000011,false,Rx,0,8,0E,1C,00,00,A6,00,00,00,
26838927,00000012,false,Rx,0,8,B0,CF,08,00,09,0A,00,00,
26840222,00000013,false,Rx,0,8,0A,20,05,00,8A,B1,00,00,
26841498,00000014,false,Rx,0,4,24,08,1A,01,00,00,00,00,
26893475,00000011,false,Rx,0,8,0E,1C,00,00,A6,00,00,00,
26895070,00000012,false,Rx,0,8,B0,CF,08,00,09,0A,00,00,
26896640,00000013,false,Rx,0,8,0A,20,05,00,8A,B1,00,00,
26897915,00000014,false,Rx,0,4,24,08,1A,01,00,00,00,00,
26949898,00000011,false,Rx,0,8,0A,1C,00,00,E2,00,00,00,
26951789,00000012,false,Rx,0,8,70,CE,08,00,A1,0D,00,00,
26953137,00000013,false,Rx,0,8,69,1F,05,00,2B,B2,00,00,
26954411,00000014,false,Rx,0,4,23,08,1B,01,00,00,00,00,
27006369,00000011,false,Rx,0,8,0E,1C,00,00,A6,00,00,00,
27007981,00000012,false,Rx,0,8,B0,CF,08,00,09,0A,00,00,
27009529,00000013,false,Rx,0,8,0A,20,05,00,8A,B1,00,00,
27010849,00000014,false,Rx,0,4,24,08,1A,01,00,00,00,00,
27062830,00000011,false,Rx,0,8,0E,1C,00,00,A6,00,00,00,
27064390,00000012,false,Rx,0,8,B0,CF,08,00,09,0A,00,00,
27066242,00000013,false,Rx,0,8,0A,20,05,00,8A,B1,00,00,
27067520,00000014,false,Rx,0,4,24,08,1A,01,00,00,00,00,
27119271,00000011,false,Rx,0,8,0E,1C,00,00,6B,00,00,00,
27121114,00000012,false,Rx,0,8,B0,CF,08,00,72,06,00,00,
27122431,00000013,false,Rx,0,8,0A,20,05,00,E9,B0,00,00,
27123734,00000014,false,Rx,0,4,24,08,19,01,00,00,00,00,
27175669,00000011,false,Rx,0,8,0E,1C,00,00,A6,00,00,00,
27177266,00000012,false,Rx,0,8,B0,CF,08,00,09,0A,00,00,
27178840,00000013,false,Rx,0,8,0A,20,05,00,8A,B1,00,00,
27180119,00000014,false,Rx,0,4,24,08,1A,01,00,00,00,00,
27232133,00000011,false,Rx,0,8,0E,1C,00,00,A6,00,00,00,
27233733,00000012,false,Rx,0,8,B0,CF,08,00,09,0A,00,00,
27235324,00000013,false,Rx,0,8,0A,20,05,00,8A,B1,00,00,
27236617,00000014,false,Rx,0,4,24,08,1A,01,00,00,00,00,
27288717,00000011,false,Rx,0,8,0A,1C,00,00,A6,00,00,00,
27290191,00000012,false,Rx,0,8,70,CE,08,00,09,0A,00,00,
27291721,00000013,false,Rx,0,8,69,1F,05,00,8A,B1,00,00,
27293027,00000014,false,Rx,0,4,23,08,1A,01,00,00,00,00,
27345025,00000011,false,Rx,0,8,0E,1C,00,00,6B,00,00,00,
27346620,00000012,false,Rx,0,8,B0,CF,08,00,72,06,00,00,
27348199,00000013,false,Rx,0,8,0A,20,05,00,E9,B0,00,00,
27349506,00000014,false,Rx,0,4,24,08,19,01,00,00,00,00,
27401504,00000011,false,Rx,0,8,0E,1C,00,00,6B,00,00,00,
27403095,00000012,false,Rx,0,8,B0,CF,08,00,72,06,00,00,
27404657,00000013,false,Rx,0,8,0A,20,05,00,E9,B0,00,00,
27405960,00000014,false,Rx,0,4,24,08,19,01,00,00,00,00,
27457928,00000011,false,Rx,0,8,0A,1C,00,00,6B,00,00,00,
27459523,00000012,false,Rx,0,8,70,CE,08,00,72,06,00,00,
27461094,00000013,false,Rx,0,8,69,1F,05,00,E9,B0,00,00,
27462368,00000014,false,Rx,0,4,23,08,19,01,00,00,00,00,
27514352,00000011,false,Rx,0,8,CD,13,00,00,2F,34,00,00,
27516104,00000012,false,Rx,0,8,07,38,06,00,A2,23,03,00,
27517598,00000013,false,Rx,0,8,BC,D1,03,00,AD,3C,01,00,
27518900,00000014,false,Rx,0,4,11,06,F7,01,00,00,00,00,
27570885,00000011,false,Rx,0,8,03,18,00,00,BA,86,00,00,
27572487,00000012,false,Rx,0,8,BB,8A,07,00,D2,1A,08,00,
27574023,00000013,false,Rx,0,8,5A,7C,04,00,8C,1B,02,00,
27575301,00000014,false,Rx,0,4,20,07,59,03,00,00,00,00,
27627280,00000011,false,Rx,0,8,FA,1B,00,00,F1,A2,00,00,
27628872,00000012,false,Rx,0,8,70,C9,08,00,53,CD,09,00,
27630453,00000013,false,Rx,0,8,E4,1C,05,00,BA,67,02,00,
27631745,00000014,false,Rx,0,4,1F,08,D2,03,00,00,00,00,
27683983,00000011,false,Rx,0,8,32,1C,00,00,C7,A1,00,00,
27685375,00000012,false,Rx,0,8,EF,DA,08,00,5E,BB,09,00,
27686927,00000013,false,Rx,0,8,B5,25,05,00,94,64,02,00,
27688452,00000014,false,Rx,0,4,2D,08,CD,03,00,00,00,00,
27740163,00000011,false,Rx,0,8,0A,1C,00,00,13,A1,00,00,
27741753,00000012,false,Rx,0,8,70,CE,08,00,99,B0,09,00,
27743324,00000013,false,Rx,0,8,69,1F,05,00,B1,62,02,00,
27744623,00000014,false,Rx,0,4,23,08,CA,03,00,00,00,00,
27796659,00000011,false,Rx,0,8,EE,1B,00,00,60,A0,00,00,
27798224,00000012,false,Rx,0,8,B0,C5,08,00,D3,A5,09,00,
27800076,00000013,false,Rx,0,8,01,1B,05,00,CD,60,02,00,
27801157,00000014,false,Rx,0,4,1C,08,C7,03,00,00,00,00,
27853259,00000011,false,Rx,0,8,DE,1B,00,00,25,A0,00,00,
27854857,00000012,false,Rx,0,8,B0,C0,08,00,3C,A2,09,00,
27856323,00000013,false,Rx,0,8,7C,18,05,00,2C,60,02,00,
27857576,00000014,false,Rx,0,4,18,08,C6,03,00,00,00,00,
27909537,00000011,false,Rx,0,8,D2,1B,00,00,AD,9F,00,00,
27911151,00000012,false,Rx,0,8,F0,BC,08,00,0D,9B,09,00,
27912724,00000013,false,Rx,0,8,99,16,05,00,E9,5E,02,00,
27914057,00000014,false,Rx,0,4,15,08,C4,03,00,00,00,00,
27966246,00000011,false,Rx,0,8,CA,1B,00,00,72,9F,00,00,
27967884,00000012,false,Rx,0,8,70,BA,08,00,76,97,09,00,
27969193,00000013,false,Rx,0,8,56,15,05,00,48,5E,02,00,
27970485,00000014,false,Rx,0,4,13,08,C3,03,00,00,00,00,
28022455,00000011,false,Rx,0,8,C6,1B,00,00,36,9F,00,00,
28024061,00000012,false,Rx,0,8,30,B9,08,00,DE,93,09,00,
28025613,00000013,false,Rx,0,8,B5,14,05,00,A7,5D,02,00,
28026916,00000014,false,Rx,0,4,12,08,C2,03,00,00,00,00,
28078890,00000011,false,Rx,0,8,C6,1B,00,00,FA,9E,00,00,
28080483,00000012,false,Rx,0,8,30,B9,08,00,47,90,09,00,
28082083,00000013,false,Rx,0,8,B5,14,05,00,06,5D,02,00,
28083384,00000014,false,Rx,0,4,12,08,C1,03,00,00,00,00,
28135364,00000011,false,Rx,0,8,C2,1B,00,00,FA,9E,00,00,
28137179,00000012,false,Rx,0,8,F1,B7,08,00,47,90,09,00,
28138528,00000013,false,Rx,0,8,14,14,05,00,06,5D,02,00,
28139787,00000014,false,Rx,0,4,11,08,C1,03,00,00,00,00,
28191768,00000011,false,Rx,0,8,C2,1B,00,00,83,9E,00,00,
28193360,00000012,false,Rx,0,8,F1,B7,08,00,19,89,09,00,
28194935,00000013,false,Rx,0,8,14,14,05,00,C4,5B,02,00,
28196236,00000014,false,Rx,0,4,11,08,BF,03,00,00,00,00,
28248215,00000011,false,Rx,0,8,C2,1B,00,00,83,9E,00,00,
28249789,00000012,false,Rx,0,8,F1,B7,08,00,19,89,09,00,
28251361,00000013,false,Rx,0,8,14,14,05,00,C4,5B,02,00,
28252664,00000014,false,Rx,0,4,11,08,BF,03,00,00,00,00,
28304680,00000011,false,Rx,0,8,CA,1B,00,00,47,9E,00,00,
28306292,00000012,false,Rx,0,8,70,BA,08,00,81,85,09,00,
28307759,00000013,false,Rx,0,8,56,15,05,00,22,5B,02,00,
28309058,00000014,false,Rx,0,4,13,08,BE,03,00,00,00,00,
28361038,00000011,false,Rx,0,8,CA,1B,00,00,47,9E,00,00,
28362657,00000012,false,Rx,0,8,70,BA,08,00,81,85,09,00,
28364262,00000013,false,Rx,0,8,56,15,05,00,22,5B,02,00,
28365809,00000014,false,Rx,0,4,13,08,BE,03,00,00,00,00,
28417574,00000011,false,Rx,0,8,CA,1B,00,00,0B,9E,00,00,
28419175,00000012,false,Rx,0,8,70,BA,08,00,EA,81,09,00,
28420758,00000013,false,Rx,0,8,56,15,05,00,81,5A,02,00,
28422088,00000014,false,Rx,0,4,13,08,BD,03,00,00,00,00,
28473999,00000011,false,Rx,0,8,CA,1B,00,00,47,9E,00,00,
28475619,00000012,false,Rx,0,8,70,BA,08,00,81,85,09,00,
28477192,00000013,false,Rx,0,8,56,15,05,00,22,5B,02,00,
28478490,00000014,false,Rx,0,4,13,08,BE,03,00,00,00,00,
28530470,00000011,false,Rx,0,8,CE,1B,00,00,D0,9D,00,00,
28532129,00000012,false,Rx,0,8,B0,BB,08,00,53,7E,09,00,
28533715,00000013,false,Rx,0,8,F8,15,05,00,E0,59,02,00,
28534994,00000014,false,Rx,0,4,14,08,BC,03,00,00,00,00,
28587001,00000011,false,Rx,0,8,D2,1B,00,00,94,9D,00,00,
28588614,00000012,false,Rx,0,8,F0,BC,08,00,BB,7A,09,00,
28590124,00000013,false,Rx,0,8,99,16,05,00,3F,59,02,00,
28591451,00000014,false,Rx,0,4,15,08,BB,03,00,00,00,00,
28643421,00000011,false,Rx,0,8,D6,1B,00,00,D0,9D,00,00,
28645067,00000012,false,Rx,0,8,30,BE,08,00,53,7E,09,00,
28646856,00000013,false,Rx,0,8,3A,17,05,00,E0,59,02,00,
28647997,00000014,false,Rx,0,4,16,08,BC,03,00,00,00,00,
28699868,00000011,false,Rx,0,8,DA,1B,00,00,94,9D,00,00,
28701514,00000012,false,Rx,0,8,70,BF,08,00,BB,7A,09,00,
28703156,00000013,false,Rx,0,8,DB,17,05,00,3F,59,02,00,
28704360,00000014,false,Rx,0,4,17,08,BB,03,00,00,00,00,
28756310,00000011,false,Rx,0,8,DA,1B,00,00,94,9D,00,00,
28757927,00000012,false,Rx,0,8,70,BF,08,00,BB,7A,09,00,
28759539,00000013,false,Rx,0,8,DB,17,05,00,3F,59,02,00,
28760785,00000014,false,Rx,0,4,17,08,BB,03,00,00,00,00,
28812773,00000011,false,Rx,0,8,E2,1B,00,00,94,9D,00,00,
28814538,00000012,false,Rx,0,8,F0,C1,08,00,BB,7A,09,00,
28816086,00000013,false,Rx,0,8,1D,19,05,00,3F,59,02,00,
28817264,00000014,false,Rx,0,4,19,08,BB,03,00,00,00,00,
28869470,00000011,false,Rx,0,8,DE,1B,00,00,58,9D,00,00,
28870828,00000012,false,Rx,0,8,B0,C0,08,00,24,77,09,00,
28872392,00000013,false,Rx,0,8,7C,18,05,00,9E,58,02,00,
28873668,00000014,false,Rx,0,4,18,08,BA,03,00,00,00,00,
28925610,00000011,false,Rx,0,8,E2,1B,00,00,58,9D,00,00,
28927261,00000012,false,Rx,0,8,F0,C1,08,00,24,77,09,00,
28928808,00000013,false,Rx,0,8,1D,19,05,00,9E,58,02,00,
28930102,00000014,false,Rx,0,4,19,08,BA,03,00,00,00,00,
28982100,00000011,false,Rx,0,8,EA,1B,00,00,94,9D,00,00,
28983661,00000012,false,Rx,0,8,70,C4,08,00,BB,7A,09,00,
28985259,00000013,false,Rx,0,8,60,1A,05,00,3F,59,02,00,
28986520,00000014,false,Rx,0,4,1B,08,BB,03,00,00,00,00,
29038471,00000011,false,Rx,0,8,EA,1B,00,00,1D,9D,00,00,
29040078,00000012,false,Rx,0,8,70,C4,08,00,8D,73,09,00,
29041637,00000013,false,Rx,0,8,60,1A,05,00,FD,57,02,00,
29042928,00000014,false,Rx,0,4,1B,08,B9,03,00,00,00,00,
29094830,00000011,false,Rx,0,8,EE,1B,00,00,1D,9D,00,00,
29096422,00000012,false,Rx,0,8,B0,C5,08,00,8D,73,09,00,
29098036,00000013,false,Rx,0,8,01,1B,05,00,FD,57,02,00,
29099293,00000014,false,Rx,0,4,1C,08,B9,03,00,00,00,00,
29151270,00000011,false,Rx,0,8,EE,1B,00,00,1D,9D,00,00,
29152947,00000012,false,Rx,0,8,B0,C5,08,00,8D,73,09,00,
29154593,00000013,false,Rx,0,8,01,1B,05,00,FD,57,02,00,
29155740,00000014,false,Rx,0,4,1C,08,B9,03,00,00,00,00,
29207632,00000011,false,Rx,0,8,F2,1B,00,00,E1,9C,00,00,
29209224,00000012,false,Rx,0,8,F0,C6,08,00,F6,6F,09,00,
29210798,00000013,false,Rx,0,8,A2,1B,05,00,5B,57,02,00,
29212098,00000014,false,Rx,0,4,1D,08,B8,03,00,00,00,00,
29264053,00000011,false,Rx,0,8,F6,1B,00,00,1D,9D,00,00,
29265653,00000012,false,Rx,0,8,30,C8,08,00,8D,73,09,00,
29267237,00000013,false,Rx,0,8,43,1C,05,00,FD,57,02,00,
29268629,00000014,false,Rx,0,4,1E,08,B9,03,00,00,00,00,
29320711,00000011,false,Rx,0,8,F6,1B,00,00,E1,9C,00,00,
29322057,00000012,false,Rx,0,8,30,C8,08,00,F6,6F,09,00,
29323623,00000013,false,Rx,0,8,43,1C,05,00,5B,57,02,00,
29324961,00000014,false,Rx,0,4,1E,08,B8,03,00,00,00,00,
29376897,00000011,false,Rx,0,8,F6,1B,00,00,E1,9C,00,00,
29378513,00000012,false,Rx,0,8,30,C8,08,00,F6,6F,09,00,
29380081,00000013,false,Rx,0,8,43,1C,05,00,5B,57,02,00,
29381366,00000014,false,Rx,0,4,1E,08,B8,03,00,00,00,00,
29433345,00000011,false,Rx,0,8,FE,1B,00,00,E1,9C,00,00,
29435095,00000012,false,Rx,0,8,B0,CA,08,00,F6,6F,09,00,
29436696,00000013,false,Rx,0,8,86,1D,05,00,5B,57,02,00,
29437801,00000014,false,Rx,0,4,20,08,B8,03,00,00,00,00,
29489765,00000011,false,Rx,0,8,FA,1B,00,00,E1,9C,00,00,
29491361,00000012,false,Rx,0,8,70,C9,08,00,F6,6F,09,00,
29492943,00000013,false,Rx,0,8,E4,1C,05,00,5B,57,02,00,
29494241,00000014,false,Rx,0,4,1F,08,B8,03,00,00,00,00,
29546224,00000011,false,Rx,0,8,FA,1B,00,00,A5,9C,00,00,
29547784,00000012,false,Rx,0,8,70,C9,08,00,5E,6C,09,00,
29549406,00000013,false,Rx,0,8,E4,1C,05,00,BA,56,02,00,
29550664,00000014,false,Rx,0,4,1F,08,B7,03,00,00,00,00,
29602749,00000011,false,Rx,0,8,F3,1A,00,00,A5,9C,00,00,
29604372,00000012,false,Rx,0,8,F3,76,08,00,5E,6C,09,00,
29605752,00000013,false,Rx,0,8,57,F3,04,00,BA,56,02,00,
29607085,00000014,false,Rx,0,4,DD,07,B7,03,00,00,00,00,
29659046,00000011,false,Rx,0,8,D7,1A,00,00,5C,88,00,00,
29660631,00000012,false,Rx,0,8,33,6E,08,00,F5,33,08,00,
29662244,00000013,false,Rx,0,8,EF,EE,04,00,F4,1F,02,00,
29663532,00000014,false,Rx,0,4,D6,07,60,03,00,00,00,00,
29715433,00000011,false,Rx,0,8,8A,1B,00,00,6B,61,00,00,
29717088,00000012,false,Rx,0,8,71,A6,08,00,46,DC,05,00,
29718656,00000013,false,Rx,0,8,44,0B,05,00,D0,B6,01,00,
29720040,00000014,false,Rx,0,4,03,08,B9,02,00,00,00,00,
29771864,00000011,false,Rx,0,8,D6,1B,00,00,70,45,00,00,
29773477,00000012,false,Rx,0,8,30,BE,08,00,5C,2D,04,00,
29775055,00000013,false,Rx,0,8,3A,17,05,00,44,6B,01,00,
29776373,00000014,false,Rx,0,4,16,08,41,02,00,00,00,00,
29828356,00000011,false,Rx,0,8,F6,1B,00,00,85,2F,00,00,
29829902,00000012,false,Rx,0,8,30,C8,08,00,D0,DB,02,00,
29831515,00000013,false,Rx,0,8,43,1C,05,00,16,30,01,00,
29832779,00000014,false,Rx,0,4,1E,08,E3,01,00,00,00,00,
29884795,00000011,false,Rx,0,8,FE,1B,00,00,E5,1F,00,00,
29886386,00000012,false,Rx,0,8,B0,CA,08,00,39,EB,01,00,
29887956,00000013,false,Rx,0,8,86,1D,05,00,E7,05,01,00,
29889211,00000014,false,Rx,0,4,20,08,A0,01,00,00,00,00,
29941169,00000011,false,Rx,0,8,06,1C,00,00,C5,13,00,00,
29942789,00000012,false,Rx,0,8,30,CD,08,00,7E,30,01,00,
29944371,00000013,false,Rx,0,8,C8,1E,05,00,2A,E5,00,00,
29945645,00000014,false,Rx,0,4,22,08,6C,01,00,00,00,00,
29997597,00000011,false,Rx,0,8,0A,1C,00,00,E9,0A,00,00,
29999184,00000012,false,Rx,0,8,70,CE,08,00,0A,A8,00,00,
30000776,00000013,false,Rx,0,8,69,1F,05,00,3E,CD,00,00,
30002329,00000014,false,Rx,0,4,23,08,46,01,00,00,00,00,
30054182,00000011,false,Rx,0,8,0E,1C,00,00,D9,04,00,00,
30055642,00000012,false,Rx,0,8,B0,CF,08,00,AC,4A,00,00,
30057190,00000013,false,Rx,0,8,0A,20,05,00,DF,BC,00,00,
30058492,00000014,false,Rx,0,4,24,08,2C,01,00,00,00,00,
30110480,00000011,false,Rx,0,8,12,1C,00,00,0D,02,00,00,
30112098,00000012,false,Rx,0,8,F0,D0,08,00,95,1F,00,00,
30113654,00000013,false,Rx,0,8,AB,20,05,00,51,B5,00,00,
30114949,00000014,false,Rx,0,4,25,08,20,01,00,00,00,00,
30166918,00000011,false,Rx,0,8,12,1C,00,00,1E,01,00,00,
30168672,00000012,false,Rx,0,8,F0,D0,08,00,38,11,00,00,
30170115,00000013,false,Rx,0,8,AB,20,05,00,CC,B2,00,00,
30171335,00000014,false,Rx,0,4,25,08,1C,01,00,00,00,00,
30223314,00000011,false,Rx,0,8,12,1C,00,00,E2,00,00,00,
30224939,00000012,false,Rx,0,8,F0,D0,08,00,A1,0D,00,00,
30226515,00000013,false,Rx,0,8,AB,20,05,00,2B,B2,00,00,
30227819,00000014,false,Rx,0,4,25,08,1B,01,00,00,00,00,
30279844,00000011,false,Rx,0,8,12,1C,00,00,A6,00,00,00,
30281423,00000012,false,Rx,0,8,F0,D0,08,00,09,0A,00,00,
30283160,00000013,false,Rx,0,8,AB,20,05,00,8A,B1,00,00,
30284457,00000014,false,Rx,0,4,25,08,1A,01,00,00,00,00,
30336488,00000011,false,Rx,0,8,16,1C,00,00,A6,00,00,00,
30337885,00000012,false,Rx,0,8,30,D2,08,00,09,0A,00,00,
30339416,00000013,false,Rx,0,8,4D,21,05,00,8A,B1,00,00,
30340690,00000014,false,Rx,0,4,26,08,1A,01,00,00,00,00,
30392736,00000011,false,Rx,0,8,16,1C,00,00,A6,00,00,00,
30394329,00000012,false,Rx,0,8,30,D2,08,00,09,0A,00,00,
30395896,00000013,false,Rx,0,8,4D,21,05,00,8A,B1,00,00,
30397202,00000014,false,Rx,0,4,26,08,1A,01,00,00,00,00,
30449141,00000011,false,Rx,0,8,12,1C,00,00,A6,00,00,00,
30450772,00000012,false,Rx,0,8,F0,D0,08,00,09,0A,00,00,
30452327,00000013,false,Rx,0,8,AB,20,05,00,8A,B1,00,00,
30453628,00000014,false,Rx,0,4,25,08,1A,01,00,00,00,00,
30505594,00000011,false,Rx,0,8,16,1C,00,00,A6,00,00,00,
30507193,00000012,false,Rx,0,8,30,D2,08,00,09,0A,00,00,
30508741,00000013,false,Rx,0,8,4D,21,05,00,8A,B1,00,00,
30510071,00000014,false,Rx,0,4,26,08,1A,01,00,00,00,00,
30562073,00000011,false,Rx,0,8,16,1C,00,00,A6,00,00,00,
30563706,00000012,false,Rx,0,8,30,D2,08,00,09,0A,00,00,
30565249,00000013,false,Rx,0,8,4D,21,05,00,8A,B1,00,00,
30566566,00000014,false,Rx,0,4,26,08,1A,01,00,00,00,00,
30618574,00000011,false,Rx,0,8,16,1C,00,00,A6,00,00,00,
30620198,00000012,false,Rx,0,8,30,D2,08,00,09,0A,00,00,
30621712,00000013,false,Rx,0,8,4D,21,05,00,8A,B1,00,00,
30622992,00000014,false,Rx,0,4,26,08,1A,01,00,00,00,00,
30674972,00000011,false,Rx,0,8,12,1C,00,00,6B,00,00,00,
30676593,00000012,false,Rx,0,8,F0,D0,08,00,72,06,00,00,
30678166,00000013,false,Rx,0,8,AB,20,05,00,E9,B0,00,00,
30679441,00000014,false,Rx,0,4,25,08,19,01,00,00,00,00,
30731506,00000011,false,Rx,0,8,16,1C,00,00,A6,00,00,00,
30733075,00000012,false,Rx,0,8,30,D2,08,00,09,0A,00,00,
30734663,00000013,false,Rx,0,8,4D,21,05,00,8A,B1,00,00,
30735968,00000014,false,Rx,0,4,26,08,1A,01,00,00,00,00,
30787946,00000011,false,Rx,0,8,16,1C,00,00,A6,00,00,00,
30789523,00000012,false,Rx,0,8,30,D2,08,00,09,0A,00,00,
30791074,00000013,false,Rx,0,8,4D,21,05,00,8A,B1,00,00,
30792372,00000014,false,Rx,0,4,26,08,1A,01,00,00,00,00,
30844381,00000011,false,Rx,0,8,16,1C,00,00,A6,00,00,00,
30845986,00000012,false,Rx,0,8,30,D2,08,00,09,0A,00,00,
30847559,00000013,false,Rx,0,8,4D,21,05,00,8A,B1,00,00,
30848852,00000014,false,Rx,0,4,26,08,1A,01,00,00,00,00,
30900834,00000011,false,Rx,0,8,12,1C,00,00,A6,00,00,00,
30902445,00000012,false,Rx,0,8,F0,D0,08,00,09,0A,00,00,
30904100,00000013,false,Rx,0,8,AB,20,05,00,8A,B1,00,00,
30905254,00000014,false,Rx,0,4,25,08,1A,01,00,00,00,00,
30957249,00000011,false,Rx,0,8,16,1C,00,00,6B,00,00,00,
30958881,00000012,false,Rx,0,8,30,D2,08,00,72,06,00,00,
30960460,00000013,false,Rx,0,8,4D,21,05,00,E9,B0,00,00,
30961761,00000014,false,Rx,0,4,26,08,19,01,00,00,00,00,
31013890,00000011,false,Rx,0,8,16,1C,00,00,6B,00,00,00,
31015572,00000012,false,Rx,0,8,30,D2,08,00,72,06,00,00,
31016899,00000013,false,Rx,0,8,4D,21,05,00,E9,B0,00,00,
31018222,00000014,false,Rx,0,4,26,08,19,01,00,00,00,00,
31070422,00000011,false,Rx,0,8,06,1C,00,00,A6,00,00,00,
31071784,00000012,false,Rx,0,8,30,CD,08,00,09,0A,00,00,
31073347,00000013,false,Rx,0,8,C8,1E,05,00,8A,B1,00,00,
31074647,00000014,false,Rx,0,4,22,08,1A,01,00,00,00,00,
31126651,00000011,false,Rx,0,8,12,1C,00,00,A6,00,00,00,
31128262,00000012,false,Rx,0,8,F0,D0,08,00,09,0A,00,00,
31129824,00000013,false,Rx,0,8,AB,20,05,00,8A,B1,00,00,
31131122,00000014,false,Rx,0,4,25,08,1A,01,00,00,00,00,
31183130,00000011,false,Rx,0,8,12,1C,00,00,6B,00,00,00,
31184699,00000012,false,Rx,0,8,F0,D0,08,00,72,06,00,00,
31186550,00000013,false,Rx,0,8,AB,20,05,00,E9,B0,00,00,
31187605,00000014,false,Rx,0,4,25,08,19,01,00,00,00,00,
31239579,00000011,false,Rx,0,8,16,1C,00,00,A6,00,00,00,
31241201,00000012,false,Rx,0,8,30,D2,08,00,09,0A,00,00,
31242752,00000013,false,Rx,0,8,4D,21,05,00,8A,B1,00,00,
31244100,00000014,false,Rx,0,4,26,08,1A,01,00,00,00,00,
31296108,00000011,false,Rx,0,8,16,1C,00,00,A6,00,00,00,
31297924,00000012,false,Rx,0,8,30,D2,08,00,09,0A,00,00,
31299503,00000013,false,Rx,0,8,4D,21,05,00,8A,B1,00,00,
31300691,00000014,false,Rx,0,4,26,08,1A,01,00,00,00,00,
31352555,00000011,false,Rx,0,8,12,1C,00,00,6B,00,00,00,
31354176,00000012,false,Rx,0,8,F0,D0,08,00,72,06,00,00,
31355741,00000013,false,Rx,0,8,AB,20,05,00,E9,B0,00,00,
31357019,00000014,false,Rx,0,4,25,08,19,01,00,00,00,00,
31408989,00000011,false,Rx,0,8,12,1C,00,00,A6,00,00,00,
31410612,00000012,false,Rx,0,8,F0,D0,08,00,09,0A,00,00,
31412152,00000013,false,Rx,0,8,AB,20,05,00,8A,B1,00,00,
31413449,00000014,false,Rx,0,4,25,08,1A,01,00,00,00,00,
31465439,00000011,false,Rx,0,8,16,1C,00,00,A6,00,00,00,
31467121,00000012,false,Rx,0,8,30,D2,08,00,09,0A,00,00,
31468631,00000013,false,Rx,0,8,4D,21,05,00,8A,B1,00,00,
31469957,00000014,false,Rx,0,4,26,08,1A,01,00,00,00,00,
31521963,00000011,false,Rx,0,8,1A,1C,00,00,A6,00,00,00,
31523513,00000012,false,Rx,0,8,70,D3,08,00,09,0A,00,00,
31525123,00000013,false,Rx,0,8,EE,21,05,00,8A,B1,00,00,
31526416,00000014,false,Rx,0,4,27,08,1A,01,00,00,00,00,
31578366,00000011,false,Rx,0,8,16,1C,00,00,A6,00,00,00,
31579982,00000012,false,Rx,0,8,30,D2,08,00,09,0A,00,00,
31581528,00000013,false,Rx,0,8,4D,21,05,00,8A,B1,00,00,
31582830,00000014,false,Rx,0,4,26,08,1A,01,00,00,00,00,
31634856,00000011,false,Rx,0,8,16,1C,00,00,6B,00,00,00,
31636471,00000012,false,Rx,0,8,30,D2,08,00,72,06,00,00,
31638047,00000013,false,Rx,0,8,4D,21,05,00,E9,B0,00,00,
31639316,00000014,false,Rx,0,4,26,08,19,01,00,00,00,00,
31691294,00000011,false,Rx,0,8,16,1C,00,00,6B,00,00,00,
31692884,00000012,false,Rx,0,8,30,D2,08,00,72,06,00,00,
31694456,00000013,false,Rx,0,8,4D,21,05,00,E9,B0,00,00,
31695753,00000014,false,Rx,0,4,26,08,19,01,00,00,00,00,
31747759,00000011,false,Rx,0,8,1A,1C,00,00,6B,00,00,00,
31749411,00000012,false,Rx,0,8,70,D3,08,00,72,06,00,00,
31750959,00000013,false,Rx,0,8,EE,21,05,00,E9,B0,00,00,
31752228,00000014,false,Rx,0,4,27,08,19,01,00,00,00,00,
31804251,00000011,false,Rx,0,8,16,1C,00,00,6B,00,00,00,
31805877,00000012,false,Rx,0,8,30,D2,08,00,72,06,00,00,
31807479,00000013,false,Rx,0,8,4D,21,05,00,E9,B0,00,00,
31808751,00000014,false,Rx,0,4,26,08,19,01,00,00,00,00,
31860694,00000011,false,Rx,0,8,16,1C,00,00,6B,00,00,00,
31862310,00000012,false,Rx,0,8,30,D2,08,00,72,06,00,00,
31863859,00000013,false,Rx,0,8,4D,21,05,00,E9,B0,00,00,
31865156,00000014,false,Rx,0,4,26,08,19,01,00,00,00,00,
31917183,00000011,false,Rx,0,8,1A,1C,00,00,6B,00,00,00,
31918783,00000012,false,Rx,0,8,70,D3,08,00,72,06,00,00,
31920376,00000013,false,Rx,0,8,EE,21,05,00,E9,B0,00,00,
31921648,00000014,false,Rx,0,4,27,08,19,01,00,00,00,00,
31973609,00000011,false,Rx,0,8,16,1C,00,00,6B,00,00,00,
31975228,00000012,false,Rx,0,8,30,D2,08,00,72,06,00,00,
31976783,00000013,false,Rx,0,8,4D,21,05,00,E9,B0,00,00,
31978111,00000014,false,Rx,0,4,26,08,19,01,00,00,00,00,
32030147,00000011,false,Rx,0,8,12,1C,00,00,A6,00,00,00,
32031725,00000012,false,Rx,0,8,F0,D0,08,00,09,0A,00,00,
32033264,00000013,false,Rx,0,8,AB,20,05,00,8A,B1,00,00,
32034600,00000014,false,Rx,0,4,25,08,1A,01,00,00,00,00,
32086746,00000011,false,Rx,0,8,8C,14,00,00,EB,64,00,00,
32088139,00000012,false,Rx,0,8,05,74,06,00,23,12,06,00,
32089716,00000013,false,Rx,0,8,F4,EF,03,00,42,C0,01,00,
32091015,00000014,false,Rx,0,4,41,06,C8,02,00,00,00,00,
32142989,00000011,false,Rx,0,8,0F,1B,00,00,58,9D,00,00,
32144606,00000012,false,Rx,0,8,B2,7F,08,00,24,77,09,00,
32146366,00000013,false,Rx,0,8,BF,F7,04,00,9E,58,02,00,
32147590,00000014,false,Rx,0,4,E4,07,BA,03,00,00,00,00,
32199468,00000011,false,Rx,0,8,3A,1C,00,00,C7,A1,00,00,
32201130,00000012,false,Rx,0,8,6F,DD,08,00,5E,BB,09,00,
32202642,00000013,false,Rx,0,8,F7,26,05,00,94,64,02,00,
32203983,00000014,false,Rx,0,4,2F,08,CD,03,00,00,00,00,
32255946,00000011,false,Rx,0,8,1A,1C,00,00,D8,A0,00,00,
32257574,00000012,false,Rx,0,8,70,D3,08,00,01,AD,09,00,
32259158,00000013,false,Rx,0,8,EE,21,05,00,0F,62,02,00,
32260455,00000014,false,Rx,0,4,27,08,C9,03,00,00,00,00,
32312418,00000011,false,Rx,0,8,FA,1B,00,00,25,A0,00,00,
32314028,00000012,false,Rx,0,8,70,C9,08,00,3C,A2,09,00,
32315642,00000013,false,Rx,0,8,E4,1C,05,00,2C,60,02,00,
32316899,00000014,false,Rx,0,4,1F,08,C6,03,00,00,00,00,
32368892,00000011,false,Rx,0,8,E2,1B,00,00,0B,9E,00,00,
32370461,00000012,false,Rx,0,8,F0,C1,08,00,EA,81,09,00,
32372043,00000013,false,Rx,0,8,1D,19,05,00,81,5A,02,00,
32373381,00000014,false,Rx,0,4,19,08,BD,03,00,00,00,00,
32425390,00000011,false,Rx,0,8,D6,1B,00,00,72,9F,00,00,
32426973,00000012,false,Rx,0,8,30,BE,08,00,76,97,09,00,
32428548,00000013,false,Rx,0,8,3A,17,05,00,48,5E,02,00,
32429847,00000014,false,Rx,0,4,16,08,C3,03,00,00,00,00,
32481792,00000011,false,Rx,0,8,CE,1B,00,00,FA,9E,00,00,
32483452,00000012,false,Rx,0,8,B0,BB,08,00,47,90,09,00,
32485039,00000013,false,Rx,0,8,F8,15,05,00,06,5D,02,00,
32486351,00000014,false,Rx,0,4,14,08,C1,03,00,00,00,00,
32538301,00000011,false,Rx,0,8,CA,1B,00,00,FA,9E,00,00,
32539914,00000012,false,Rx,0,8,70,BA,08,00,47,90,09,00,
32541463,00000013,false,Rx,0,8,56,15,05,00,06,5D,02,00,
32542761,00000014,false,Rx,0,4,13,08,C1,03,00,00,00,00,
32594722,00000011,false,Rx,0,8,C2,1B,00,00,BE,9E,00,00,
32596339,00000012,false,Rx,0,8,F1,B7,08,00,B0,8C,09,00,
32597940,00000013,false,Rx,0,8,14,14,05,00,65,5C,02,00,
32599257,00000014,false,Rx,0,4,11,08,C0,03,00,00,00,00,
32651397,00000011,false,Rx,0,8,C2,1B,00,00,47,9E,00,00,
32652958,00000012,false,Rx,0,8,F1,B7,08,00,81,85,09,00,
32654435,00000013,false,Rx,0,8,14,14,05,00,22,5B,02,00,
32655698,00000014,false,Rx,0,4,11,08,BE,03,00,00,00,00,
32707708,00000011,false,Rx,0,8,C2,1B,00,00,47,9E,00,00,
32709299,00000012,false,Rx,0,8,F1,B7,08,00,81,85,09,00,
32710883,00000013,false,Rx,0,8,14,14,05,00,22,5B,02,00,
32712176,00000014,false,Rx,0,4,11,08,BE,03,00,00,00,00,
32764137,00000011,false,Rx,0,8,C2,1B,00,00,0B,9E,00,00,
32765755,00000012,false,Rx,0,8,F1,B7,08,00,EA,81,09,00,
32767327,00000013,false,Rx,0,8,14,14,05,00,81,5A,02,00,
32768617,00000014,false,Rx,0,4,11,08,BD,03,00,00,00,00,
32820616,00000011,false,Rx,0,8,CA,1B,00,00,0B,9E,00,00,
32822200,00000012,false,Rx,0,8,70,BA,08,00,EA,81,09,00,
32823767,00000013,false,Rx,0,8,56,15,05,00,81,5A,02,00,
32825095,00000014,false,Rx,0,4,13,08,BD,03,00,00,00,00,
32877056,00000011,false,Rx,0,8,BE,1B,00,00,D0,9D,00,00,
32878669,00000012,false,Rx,0,8,B1,B6,08,00,53,7E,09,00,
32880218,00000013,false,Rx,0,8,73,13,05,00,E0,59,02,00,
32881517,00000014,false,Rx,0,4,10,08,BC,03,00,00,00,00,
32933514,00000011,false,Rx,0,8,CA,1B,00,00,D0,9D,00,00,
32935096,00000012,false,Rx,0,8,70,BA,08,00,53,7E,09,00,
32936667,00000013,false,Rx,0,8,56,15,05,00,E0,59,02,00,
32937981,00000014,false,Rx,0,4,13,08,BC,03,00,00,00,00,
32989978,00000011,false,Rx,0,8,CA,1B,00,00,94,9D,00,00,
32991546,00000012,false,Rx,0,8,70,BA,08,00,BB,7A,09,00,
32993150,00000013,false,Rx,0,8,56,15,05,00,3F,59,02,00,
32994419,00000014,false,Rx,0,4,13,08,BB,03,00,00,00,00,
33046436,00000011,false,Rx,0,8,D2,1B,00,00,94,9D,00,00,
33048013,00000012,false,Rx,0,8,F0,BC,08,00,BB,7A,09,00,
33049567,00000013,false,Rx,0,8,99,16,05,00,3F,59,02,00,
33050866,00000014,false,Rx,0,4,15,08,BB,03,00,00,00,00,
33102809,00000011,false,Rx,0,8,CA,1B,00,00,94,9D,00,00,
33104428,00000012,false,Rx,0,8,70,BA,08,00,BB,7A,09,00,
33106048,00000013,false,Rx,0,8,56,15,05,00,3F,59,02,00,
33107317,00000014,false,Rx,0,4,13,08,BB,03,00,00,00,00,
33159293,00000011,false,Rx,0,8,D6,1B,00,00,58,9D,00,00,
33160876,00000012,false,Rx,0,8,30,BE,08,00,24,77,09,00,
33162420,00000013,false,Rx,0,8,3A,17,05,00,9E,58,02,00,
33163765,00000014,false,Rx,0,4,16,08,BA,03,00,00,00,00,
33215721,00000011,false,Rx,0,8,D6,1B,00,00,58,9D,00,00,
33217330,00000012,false,Rx,0,8,30,BE,08,00,24,77,09,00,
33218872,00000013,false,Rx,0,8,3A,17,05,00,9E,58,02,00,
33220217,00000014,false,Rx,0,4,16,08,BA,03,00,00,00,00,
33272213,00000011,false,Rx,0,8,DA,1B,00,00,1D,9D,00,00,
33273760,00000012,false,Rx,0,8,70,BF,08,00,8D,73,09,00,
33275337,00000013,false,Rx,0,8,DB,17,05,00,FD,57,02,00,
33276676,00000014,false,Rx,0,4,17,08,B9,03,00,00,00,00,
33328630,00000011,false,Rx,0,8,DE,1B,00,00,1D,9D,00,00,
33330247,00000012,false,Rx,0,8,B0,C0,08,00,8D,73,09,00,
33331825,00000013,false,Rx,0,8,7C,18,05,00,FD,57,02,00,
33333125,00000014,false,Rx,0,4,18,08,B9,03,00,00,00,00,
33385113,00000011,false,Rx,0,8,E2,1B,00,00,1D,9D,00,00,
33386756,00000012,false,Rx,0,8,F0,C1,08,00,8D,73,09,00,
33388290,00000013,false,Rx,0,8,1D,19,05,00,FD,57,02,00,
33389616,00000014,false,Rx,0,4,19,08,B9,03,00,00,00,00,
33441573,00000011,false,Rx,0,8,DE,1B,00,00,1D,9D,00,00,
33443222,00000012,false,Rx,0,8,B0,C0,08,00,8D,73,09,00,
33444785,00000013,false,Rx,0,8,7C,18,05,00,FD,57,02,00,
33446085,00000014,false,Rx,0,4,18,08,B9,03,00,00,00,00,
33498102,00000011,false,Rx,0,8,EA,1B,00,00,1D,9D,00,00,
33499710,00000012,false,Rx,0,8,70,C4,08,00,8D,73,09,00,
33501492,00000013,false,Rx,0,8,60,1A,05,00,FD,57,02,00,
33502595,00000014,false,Rx,0,4,1B,08,B9,03,00,00,00,00,
33554580,00000011,false,Rx,0,8,EA,1B,00,00,E1,9C,00,00,
33556175,00000012,false,Rx,0,8,70,C4,08,00,F6,6F,09,00,
33557748,00000013,false,Rx,0,8,60,1A,05,00,5B,57,02,00,
33559016,00000014,false,Rx,0,4,1B,08,B8,03,00,00,00,00,
33611150,00000011,false,Rx,0,8,EA,1B,00,00,E1,9C,00,00,
33612767,00000012,false,Rx,0,8,70,C4,08,00,F6,6F,09,00,
33614343,00000013,false,Rx,0,8,60,1A,05,00,5B,57,02,00,
33615576,00000014,false,Rx,0,4,1B,08,B8,03,00,00,00,00,
33667674,00000011,false,Rx,0,8,EE,1B,00,00,E1,9C,00,00,
33669261,00000012,false,Rx,0,8,B0,C5,08,00,F6,6F,09,00,
33670800,00000013,false,Rx,0,8,01,1B,05,00,5B,57,02,00,
33672112,00000014,false,Rx,0,4,1C,08,B8,03,00,00,00,00,
33724071,00000011,false,Rx,0,8,F6,1B,00,00,A5,9C,00,00,
33725689,00000012,false,Rx,0,8,30,C8,08,00,5E,6C,09,00,
33727263,00000013,false,Rx,0,8,43,1C,05,00,BA,56,02,00,
33728576,00000014,false,Rx,0,4,1E,08,B7,03,00,00,00,00,
33780619,00000011,false,Rx,0,8,EE,1B,00,00,A5,9C,00,00,
33782210,00000012,false,Rx,0,8,B0,C5,08,00,5E,6C,09,00,
33783779,00000013,false,Rx,0,8,01,1B,05,00,BA,56,02,00,
33785074,00000014,false,Rx,0,4,1C,08,B7,03,00,00,00,00,
33837059,00000011,false,Rx,0,8,F2,1B,00,00,A5,9C,00,00,
33838667,00000012,false,Rx,0,8,F0,C6,08,00,5E,6C,09,00,
33840185,00000013,false,Rx,0,8,A2,1B,05,00,BA,56,02,00,
33841512,00000014,false,Rx,0,4,1D,08,B7,03,00,00,00,00,
33893496,00000011,false,Rx,0,8,F6,1B,00,00,A5,9C,00,00,
33895110,00000012,false,Rx,0,8,30,C8,08,00,5E,6C,09,00,
33896660,00000013,false,Rx,0,8,43,1C,05,00,BA,56,02,00,
33897960,00000014,false,Rx,0,4,1E,08,B7,03,00,00,00,00,
33949961,00000011,false,Rx,0,8,FA,1B,00,00,A5,9C,00,00,
33951624,00000012,false,Rx,0,8,70,C9,08,00,5E,6C,09,00,
33953235,00000013,false,Rx,0,8,E4,1C,05,00,BA,56,02,00,
33954507,00000014,false,Rx,0,4,1F,08,B7,03,00,00,00,00,
34006466,00000011,false,Rx,0,8,D3,1A,00,00,6A,9C,00,00,
34008069,00000012,false,Rx,0,8,F3,6C,08,00,C7,68,09,00,
34009657,00000013,false,Rx,0,8,4E,EE,04,00,19,56,02,00,
34010955,00000014,false,Rx,0,4,D5,07,B6,03,00,00,00,00,
34062995,00000011,false,Rx,0,8,E3,1A,00,00,BA,86,00,00,
34064552,00000012,false,Rx,0,8,F3,71,08,00,D2,1A,08,00,
34066141,00000013,false,Rx,0,8,D2,F0,04,00,8C,1B,02,00,
34067656,00000014,false,Rx,0,4,D9,07,59,03,00,00,00,00,
34119596,00000011,false,Rx,0,8,92,1B,00,00,41,60,00,00,
34121058,00000012,false,Rx,0,8,F1,A8,08,00,51,CA,05,00,
34122616,00000013,false,Rx,0,8,86,0C,05,00,AB,B3,01,00,
34123900,00000014,false,Rx,0,4,05,08,B4,02,00,00,00,00,
34175893,00000011,false,Rx,0,8,E2,1B,00,00,81,44,00,00,
34177514,00000012,false,Rx,0,8,F0,C1,08,00,FF,1E,04,00,
34179238,00000013,false,Rx,0,8,1D,19,05,00,BF,68,01,00,
34180380,00000014,false,Rx,0,4,19,08,3D,02,00,00,00,00,
34232381,00000011,false,Rx,0,8,F6,1B,00,00,0D,2F,00,00,
34233982,00000012,false,Rx,0,8,30,C8,08,00,A2,D4,02,00,
34235540,00000013,false,Rx,0,8,43,1C,05,00,D3,2E,01,00,
34236813,00000014,false,Rx,0,4,1E,08,E1,01,00,00,00,00,
34288840,00000011,false,Rx,0,8,02,1C,00,00,6E,1F,00,00,
34290457,00000012,false,Rx,0,8,F0,CB,08,00,0A,E4,01,00,
34292034,00000013,false,Rx,0,8,27,1E,05,00,A5,04,01,00,
34293334,00000014,false,Rx,0,4,21,08,9E,01,00,00,00,00,
34345303,00000011,false,Rx,0,8,0A,1C,00,00,4E,13,00,00,
34346893,00000012,false,Rx,0,8,70,CE,08,00,50,29,01,00,
34348465,00000013,false,Rx,0,8,69,1F,05,00,E8,E3,00,00,
34349774,00000014,false,Rx,0,4,23,08,6A,01,00,00,00,00,
34402042,00000011,false,Rx,0,8,0A,1C,00,00,71,0A,00,00,
34403428,00000012,false,Rx,0,8,70,CE,08,00,DB,A0,00,00,
34404964,00000013,false,Rx,0,8,69,1F,05,00,FB,CB,00,00,
34406275,00000014,false,Rx,0,4,23,08,44,01,00,00,00,00,
34458269,00000011,false,Rx,0,8,0E,1C,00,00,9D,04,00,00,
34459863,00000012,false,Rx,0,8,B0,CF,08,00,15,47,00,00,
34461553,00000013,false,Rx,0,8,0A,20,05,00,3E,BC,00,00,
34462996,00000014,false,Rx,0,4,24,08,2B,01,00,00,00,00,
34514742,00000011,false,Rx,0,8,12,1C,00,00,0D,02,00,00,
34516593,00000012,false,Rx,0,8,F0,D0,08,00,95,1F,00,00,
34518144,00000013,false,Rx,0,8,AB,20,05,00,51,B5,00,00,
34519445,00000014,false,Rx,0,4,25,08,20,01,00,00,00,00,
34571153,00000011,false,Rx,0,8,16,1C,00,00,1E,01,00,00,
34572796,00000012,false,Rx,0,8,30,D2,08,00,38,11,00,00,
34574370,00000013,false,Rx,0,8,4D,21,05,00,CC,B2,00,00,
34575642,00000014,false,Rx,0,4,26,08,1C,01,00,00,00,00,
34627650,00000011,false,Rx,0,8,12,1C,00,00,A6,00,00,00,
34629270,00000012,false,Rx,0,8,F0,D0,08,00,09,0A,00,00,
34630843,00000013,false,Rx,0,8,AB,20,05,00,8A,B1,00,00,
34632144,00000014,false,Rx,0,4,25,08,1A,01,00,00,00,00,
34684157,00000011,false,Rx,0,8,16,1C,00,00,A6,00,00,00,
34685998,00000012,false,Rx,0,8,30,D2,08,00,09,0A,00,00,
34687290,00000013,false,Rx,0,8,4D,21,05,00,8A,B1,00,00,
34688568,00000014,false,Rx,0,4,26,08,1A,01,00,00,00,00,
34740627,00000011,false,Rx,0,8,16,1C,00,00,A6,00,00,00,
34742224,00000012,false,Rx,0,8,30,D2,08,00,09,0A,00,00,
34743795,00000013,false,Rx,0,8,4D,21,05,00,8A,B1,00,00,
34745064,00000014,false,Rx,0,4,26,08,1A,01,00,00,00,00,
34797106,00000011,false,Rx,0,8,12,1C,00,00,6B,00,00,00,
34798725,00000012,false,Rx,0,8,F0,D0,08,00,72,06,00,00,
34800250,00000013,false,Rx,0,8,AB,20,05,00,E9,B0,00,00,
34801578,00000014,false,Rx,0,4,25,08,19,01,00,00,00,00,
34853554,00000011,false,Rx,0,8,16,1C,00,00,A6,00,00,00,
34855193,00000012,false,Rx,0,8,30,D2,08,00,09,0A,00,00,
34856735,00000013,false,Rx,0,8,4D,21,05,00,8A,B1,00,00,
34858066,00000014,false,Rx,0,4,26,08,1A,01,00,00,00,00,
34910050,00000011,false,Rx,0,8,16,1C,00,00,A6,00,00,00,
34911667,00000012,false,Rx,0,8,30,D2,08,00,09,0A,00,00,
34913239,00000013,false,Rx,0,8,4D,21,05,00,8A,B1,00,00,
34914514,00000014,false,Rx,0,4,26,08,1A,01,00,00,00,00,
34966540,00000011,false,Rx,0,8,16,1C,00,00,A6,00,00,00,
34968163,00000012,false,Rx,0,8,30,D2,08,00,09,0A,00,00,
34969649,00000013,false,Rx,0,8,4D,21,05,00,8A,B1,00,00,
34970961,00000014,false,Rx,0,4,26,08,1A,01,00,00,00,00,
35023007,00000011,false,Rx,0,8,12,1C,00,00,A6,00,00,00,
35024595,00000012,false,Rx,0,8,F0,D0,08,00,09,0A,00,00,
35026175,00000013,false,Rx,0,8,AB,20,05,00,8A,B1,00,00,
35027475,00000014,false,Rx,0,4,25,08,1A,01,00,00,00,00,
35079501,00000011,false,Rx,0,8,1A,1C,00,00,0D,02,00,00,
35081101,00000012,false,Rx,0,8,70,D3,08,00,95,1F,00,00,
35082663,00000013,false,Rx,0,8,EE,21,05,00,51,B5,00,00,
35083979,00000014,false,Rx,0,4,27,08,20,01,00,00,00,00,
35135989,00000011,false,Rx,0,8,1A,1C,00,00,A6,00,00,00,
35137575,00000012,false,Rx,0,8,70,D3,08,00,09,0A,00,00,
35139168,00000013,false,Rx,0,8,EE,21,05,00,8A,B1,00,00,
35140443,00000014,false,Rx,0,4,27,08,1A,01,00,00,00,00,
35192433,00000011,false,Rx,0,8,16,1C,00,00,A6,00,00,00,
35194044,00000012,false,Rx,0,8,30,D2,08,00,09,0A,00,00,
35195598,00000013,false,Rx,0,8,4D,21,05,00,8A,B1,00,00,
35196897,00000014,false,Rx,0,4,26,08,1A,01,00,00,00,00,
35248878,00000011,false,Rx,0,8,16,1C,00,00,A6,00,00,00,
35250515,00000012,false,Rx,0,8,30,D2,08,00,09,0A,00,00,
35252090,00000013,false,Rx,0,8,4D,21,05,00,8A,B1,00,00,
35253358,00000014,false,Rx,0,4,26,08,1A,01,00,00,00,00,
35305338,00000011,false,Rx,0,8,16,1C,00,00,6B,00,00,00,
35307010,00000012,false,Rx,0,8,30,D2,08,00,72,06,00,00,
35308548,00000013,false,Rx,0,8,4D,21,05,00,E9,B0,00,00,
35309848,00000014,false,Rx,0,4,26,08,19,01,00,00,00,00,
35361831,00000011,false,Rx,0,8,1A,1C,00,00,A6,00,00,00,
35363448,00000012,false,Rx,0,8,70,D3,08,00,09,0A,00,00,
35364999,00000013,false,Rx,0,8,EE,21,05,00,8A,B1,00,00,
35366274,00000014,false,Rx,0,4,27,08,1A,01,00,00,00,00,
35418307,00000011,false,Rx,0,8,16,1C,00,00,6B,00,00,00,
35419885,00000012,false,Rx,0,8,30,D2,08,00,72,06,00,00,
35421432,00000013,false,Rx,0,8,4D,21,05,00,E9,B0,00,00,
35422731,00000014,false,Rx,0,4,26,08,19,01,00,00,00,00,
35474759,00000011,false,Rx,0,8,1A,1C,00,00,6B,00,00,00,
35476359,00000012,false,Rx,0,8,70,D3,08,00,72,06,00,00,
35477927,00000013,false,Rx,0,8,EE,21,05,00,E9,B0,00,00,
35479225,00000014,false,Rx,0,4,27,08,19,01,00,00,00,00,
35531257,00000011,false,Rx,0,8,1A,1C,00,00,6B,00,00,00,
35532817,00000012,false,Rx,0,8,70,D3,08,00,72,06,00,00,
35534422,00000013,false,Rx,0,8,EE,21,05,00,E9,B0,00,00,
35535722,00000014,false,Rx,0,4,27,08,19,01,00,00,00,00,
35587727,00000011,false,Rx,0,8,16,1C,00,00,6B,00,00,00,
35589344,00000012,false,Rx,0,8,30,D2,08,00,72,06,00,00,
35590931,00000013,false,Rx,0,8,4D,21,05,00,E9,B0,00,00,
35592204,00000014,false,Rx,0,4,26,08,19,01,00,00,00,00,
35644258,00000011,false,Rx,0,8,16,1C,00,00,A6,00,00,00,
35645952,00000012,false,Rx,0,8,30,D2,08,00,09,0A,00,00,
35647529,00000013,false,Rx,0,8,4D,21,05,00,8A,B1,00,00,
35648681,00000014,false,Rx,0,4,26,08,1A,01,00,00,00,00,
35700673,00000011,false,Rx,0,8,16,1C,00,00,A6,00,00,00,
35702293,00000012,false,Rx,0,8,30,D2,08,00,09,0A,00,00,
35703923,00000013,false,Rx,0,8,4D,21,05,00,8A,B1,00,00,
35705141,00000014,false,Rx,0,4,26,08,1A,01,00,00,00,00,
35757182,00000011,false,Rx,0,8,1A,1C,00,00,A6,00,00,00,
35758753,00000012,false,Rx,0,8,70,D3,08,00,09,0A,00,00,
35760627,00000013,false,Rx,0,8,EE,21,05,00,8A,B1,00,00,
35761687,00000014,false,Rx,0,4,27,08,1A,01,00,00,00,00,
35813673,00000011,false,Rx,0,8,16,1C,00,00,A6,00,00,00,
35815272,00000012,false,Rx,0,8,30,D2,08,00,09,0A,00,00,
35816844,00000013,false,Rx,0,8,4D,21,05,00,8A,B1,00,00,
35818139,00000014,false,Rx,0,4,26,08,1A,01,00,00,00,00,
35870175,00000011,false,Rx,0,8,12,1C,00,00,6B,00,00,00,
35871757,00000012,false,Rx,0,8,F0,D0,08,00,72,06,00,00,
35873333,00000013,false,Rx,0,8,AB,20,05,00,E9,B0,00,00,
35874631,00000014,false,Rx,0,4,25,08,19,01,00,00,00,00,
35926653,00000011,false,Rx,0,8,1A,1C,00,00,6B,00,00,00,
35928273,00000012,false,Rx,0,8,70,D3,08,00,72,06,00,00,
35929835,00000013,false,Rx,0,8,EE,21,05,00,E9,B0,00,00,
35931145,00000014,false,Rx,0,4,27,08,19,01,00,00,00,00,
35983179,00000011,false,Rx,0,8,1A,1C,00,00,A6,00,00,00,
35984739,00000012,false,Rx,0,8,70,D3,08,00,09,0A,00,00,
35986315,00000013,false,Rx,0,8,EE,21,05,00,8A,B1,00,00,
35987602,00000014,false,Rx,0,4,27,08,1A,01,00,00,00,00,
36039598,00000011,false,Rx,0,8,16,1C,00,00,6B,00,00,00,
36041194,00000012,false,Rx,0,8,30,D2,08,00,72,06,00,00,
36042808,00000013,false,Rx,0,8,4D,21,05,00,E9,B0,00,00,
36044110,00000014,false,Rx,0,4,26,08,19,01,00,00,00,00,
36096114,00000011,false,Rx,0,8,16,1C,00,00,6B,00,00,00,
36097708,00000012,false,Rx,0,8,30,D2,08,00,72,06,00,00,
36099247,00000013,false,Rx,0,8,4D,21,05,00,E9,B0,00,00,
36100543,00000014,false,Rx,0,4,26,08,19,01,00,00,00,00,
36152564,00000011,false,Rx,0,8,1A,1C,00,00,6B,00,00,00,
36154180,00000012,false,Rx,0,8,70,D3,08,00,72,06,00,00,
36155742,00000013,false,Rx,0,8,EE,21,05,00,E9,B0,00,00,
36157017,00000014,false,Rx,0,4,27,08,19,01,00,00,00,00,
36209082,00000011,false,Rx,0,8,1A,1C,00,00,6B,00,00,00,
36210721,00000012,false,Rx,0,8,70,D3,08,00,72,06,00,00,
36212276,00000013,false,Rx,0,8,EE,21,05,00,E9,B0,00,00,
36213575,00000014,false,Rx,0,4,27,08,19,01,00,00,00,00,
36265627,00000011,false,Rx,0,8,16,1C,00,00,6B,00,00,00,
36267434,00000012,false,Rx,0,8,30,D2,08,00,72,06,00,00,
36268807,00000013,false,Rx,0,8,4D,21,05,00,E9,B0,00,00,
36270125,00000014,false,Rx,0,4,26,08,19,01,00,00,00,00,
36322097,00000011,false,Rx,0,8,1A,1C,00,00,A6,00,00,00,
36323692,00000012,false,Rx,0,8,70,D3,08,00,09,0A,00,00,
36325269,00000013,false,Rx,0,8,EE,21,05,00,8A,B1,00,00,
36326569,00000014,false,Rx,0,4,27,08,1A,01,00,00,00,00,
36378574,00000011,false,Rx,0,8,1A,1C,00,00,2F,00,00,00,
36380207,00000012,false,Rx,0,8,70,D3,08,00,DB,02,00,00,
36381770,00000013,false,Rx,0,8,EE,21,05,00,48,B0,00,00,
36383081,00000014,false,Rx,0,4,27,08,18,01,00,00,00,00,
36435111,00000011,false,Rx,0,8,1A,1C,00,00,A6,00,00,00,
36436676,00000012,false,Rx,0,8,70,D3,08,00,09,0A,00,00,
36438261,00000013,false,Rx,0,8,EE,21,05,00,8A,B1,00,00,
36439527,00000014,false,Rx,0,4,27,08,1A,01,00,00,00,00,
36491582,00000011,false,Rx,0,8,1A,1C,00,00,6B,00,00,00,
36493209,00000012,false,Rx,0,8,70,D3,08,00,72,06,00,00,
36494758,00000013,false,Rx,0,8,EE,21,05,00,E9,B0,00,00,
36496059,00000014,false,Rx,0,4,27,08,19,01,00,00,00,00,
36548195,00000011,false,Rx,0,8,16,1C,00,00,6B,00,00,00,
36549662,00000012,false,Rx,0,8,30,D2,08,00,72,06,00,00,
36551235,00000013,false,Rx,0,8,4D,21,05,00,E9,B0,00,00,
36552514,00000014,false,Rx,0,4,26,08,19,01,00,00,00,00,
36604549,00000011,false,Rx,0,8,16,1C,00,00,6B,00,00,00,
36606158,00000012,false,Rx,0,8,30,D2,08,00,72,06,00,00,
36607729,00000013,false,Rx,0,8,4D,21,05,00,E9,B0,00,00,
36609031,00000014,false,Rx,0,4,26,08,19,01,00,00,00,00,
36661026,00000011,false,Rx,0,8,12,1C,00,00,A6,00,00,00,
36662648,00000012,false,Rx,0,8,F0,D0,08,00,09,0A,00,00,
36664257,00000013,false,Rx,0,8,AB,20,05,00,8A,B1,00,00,
36665535,00000014,false,Rx,0,4,25,08,1A,01,00,00,00,00,
