Time Stamp,ID,Extended,Dir,Bus,LEN,D1,D2,D3,D4,D5,D6,D7,D8
17847017,00000011,false,Rx,0,8,3A,1F,00,00,A6,00,00,00,
17848641,00000012,false,Rx,0,8,A7,CE,09,00,09,0A,00,00,
17850187,00000013,false,Rx,0,8,79,A0,05,00,8A,B1,00,00,
17851501,00000014,false,Rx,0,4,F0,08,1A,01,00,00,00,00,
17903501,00000011,false,Rx,0,8,3E,1F,00,00,A6,00,00,00,
17905129,00000012,false,Rx,0,8,E7,CF,09,00,09,0A,00,00,
17906741,00000013,false,Rx,0,8,1B,A1,05,00,8A,B1,00,00,
17908051,00000014,false,Rx,0,4,F1,08,1A,01,00,00,00,00,
17959966,00000011,false,Rx,0,8,3E,1F,00,00,A6,00,00,00,
17961523,00000012,false,Rx,0,8,E7,CF,09,00,09,0A,00,00,
17963101,00000013,false,Rx,0,8,1B,A1,05,00,8A,B1,00,00,
17964395,00000014,false,Rx,0,4,F1,08,1A,01,00,00,00,00,
18016451,00000011,false,Rx,0,8,42,1F,00,00,A6,00,00,00,
18018066,00000012,false,Rx,0,8,27,D1,09,00,09,0A,00,00,
18019615,00000013,false,Rx,0,8,BC,A1,05,00,8A,B1,00,00,
18020905,00000014,false,Rx,0,4,F2,08,1A,01,00,00,00,00,
18072952,00000011,false,Rx,0,8,3E,1F,00,00,6B,00,00,00,
18074528,00000012,false,Rx,0,8,E7,CF,09,00,72,06,00,00,
18076102,00000013,false,Rx,0,8,1B,A1,05,00,E9,B0,00,00,
18077382,00000014,false,Rx,0,4,F1,08,19,01,00,00,00,00,
18129384,00000011,false,Rx,0,8,3E,1F,00,00,A6,00,00,00,
18131034,00000012,false,Rx,0,8,E7,CF,09,00,09,0A,00,00,
18132582,00000013,false,Rx,0,8,1B,A1,05,00,8A,B1,00,00,
18133882,00000014,false,Rx,0,4,F1,08,1A,01,00,00,00,00,
18185935,00000011,false,Rx,0,8,3E,1F,00,00,6B,00,00,00,
18187551,00000012,false,Rx,0,8,E7,CF,09,00,72,06,00,00,
18189081,00000013,false,Rx,0,8,1B,A1,05,00,E9,B0,00,00,
18190421,00000014,false,Rx,0,4,F1,08,19,01,00,00,00,00,
18242447,00000011,false,Rx,0,8,3E,1F,00,00,A6,00,00,00,
18244029,00000012,false,Rx,0,8,E7,CF,09,00,09,0A,00,00,
18245572,00000013,false,Rx,0,8,1B,A1,05,00,8A,B1,00,00,
18246903,00000014,false,Rx,0,4,F1,08,1A,01,00,00,00,00,
18298932,00000011,false,Rx,0,8,3A,1F,00,00,6B,00,00,00,
18300528,00000012,false,Rx,0,8,A7,CE,09,00,72,06,00,00,
18302102,00000013,false,Rx,0,8,79,A0,05,00,E9,B0,00,00,
18303404,00000014,false,Rx,0,4,F0,08,19,01,00,00,00,00,
18355647,00000011,false,Rx,0,8,3A,1F,00,00,A6,00,00,00,
18357024,00000012,false,Rx,0,8,A7,CE,09,00,09,0A,00,00,
18358591,00000013,false,Rx,0,8,79,A0,05,00,8A,B1,00,00,
18359867,00000014,false,Rx,0,4,F0,08,1A,01,00,00,00,00,
18411867,00000011,false,Rx,0,8,3E,1F,00,00,6B,00,00,00,
18413481,00000012,false,Rx,0,8,E7,CF,09,00,72,06,00,00,
18415054,00000013,false,Rx,0,8,1B,A1,05,00,E9,B0,00,00,
18416327,00000014,false,Rx,0,4,F1,08,19,01,00,00,00,00,
18468403,00000011,false,Rx,0,8,3A,1F,00,00,A6,00,00,00,
18469970,00000012,false,Rx,0,8,A7,CE,09,00,09,0A,00,00,
18471567,00000013,false,Rx,0,8,79,A0,05,00,8A,B1,00,00,
18473030,00000014,false,Rx,0,4,F0,08,1A,01,00,00,00,00,
18524858,00000011,false,Rx,0,8,42,1F,00,00,6B,00,00,00,
18526484,00000012,false,Rx,0,8,27,D1,09,00,72,06,00,00,
18528007,00000013,false,Rx,0,8,BC,A1,05,00,E9,B0,00,00,
18529306,00000014,false,Rx,0,4,F2,08,19,01,00,00,00,00,
18581304,00000011,false,Rx,0,8,42,1F,00,00,A6,00,00,00,
18582924,00000012,false,Rx,0,8,27,D1,09,00,09,0A,00,00,
18584500,00000013,false,Rx,0,8,BC,A1,05,00,8A,B1,00,00,
18585799,00000014,false,Rx,0,4,F2,08,1A,01,00,00,00,00,
18637830,00000011,false,Rx,0,8,3E,1F,00,00,A6,00,00,00,
18639449,00000012,false,Rx,0,8,E7,CF,09,00,09,0A,00,00,
18641016,00000013,false,Rx,0,8,1B,A1,05,00,8A,B1,00,00,
18642291,00000014,false,Rx,0,4,F1,08,1A,01,00,00,00,00,
18694331,00000011,false,Rx,0,8,3E,1F,00,00,6B,00,00,00,
18695924,00000012,false,Rx,0,8,E7,CF,09,00,72,06,00,00,
18697460,00000013,false,Rx,0,8,1B,A1,05,00,E9,B0,00,00,
18698772,00000014,false,Rx,0,4,F1,08,19,01,00,00,00,00,
18750740,00000011,false,Rx,0,8,3E,1F,00,00,6B,00,00,00,
18752330,00000012,false,Rx,0,8,E7,CF,09,00,72,06,00,00,
18753898,00000013,false,Rx,0,8,1B,A1,05,00,E9,B0,00,00,
18755205,00000014,false,Rx,0,4,F1,08,19,01,00,00,00,00,
18807233,00000011,false,Rx,0,8,3E,1F,00,00,A6,00,00,00,
18808800,00000012,false,Rx,0,8,E7,CF,09,00,09,0A,00,00,
18810362,00000013,false,Rx,0,8,1B,A1,05,00,8A,B1,00,00,
18811681,00000014,false,Rx,0,4,F1,08,1A,01,00,00,00,00,
18863628,00000011,false,Rx,0,8,3E,1F,00,00,A6,00,00,00,
18865221,00000012,false,Rx,0,8,E7,CF,09,00,09,0A,00,00,
18866826,00000013,false,Rx,0,8,1B,A1,05,00,8A,B1,00,00,
18868305,00000014,false,Rx,0,4,F1,08,1A,01,00,00,00,00,
18920357,00000011,false,Rx,0,8,3E,1F,00,00,A6,00,00,00,
18921717,00000012,false,Rx,0,8,E7,CF,09,00,09,0A,00,00,
18923279,00000013,false,Rx,0,8,1B,A1,05,00,8A,B1,00,00,
18924579,00000014,false,Rx,0,4,F1,08,1A,01,00,00,00,00,
18976575,00000011,false,Rx,0,8,3E,1F,00,00,6B,00,00,00,
18978188,00000012,false,Rx,0,8,E7,CF,09,00,72,06,00,00,
18979757,00000013,false,Rx,0,8,1B,A1,05,00,E9,B0,00,00,
18981034,00000014,false,Rx,0,4,F1,08,19,01,00,00,00,00,
19033038,00000011,false,Rx,0,8,3E,1F,00,00,6B,00,00,00,
19034598,00000012,false,Rx,0,8,E7,CF,09,00,72,06,00,00,
19036383,00000013,false,Rx,0,8,1B,A1,05,00,E9,B0,00,00,
19037621,00000014,false,Rx,0,4,F1,08,19,01,00,00,00,00,
19089682,00000011,false,Rx,0,8,3E,1F,00,00,A6,00,00,00,
19091233,00000012,false,Rx,0,8,E7,CF,09,00,09,0A,00,00,
19092711,00000013,false,Rx,0,8,1B,A1,05,00,8A,B1,00,00,
19093980,00000014,false,Rx,0,4,F1,08,1A,01,00,00,00,00,
19145988,00000011,false,Rx,0,8,3E,1F,00,00,6B,00,00,00,
19147605,00000012,false,Rx,0,8,E7,CF,09,00,72,06,00,00,
19149179,00000013,false,Rx,0,8,1B,A1,05,00,E9,B0,00,00,
19150457,00000014,false,Rx,0,4,F1,08,19,01,00,00,00,00,
19202649,00000011,false,Rx,0,8,3E,1F,00,00,A6,00,00,00,
19204193,00000012,false,Rx,0,8,E7,CF,09,00,09,0A,00,00,
19205693,00000013,false,Rx,0,8,1B,A1,05,00,8A,B1,00,00,
19206977,00000014,false,Rx,0,4,F1,08,1A,01,00,00,00,00,
19258938,00000011,false,Rx,0,8,3E,1F,00,00,A6,00,00,00,
19260571,00000012,false,Rx,0,8,E7,CF,09,00,09,0A,00,00,
19262115,00000013,false,Rx,0,8,1B,A1,05,00,8A,B1,00,00,
19263414,00000014,false,Rx,0,4,F1,08,1A,01,00,00,00,00,
19315442,00000011,false,Rx,0,8,3E,1F,00,00,A6,00,00,00,
19317036,00000012,false,Rx,0,8,E7,CF,09,00,09,0A,00,00,
19318582,00000013,false,Rx,0,8,1B,A1,05,00,8A,B1,00,00,
19319930,00000014,false,Rx,0,4,F1,08,1A,01,00,00,00,00,
19371968,00000011,false,Rx,0,8,3E,1F,00,00,6B,00,00,00,
19373502,00000012,false,Rx,0,8,E7,CF,09,00,72,06,00,00,
19375211,00000013,false,Rx,0,8,1B,A1,05,00,E9,B0,00,00,
19376392,00000014,false,Rx,0,4,F1,08,19,01,00,00,00,00,
19428408,00000011,false,Rx,0,8,3A,1F,00,00,A6,00,00,00,
19430049,00000012,false,Rx,0,8,A7,CE,09,00,09,0A,00,00,
19431621,00000013,false,Rx,0,8,79,A0,05,00,8A,B1,00,00,
19432925,00000014,false,Rx,0,4,F0,08,1A,01,00,00,00,00,
19485095,00000011,false,Rx,0,8,3E,1F,00,00,A6,00,00,00,
19486528,00000012,false,Rx,0,8,E7,CF,09,00,09,0A,00,00,
19488104,00000013,false,Rx,0,8,1B,A1,05,00,8A,B1,00,00,
19489632,00000014,false,Rx,0,4,F1,08,1A,01,00,00,00,00,
19541576,00000011,false,Rx,0,8,3E,1F,00,00,A6,00,00,00,
19542971,00000012,false,Rx,0,8,E7,CF,09,00,09,0A,00,00,
19544557,00000013,false,Rx,0,8,1B,A1,05,00,8A,B1,00,00,
19545855,00000014,false,Rx,0,4,F1,08,1A,01,00,00,00,00,
19597861,00000011,false,Rx,0,8,3E,1F,00,00,A6,00,00,00,
19599434,00000012,false,Rx,0,8,E7,CF,09,00,09,0A,00,00,
19601005,00000013,false,Rx,0,8,1B,A1,05,00,8A,B1,00,00,
19602286,00000014,false,Rx,0,4,F1,08,1A,01,00,00,00,00,
19654338,00000011,false,Rx,0,8,3E,1F,00,00,6B,00,00,00,
19655928,00000012,false,Rx,0,8,E7,CF,09,00,72,06,00,00,
19657685,00000013,false,Rx,0,8,1B,A1,05,00,E9,B0,00,00,
19658763,00000014,false,Rx,0,4,F1,08,19,01,00,00,00,00,
19710789,00000011,false,Rx,0,8,3E,1F,00,00,A6,00,00,00,
19712384,00000012,false,Rx,0,8,E7,CF,09,00,09,0A,00,00,
19713959,00000013,false,Rx,0,8,1B,A1,05,00,8A,B1,00,00,
19715232,00000014,false,Rx,0,4,F1,08,1A,01,00,00,00,00,
19767239,00000011,false,Rx,0,8,3E,1F,00,00,6B,00,00,00,
19768936,00000012,false,Rx,0,8,E7,CF,09,00,72,06,00,00,
19770429,00000013,false,Rx,0,8,1B,A1,05,00,E9,B0,00,00,
19771726,00000014,false,Rx,0,4,F1,08,19,01,00,00,00,00,
19823911,00000011,false,Rx,0,8,3E,1F,00,00,6B,00,00,00,
19825318,00000012,false,Rx,0,8,E7,CF,09,00,72,06,00,00,
19826867,00000013,false,Rx,0,8,1B,A1,05,00,E9,B0,00,00,
19828186,00000014,false,Rx,0,4,F1,08,19,01,00,00,00,00,
19880186,00000011,false,Rx,0,8,3A,1F,00,00,A6,00,00,00,
19881780,00000012,false,Rx,0,8,A7,CE,09,00,09,0A,00,00,
19883304,00000013,false,Rx,0,8,79,A0,05,00,8A,B1,00,00,
19884628,00000014,false,Rx,0,4,F0,08,1A,01,00,00,00,00,
19936854,00000011,false,Rx,0,8,3E,1F,00,00,A6,00,00,00,
19938256,00000012,false,Rx,0,8,E7,CF,09,00,09,0A,00,00,
19939858,00000013,false,Rx,0,8,1B,A1,05,00,8A,B1,00,00,
19941117,00000014,false,Rx,0,4,F1,08,1A,01,00,00,00,00,
19993122,00000011,false,Rx,0,8,3E,1F,00,00,A6,00,00,00,
19994710,00000012,false,Rx,0,8,E7,CF,09,00,09,0A,00,00,
19996284,00000013,false,Rx,0,8,1B,A1,05,00,8A,B1,00,00,
19997594,00000014,false,Rx,0,4,F1,08,1A,01,00,00,00,00,
20049534,00000011,false,Rx,0,8,3E,1F,00,00,A6,00,00,00,
20051210,00000012,false,Rx,0,8,E7,CF,09,00,09,0A,00,00,
20052911,00000013,false,Rx,0,8,1B,A1,05,00,8A,B1,00,00,
20054279,00000014,false,Rx,0,4,F1,08,1A,01,00,00,00,00,
20106258,00000011,false,Rx,0,8,3E,1F,00,00,6B,00,00,00,
20107858,00000012,false,Rx,0,8,E7,CF,09,00,72,06,00,00,
20109193,00000013,false,Rx,0,8,1B,A1,05,00,E9,B0,00,00,
20110468,00000014,false,Rx,0,4,F1,08,19,01,00,00,00,00,
20162461,00000011,false,Rx,0,8,3E,1F,00,00,A6,00,00,00,
20164059,00000012,false,Rx,0,8,E7,CF,09,00,09,0A,00,00,
20165604,00000013,false,Rx,0,8,1B,A1,05,00,8A,B1,00,00,
20167151,00000014,false,Rx,0,4,F1,08,1A,01,00,00,00,00,
20219135,00000011,false,Rx,0,8,3E,1F,00,00,A6,00,00,00,
20220740,00000012,false,Rx,0,8,E7,CF,09,00,09,0A,00,00,
20222063,00000013,false,Rx,0,8,1B,A1,05,00,8A,B1,00,00,
20223355,00000014,false,Rx,0,4,F1,08,1A,01,00,00,00,00,
20275309,00000011,false,Rx,0,8,3E,1F,00,00,A6,00,00,00,
20276909,00000012,false,Rx,0,8,E7,CF,09,00,09,0A,00,00,
20278512,00000013,false,Rx,0,8,1B,A1,05,00,8A,B1,00,00,
20279834,00000014,false,Rx,0,4,F1,08,1A,01,00,00,00,00,
20331789,00000011,false,Rx,0,8,42,1F,00,00,A6,00,00,00,
20333569,00000012,false,Rx,0,8,27,D1,09,00,09,0A,00,00,
20335209,00000013,false,Rx,0,8,BC,A1,05,00,8A,B1,00,00,
20336509,00000014,false,Rx,0,4,F2,08,1A,01,00,00,00,00,
20388242,00000011,false,Rx,0,8,3A,1F,00,00,6B,00,00,00,
20389904,00000012,false,Rx,0,8,A7,CE,09,00,72,06,00,00,
20391636,00000013,false,Rx,0,8,79,A0,05,00,E9,B0,00,00,
20392664,00000014,false,Rx,0,4,F0,08,19,01,00,00,00,00,
20444662,00000011,false,Rx,0,8,3E,1F,00,00,A6,00,00,00,
20446284,00000012,false,Rx,0,8,E7,CF,09,00,09,0A,00,00,
20447856,00000013,false,Rx,0,8,1B,A1,05,00,8A,B1,00,00,
20449141,00000014,false,Rx,0,4,F1,08,1A,01,00,00,00,00,
20501371,00000011,false,Rx,0,8,3E,1F,00,00,A6,00,00,00,
20502781,00000012,false,Rx,0,8,E7,CF,09,00,09,0A,00,00,
20504443,00000013,false,Rx,0,8,1B,A1,05,00,8A,B1,00,00,
20505683,00000014,false,Rx,0,4,F1,08,1A,01,00,00,00,00,
20557687,00000011,false,Rx,0,8,3E,1F,00,00,A6,00,00,00,
20559254,00000012,false,Rx,0,8,E7,CF,09,00,09,0A,00,00,
20560789,00000013,false,Rx,0,8,1B,A1,05,00,8A,B1,00,00,
20562059,00000014,false,Rx,0,4,F1,08,1A,01,00,00,00,00,
20614090,00000011,false,Rx,0,8,3E,1F,00,00,A6,00,00,00,
20615655,00000012,false,Rx,0,8,E7,CF,09,00,09,0A,00,00,
20617333,00000013,false,Rx,0,8,1B,A1,05,00,8A,B1,00,00,
20618705,00000014,false,Rx,0,4,F1,08,1A,01,00,00,00,00,
20670569,00000011,false,Rx,0,8,42,1F,00,00,A6,00,00,00,
20672158,00000012,false,Rx,0,8,27,D1,09,00,09,0A,00,00,
20673691,00000013,false,Rx,0,8,BC,A1,05,00,8A,B1,00,00,
20675025,00000014,false,Rx,0,4,F2,08,1A,01,00,00,00,00,
20726994,00000011,false,Rx,0,8,3E,1F,00,00,A6,00,00,00,
20728589,00000012,false,Rx,0,8,E7,CF,09,00,09,0A,00,00,
20730196,00000013,false,Rx,0,8,1B,A1,05,00,8A,B1,00,00,
20731490,00000014,false,Rx,0,4,F1,08,1A,01,00,00,00,00,
20783471,00000011,false,Rx,0,8,3E,1F,00,00,00,00,00,00,
20785069,00000012,false,Rx,0,8,E7,CF,09,00,00,00,00,00,
20786663,00000013,false,Rx,0,8,1B,A1,05,00,C3,AD,00,00,
20787964,00000014,false,Rx,0,4,F1,08,14,01,00,00,00,00,
20839941,00000011,false,Rx,0,8,3A,1F,00,00,A6,00,00,00,
20841511,00000012,false,Rx,0,8,A7,CE,09,00,09,0A,00,00,
20843092,00000013,false,Rx,0,8,79,A0,05,00,8A,B1,00,00,
20844361,00000014,false,Rx,0,4,F0,08,1A,01,00,00,00,00,
20896340,00000011,false,Rx,0,8,3E,1F,00,00,A6,00,00,00,
20897960,00000012,false,Rx,0,8,E7,CF,09,00,09,0A,00,00,
20899531,00000013,false,Rx,0,8,1B,A1,05,00,8A,B1,00,00,
20900836,00000014,false,Rx,0,4,F1,08,1A,01,00,00,00,00,
20953094,00000011,false,Rx,0,8,3E,1F,00,00,A6,00,00,00,
20954461,00000012,false,Rx,0,8,E7,CF,09,00,09,0A,00,00,
20956032,00000013,false,Rx,0,8,1B,A1,05,00,8A,B1,00,00,
20957453,00000014,false,Rx,0,4,F1,08,1A,01,00,00,00,00,
21009285,00000011,false,Rx,0,8,3E,1F,00,00,A6,00,00,00,
21010884,00000012,false,Rx,0,8,E7,CF,09,00,09,0A,00,00,
21012435,00000013,false,Rx,0,8,1B,A1,05,00,8A,B1,00,00,
21013733,00000014,false,Rx,0,4,F1,08,1A,01,00,00,00,00,
21065756,00000011,false,Rx,0,8,3E,1F,00,00,A6,00,00,00,
21067313,00000012,false,Rx,0,8,E7,CF,09,00,09,0A,00,00,
21068950,00000013,false,Rx,0,8,1B,A1,05,00,8A,B1,00,00,
21070237,00000014,false,Rx,0,4,F1,08,1A,01,00,00,00,00,
21122218,00000011,false,Rx,0,8,3E,1F,00,00,A6,00,00,00,
21123812,00000012,false,Rx,0,8,E7,CF,09,00,09,0A,00,00,
21125371,00000013,false,Rx,0,8,1B,A1,05,00,8A,B1,00,00,
21126638,00000014,false,Rx,0,4,F1,08,1A,01,00,00,00,00,
21178670,00000011,false,Rx,0,8,3E,1F,00,00,6B,00,00,00,
21180264,00000012,false,Rx,0,8,E7,CF,09,00,72,06,00,00,
21181808,00000013,false,Rx,0,8,1B,A1,05,00,E9,B0,00,00,
21183084,00000014,false,Rx,0,4,F1,08,19,01,00,00,00,00,
21235145,00000011,false,Rx,0,8,16,1F,00,00,A6,00,00,00,
21236734,00000012,false,Rx,0,8,67,C3,09,00,09,0A,00,00,
21238289,00000013,false,Rx,0,8,CF,9A,05,00,8A,B1,00,00,
21239563,00000014,false,Rx,0,4,E7,08,1A,01,00,00,00,00,
21291549,00000011,false,Rx,0,8,3E,1F,00,00,A6,00,00,00,
21293115,00000012,false,Rx,0,8,E7,CF,09,00,09,0A,00,00,
21294742,00000013,false,Rx,0,8,1B,A1,05,00,8A,B1,00,00,
21295995,00000014,false,Rx,0,4,F1,08,1A,01,00,00,00,00,
21347977,00000011,false,Rx,0,8,3E,1F,00,00,6B,00,00,00,
21349546,00000012,false,Rx,0,8,E7,CF,09,00,72,06,00,00,
21351159,00000013,false,Rx,0,8,1B,A1,05,00,E9,B0,00,00,
21352451,00000014,false,Rx,0,4,F1,08,19,01,00,00,00,00,
21404662,00000011,false,Rx,0,8,3E,1F,00,00,A6,00,00,00,
21406286,00000012,false,Rx,0,8,E7,CF,09,00,09,0A,00,00,
21407869,00000013,false,Rx,0,8,1B,A1,05,00,8A,B1,00,00,
21408897,00000014,false,Rx,0,4,F1,08,1A,01,00,00,00,00,
21460843,00000011,false,Rx,0,8,3E,1F,00,00,A6,00,00,00,
21462466,00000012,false,Rx,0,8,E7,CF,09,00,09,0A,00,00,
21464009,00000013,false,Rx,0,8,1B,A1,05,00,8A,B1,00,00,
21465308,00000014,false,Rx,0,4,F1,08,1A,01,00,00,00,00,
21517336,00000011,false,Rx,0,8,51,1F,00,00,A6,00,00,00,
21518963,00000012,false,Rx,0,8,27,D6,09,00,09,0A,00,00,
21520632,00000013,false,Rx,0,8,40,A4,05,00,8A,B1,00,00,
21521770,00000014,false,Rx,0,4,F6,08,1A,01,00,00,00,00,
21573790,00000011,false,Rx,0,8,3A,1F,00,00,A6,00,00,00,
21575401,00000012,false,Rx,0,8,A7,CE,09,00,09,0A,00,00,
21576971,00000013,false,Rx,0,8,79,A0,05,00,8A,B1,00,00,
21578271,00000014,false,Rx,0,4,F0,08,1A,01,00,00,00,00,
21630266,00000011,false,Rx,0,8,3E,1F,00,00,A6,00,00,00,
21631858,00000012,false,Rx,0,8,E7,CF,09,00,09,0A,00,00,
21633433,00000013,false,Rx,0,8,1B,A1,05,00,8A,B1,00,00,
21634719,00000014,false,Rx,0,4,F1,08,1A,01,00,00,00,00,
21686758,00000011,false,Rx,0,8,3E,1F,00,00,A6,00,00,00,
21688346,00000012,false,Rx,0,8,E7,CF,09,00,09,0A,00,00,
21690131,00000013,false,Rx,0,8,1B,A1,05,00,8A,B1,00,00,
21691301,00000014,false,Rx,0,4,F1,08,1A,01,00,00,00,00,
21743177,00000011,false,Rx,0,8,3E,1F,00,00,6B,00,00,00,
21744770,00000012,false,Rx,0,8,E7,CF,09,00,72,06,00,00,
21746347,00000013,false,Rx,0,8,1B,A1,05,00,E9,B0,00,00,
21747617,00000014,false,Rx,0,4,F1,08,19,01,00,00,00,00,
21799667,00000011,false,Rx,0,8,3E,1F,00,00,6B,00,00,00,
21801268,00000012,false,Rx,0,8,E7,CF,09,00,72,06,00,00,
21802818,00000013,false,Rx,0,8,1B,A1,05,00,E9,B0,00,00,
21804118,00000014,false,Rx,0,4,F1,08,19,01,00,00,00,00,
21856175,00000011,false,Rx,0,8,3A,1F,00,00,A6,00,00,00,
21857813,00000012,false,Rx,0,8,A7,CE,09,00,09,0A,00,00,
21859317,00000013,false,Rx,0,8,79,A0,05,00,8A,B1,00,00,
21860614,00000014,false,Rx,0,4,F0,08,1A,01,00,00,00,00,
21912617,00000011,false,Rx,0,8,3E,1F,00,00,A6,00,00,00,
21914264,00000012,false,Rx,0,8,E7,CF,09,00,09,0A,00,00,
21916019,00000013,false,Rx,0,8,1B,A1,05,00,8A,B1,00,00,
21917317,00000014,false,Rx,0,4,F1,08,1A,01,00,00,00,00,
21969276,00000011,false,Rx,0,8,3E,1F,00,00,A6,00,00,00,
21970765,00000012,false,Rx,0,8,E7,CF,09,00,09,0A,00,00,
21972422,00000013,false,Rx,0,8,1B,A1,05,00,8A,B1,00,00,
21973692,00000014,false,Rx,0,4,F1,08,1A,01,00,00,00,00,
22025636,00000011,false,Rx,0,8,3E,1F,00,00,A6,00,00,00,
22027278,00000012,false,Rx,0,8,E7,CF,09,00,09,0A,00,00,
22028789,00000013,false,Rx,0,8,1B,A1,05,00,8A,B1,00,00,
22030087,00000014,false,Rx,0,4,F1,08,1A,01,00,00,00,00,
22082148,00000011,false,Rx,0,8,3E,1F,00,00,6B,00,00,00,
22083853,00000012,false,Rx,0,8,E7,CF,09,00,72,06,00,00,
22085521,00000013,false,Rx,0,8,1B,A1,05,00,E9,B0,00,00,
22086663,00000014,false,Rx,0,4,F1,08,19,01,00,00,00,00,
22138699,00000011,false,Rx,0,8,3E,1F,00,00,A6,00,00,00,
22140290,00000012,false,Rx,0,8,E7,CF,09,00,09,0A,00,00,
22141813,00000013,false,Rx,0,8,1B,A1,05,00,8A,B1,00,00,
22143112,00000014,false,Rx,0,4,F1,08,1A,01,00,00,00,00,
22195200,00000011,false,Rx,0,8,3E,1F,00,00,A6,00,00,00,
22196771,00000012,false,Rx,0,8,E7,CF,09,00,09,0A,00,00,
22198321,00000013,false,Rx,0,8,1B,A1,05,00,8A,B1,00,00,
22199618,00000014,false,Rx,0,4,F1,08,1A,01,00,00,00,00,
22251669,00000011,false,Rx,0,8,3E,1F,00,00,A6,00,00,00,
22253360,00000012,false,Rx,0,8,E7,CF,09,00,09,0A,00,00,
22254817,00000013,false,Rx,0,8,1B,A1,05,00,8A,B1,00,00,
22256117,00000014,false,Rx,0,4,F1,08,1A,01,00,00,00,00,
22308126,00000011,false,Rx,0,8,3A,1F,00,00,A6,00,00,00,
22309740,00000012,false,Rx,0,8,A7,CE,09,00,09,0A,00,00,
22311257,00000013,false,Rx,0,8,79,A0,05,00,8A,B1,00,00,
22312580,00000014,false,Rx,0,4,F0,08,1A,01,00,00,00,00,
22364577,00000011,false,Rx,0,8,3A,1F,00,00,A6,00,00,00,
22366197,00000012,false,Rx,0,8,A7,CE,09,00,09,0A,00,00,
22367748,00000013,false,Rx,0,8,79,A0,05,00,8A,B1,00,00,
22369223,00000014,false,Rx,0,4,F0,08,1A,01,00,00,00,00,
22421079,00000011,false,Rx,0,8,3E,1F,00,00,6B,00,00,00,
22422693,00000012,false,Rx,0,8,E7,CF,09,00,72,06,00,00,
22424266,00000013,false,Rx,0,8,1B,A1,05,00,E9,B0,00,00,
22425525,00000014,false,Rx,0,4,F1,08,19,01,00,00,00,00,
22477530,00000011,false,Rx,0,8,3E,1F,00,00,A6,00,00,00,
22479127,00000012,false,Rx,0,8,E7,CF,09,00,09,0A,00,00,
22480696,00000013,false,Rx,0,8,1B,A1,05,00,8A,B1,00,00,
22481952,00000014,false,Rx,0,4,F1,08,1A,01,00,00,00,00,
22533970,00000011,false,Rx,0,8,36,1F,00,00,6B,00,00,00,
22535850,00000012,false,Rx,0,8,67,CD,09,00,72,06,00,00,
22537455,00000013,false,Rx,0,8,D8,9F,05,00,E9,B0,00,00,
22538493,00000014,false,Rx,0,4,EF,08,19,01,00,00,00,00,
22590585,00000011,false,Rx,0,8,DF,14,00,00,A6,68,00,00,
22592086,00000012,false,Rx,0,8,44,8E,06,00,97,4B,06,00,
22593646,00000013,false,Rx,0,8,2D,FD,03,00,55,CA,01,00,
22594953,00000014,false,Rx,0,4,56,06,D8,02,00,00,00,00,
22646981,00000011,false,Rx,0,8,1E,1C,00,00,CF,A4,00,00,
22648572,00000012,false,Rx,0,8,B0,D4,08,00,0D,EA,09,00,
22650147,00000013,false,Rx,0,8,8F,22,05,00,C3,6C,02,00,
22651520,00000014,false,Rx,0,4,28,08,DA,03,00,00,00,00,
22703477,00000011,false,Rx,0,8,55,1F,00,00,CB,B9,00,00,
22705323,00000012,false,Rx,0,8,67,D7,09,00,3C,2D,0B,00,
22706899,00000013,false,Rx,0,8,E2,A4,05,00,6D,A5,02,00,
22707930,00000014,false,Rx,0,4,F7,08,34,04,00,00,00,00,
22759933,00000011,false,Rx,0,8,F5,1F,00,00,7E,BA,00,00,
22761527,00000012,false,Rx,0,8,65,09,0A,00,02,38,0B,00,
22763102,00000013,false,Rx,0,8,11,BE,05,00,50,A7,02,00,
22764397,00000014,false,Rx,0,4,1F,09,37,04,00,00,00,00,
22816386,00000011,false,Rx,0,8,0D,20,00,00,07,BA,00,00,
22818015,00000012,false,Rx,0,8,E4,10,0A,00,D3,30,0B,00,
22819631,00000013,false,Rx,0,8,D8,C1,05,00,0E,A6,02,00,
22820895,00000014,false,Rx,0,4,25,09,35,04,00,00,00,00,
22873135,00000011,false,Rx,0,8,0D,20,00,00,8F,B9,00,00,
22874478,00000012,false,Rx,0,8,E4,10,0A,00,A5,29,0B,00,
22876077,00000013,false,Rx,0,8,D8,C1,05,00,CC,A4,02,00,
22877349,00000014,false,Rx,0,4,25,09,33,04,00,00,00,00,
22929384,00000011,false,Rx,0,8,09,20,00,00,18,B9,00,00,
22931000,00000012,false,Rx,0,8,A5,0F,0A,00,76,22,0B,00,
22932542,00000013,false,Rx,0,8,36,C1,05,00,89,A3,02,00,
22933815,00000014,false,Rx,0,4,24,09,31,04,00,00,00,00,
22985900,00000011,false,Rx,0,8,FD,1F,00,00,DC,B8,00,00,
22987512,00000012,false,Rx,0,8,E5,0B,0A,00,DF,1E,0B,00,
22989064,00000013,false,Rx,0,8,53,BF,05,00,E8,A2,02,00,
22990353,00000014,false,Rx,0,4,21,09,30,04,00,00,00,00,
23042326,00000011,false,Rx,0,8,F5,1F,00,00,A0,B8,00,00,
23043946,00000012,false,Rx,0,8,65,09,0A,00,48,1B,0B,00,
23045520,00000013,false,Rx,0,8,11,BE,05,00,47,A2,02,00,
23046820,00000014,false,Rx,0,4,1F,09,2F,04,00,00,00,00,
23098771,00000011,false,Rx,0,8,E9,1F,00,00,65,B8,00,00,
23100438,00000012,false,Rx,0,8,A5,05,0A,00,B0,17,0B,00,
23101973,00000013,false,Rx,0,8,2D,BC,05,00,A6,A1,02,00,
23103272,00000014,false,Rx,0,4,1C,09,2E,04,00,00,00,00,
23155318,00000011,false,Rx,0,8,DD,1F,00,00,29,B8,00,00,
23156905,00000012,false,Rx,0,8,E5,01,0A,00,19,14,0B,00,
23158432,00000013,false,Rx,0,8,49,BA,05,00,05,A1,02,00,
23159766,00000014,false,Rx,0,4,19,09,2D,04,00,00,00,00,
23211787,00000011,false,Rx,0,8,D9,1F,00,00,B2,B7,00,00,
23213368,00000012,false,Rx,0,8,A5,00,0A,00,EB,0C,0B,00,
23214942,00000013,false,Rx,0,8,A8,B9,05,00,C2,9F,02,00,
23216243,00000014,false,Rx,0,4,18,09,2B,04,00,00,00,00,
23268185,00000011,false,Rx,0,8,D1,1F,00,00,B2,B7,00,00,
23269776,00000012,false,Rx,0,8,25,FE,09,00,EB,0C,0B,00,
23271356,00000013,false,Rx,0,8,66,B8,05,00,C2,9F,02,00,
23272690,00000014,false,Rx,0,4,16,09,2B,04,00,00,00,00,
23324646,00000011,false,Rx,0,8,CD,1F,00,00,76,B7,00,00,
23326250,00000012,false,Rx,0,8,E5,FC,09,00,53,09,0B,00,
23327821,00000013,false,Rx,0,8,C5,B7,05,00,21,9F,02,00,
23329119,00000014,false,Rx,0,4,15,09,2A,04,00,00,00,00,
23381083,00000011,false,Rx,0,8,C9,1F,00,00,3A,B7,00,00,
23382680,00000012,false,Rx,0,8,A5,FB,09,00,BC,05,0B,00,
23384247,00000013,false,Rx,0,8,24,B7,05,00,80,9E,02,00,
23385517,00000014,false,Rx,0,4,14,09,29,04,00,00,00,00,
23437552,00000011,false,Rx,0,8,C5,1F,00,00,3A,B7,00,00,
23439140,00000012,false,Rx,0,8,65,FA,09,00,BC,05,0B,00,
23440681,00000013,false,Rx,0,8,82,B6,05,00,80,9E,02,00,
23441989,00000014,false,Rx,0,4,13,09,29,04,00,00,00,00,
23493960,00000011,false,Rx,0,8,C1,1F,00,00,C3,B6,00,00,
23495580,00000012,false,Rx,0,8,25,F9,09,00,8E,FE,0A,00,
23497229,00000013,false,Rx,0,8,E1,B5,05,00,3E,9D,02,00,
23498467,00000014,false,Rx,0,4,12,09,27,04,00,00,00,00,
23550464,00000011,false,Rx,0,8,BD,1F,00,00,C3,B6,00,00,
23552021,00000012,false,Rx,0,8,E5,F7,09,00,8E,FE,0A,00,
23553631,00000013,false,Rx,0,8,40,B5,05,00,3E,9D,02,00,
23554901,00000014,false,Rx,0,4,11,09,27,04,00,00,00,00,
23606888,00000011,false,Rx,0,8,BD,1F,00,00,32,B4,00,00,
23608453,00000012,false,Rx,0,8,E5,F7,09,00,0D,D7,0A,00,
23609999,00000013,false,Rx,0,8,40,B5,05,00,51,96,02,00,
23611301,00000014,false,Rx,0,4,11,09,1C,04,00,00,00,00,
23663263,00000011,false,Rx,0,8,BD,1F,00,00,87,B6,00,00,
23664876,00000012,false,Rx,0,8,E5,F7,09,00,F6,FA,0A,00,
23666426,00000013,false,Rx,0,8,40,B5,05,00,9C,9C,02,00,
23667726,00000014,false,Rx,0,4,11,09,26,04,00,00,00,00,
23719714,00000011,false,Rx,0,8,B9,1F,00,00,87,B6,00,00,
23721306,00000012,false,Rx,0,8,A5,F6,09,00,F6,FA,0A,00,
23722872,00000013,false,Rx,0,8,9F,B4,05,00,9C,9C,02,00,
23724214,00000014,false,Rx,0,4,10,09,26,04,00,00,00,00,
23776131,00000011,false,Rx,0,8,B9,1F,00,00,4C,B6,00,00,
23777729,00000012,false,Rx,0,8,A5,F6,09,00,5F,F7,0A,00,
23779298,00000013,false,Rx,0,8,9F,B4,05,00,FB,9B,02,00,
23780595,00000014,false,Rx,0,4,10,09,25,04,00,00,00,00,
23832609,00000011,false,Rx,0,8,B9,1F,00,00,10,B6,00,00,
23834224,00000012,false,Rx,0,8,A5,F6,09,00,C8,F3,0A,00,
23835870,00000013,false,Rx,0,8,9F,B4,05,00,5A,9B,02,00,
23837093,00000014,false,Rx,0,4,10,09,24,04,00,00,00,00,
23889136,00000011,false,Rx,0,8,B5,1F,00,00,10,B6,00,00,
23890695,00000012,false,Rx,0,8,65,F5,09,00,C8,F3,0A,00,
23892230,00000013,false,Rx,0,8,FE,B3,05,00,5A,9B,02,00,
23893534,00000014,false,Rx,0,4,0F,09,24,04,00,00,00,00,
23945592,00000011,false,Rx,0,8,BD,1F,00,00,D4,B5,00,00,
23947219,00000012,false,Rx,0,8,E5,F7,09,00,31,F0,0A,00,
23948768,00000013,false,Rx,0,8,40,B5,05,00,B9,9A,02,00,
23950079,00000014,false,Rx,0,4,11,09,23,04,00,00,00,00,
24002043,00000011,false,Rx,0,8,BD,1F,00,00,D4,B5,00,00,
24003599,00000012,false,Rx,0,8,E5,F7,09,00,31,F0,0A,00,
24005174,00000013,false,Rx,0,8,40,B5,05,00,B9,9A,02,00,
24006532,00000014,false,Rx,0,4,11,09,23,04,00,00,00,00,
24058482,00000011,false,Rx,0,8,B9,1F,00,00,98,B5,00,00,
24060120,00000012,false,Rx,0,8,A5,F6,09,00,99,EC,0A,00,
24061664,00000013,false,Rx,0,8,9F,B4,05,00,18,9A,02,00,
24062970,00000014,false,Rx,0,4,10,09,22,04,00,00,00,00,
24114990,00000011,false,Rx,0,8,B5,1F,00,00,D4,B5,00,00,
24116599,00000012,false,Rx,0,8,65,F5,09,00,31,F0,0A,00,
24118230,00000013,false,Rx,0,8,FE,B3,05,00,B9,9A,02,00,
24119453,00000014,false,Rx,0,4,0F,09,23,04,00,00,00,00,
24171454,00000011,false,Rx,0,8,BD,1F,00,00,98,B5,00,00,
24173061,00000012,false,Rx,0,8,E5,F7,09,00,99,EC,0A,00,
24174609,00000013,false,Rx,0,8,40,B5,05,00,18,9A,02,00,
24175934,00000014,false,Rx,0,4,11,09,22,04,00,00,00,00,
24227916,00000011,false,Rx,0,8,BD,1F,00,00,98,B5,00,00,
24229534,00000012,false,Rx,0,8,E5,F7,09,00,99,EC,0A,00,
24231105,00000013,false,Rx,0,8,40,B5,05,00,18,9A,02,00,
24232379,00000014,false,Rx,0,4,11,09,22,04,00,00,00,00,
24284466,00000011,false,Rx,0,8,B9,1F,00,00,98,B5,00,00,
24286025,00000012,false,Rx,0,8,A5,F6,09,00,99,EC,0A,00,
24287600,00000013,false,Rx,0,8,9F,B4,05,00,18,9A,02,00,
24288918,00000014,false,Rx,0,4,10,09,22,04,00,00,00,00,
24340888,00000011,false,Rx,0,8,BD,1F,00,00,5D,B5,00,00,
24342518,00000012,false,Rx,0,8,E5,F7,09,00,02,E9,0A,00,
24344093,00000013,false,Rx,0,8,40,B5,05,00,76,99,02,00,
24345392,00000014,false,Rx,0,4,11,09,21,04,00,00,00,00,
24397354,00000011,false,Rx,0,8,B9,1F,00,00,5D,B5,00,00,
24398999,00000012,false,Rx,0,8,A5,F6,09,00,02,E9,0A,00,
24400591,00000013,false,Rx,0,8,9F,B4,05,00,76,99,02,00,
24401874,00000014,false,Rx,0,4,10,09,21,04,00,00,00,00,
24453932,00000011,false,Rx,0,8,BD,1F,00,00,5D,B5,00,00,
24455521,00000012,false,Rx,0,8,E5,F7,09,00,02,E9,0A,00,
24457097,00000013,false,Rx,0,8,40,B5,05,00,76,99,02,00,
24458363,00000014,false,Rx,0,4,11,09,21,04,00,00,00,00,
24510415,00000011,false,Rx,0,8,BD,1F,00,00,98,B5,00,00,
24512016,00000012,false,Rx,0,8,E5,F7,09,00,99,EC,0A,00,
24513594,00000013,false,Rx,0,8,40,B5,05,00,18,9A,02,00,
24514878,00000014,false,Rx,0,4,11,09,22,04,00,00,00,00,
24566906,00000011,false,Rx,0,8,FB,1D,00,00,11,AF,00,00,
24568526,00000012,false,Rx,0,8,AA,6A,09,00,0D,88,0A,00,
24570096,00000013,false,Rx,0,8,1C,6E,05,00,77,88,02,00,
24571372,00000014,false,Rx,0,4,A0,08,06,04,00,00,00,00,
24623406,00000011,false,Rx,0,8,7F,1E,00,00,33,80,00,00,
24624968,00000012,false,Rx,0,8,E9,93,09,00,46,B6,07,00,
24626531,00000013,false,Rx,0,8,E2,82,05,00,EB,09,02,00,
24627834,00000014,false,Rx,0,4,C1,08,3D,03,00,00,00,00,
24679841,00000011,false,Rx,0,8,DA,1E,00,00,74,5D,00,00,
24681460,00000012,false,Rx,0,8,A8,B0,09,00,3A,9F,05,00,
24683033,00000013,false,Rx,0,8,5D,91,05,00,1D,AC,01,00,
24684347,00000014,false,Rx,0,4,D8,08,A8,02,00,00,00,00,
24736444,00000011,false,Rx,0,8,1E,1F,00,00,68,42,00,00,
24738138,00000012,false,Rx,0,8,E7,C5,09,00,AE,FE,03,00,
24739619,00000013,false,Rx,0,8,11,9C,05,00,15,63,01,00,
24740815,00000014,false,Rx,0,4,E9,08,34,02,00,00,00,00,
24792813,00000011,false,Rx,0,8,55,1F,00,00,E3,2D,00,00,
24794431,00000012,false,Rx,0,8,67,D7,09,00,AD,C2,02,00,
24795978,00000013,false,Rx,0,8,E2,A4,05,00,AD,2B,01,00,
24797277,00000014,false,Rx,0,4,F7,08,DC,01,00,00,00,00,
24849338,00000011,false,Rx,0,8,81,1F,00,00,7F,1E,00,00,
24850944,00000012,false,Rx,0,8,26,E5,09,00,AD,D5,01,00,
24852519,00000013,false,Rx,0,8,CF,AB,05,00,20,02,01,00,
24853817,00000014,false,Rx,0,4,02,09,9A,01,00,00,00,00,
24905831,00000011,false,Rx,0,8,A1,1F,00,00,12,13,00,00,
24907450,00000012,false,Rx,0,8,26,EF,09,00,B8,25,01,00,
24908992,00000013,false,Rx,0,8,D8,B0,05,00,47,E3,00,00,
24910264,00000014,false,Rx,0,4,0A,09,69,01,00,00,00,00,
24962262,00000011,false,Rx,0,8,BD,1F,00,00,36,0A,00,00,
24963852,00000012,false,Rx,0,8,E5,F7,09,00,44,9D,00,00,
24965454,00000013,false,Rx,0,8,40,B5,05,00,5A,CB,00,00,
24966933,00000014,false,Rx,0,4,11,09,43,01,00,00,00,00,
25018759,00000011,false,Rx,0,8,D1,1F,00,00,9D,04,00,00,
25020447,00000012,false,Rx,0,8,25,FE,09,00,15,47,00,00,
25021948,00000013,false,Rx,0,8,66,B8,05,00,3E,BC,00,00,
25023210,00000014,false,Rx,0,4,16,09,2B,01,00,00,00,00,
25075197,00000011,false,Rx,0,8,E1,1F,00,00,0D,02,00,00,
25076795,00000012,false,Rx,0,8,25,03,0A,00,95,1F,00,00,
25078398,00000013,false,Rx,0,8,EB,BA,05,00,51,B5,00,00,
25079687,00000014,false,Rx,0,4,1A,09,20,01,00,00,00,00,
25131697,00000011,false,Rx,0,8,ED,1F,00,00,1E,01,00,00,
25133293,00000012,false,Rx,0,8,E5,06,0A,00,38,11,00,00,
25134813,00000013,false,Rx,0,8,CE,BC,05,00,CC,B2,00,00,
25136134,00000014,false,Rx,0,4,1D,09,1C,01,00,00,00,00,
25188168,00000011,false,Rx,0,8,F1,1F,00,00,1E,01,00,00,
25189754,00000012,false,Rx,0,8,25,08,0A,00,38,11,00,00,
25191304,00000013,false,Rx,0,8,6F,BD,05,00,CC,B2,00,00,
25192608,00000014,false,Rx,0,4,1E,09,1C,01,00,00,00,00,
25244594,00000011,false,Rx,0,8,F9,1F,00,00,1E,01,00,00,
25246231,00000012,false,Rx,0,8,A5,0A,0A,00,38,11,00,00,
25247799,00000013,false,Rx,0,8,B2,BE,05,00,CC,B2,00,00,
25249091,00000014,false,Rx,0,4,20,09,1C,01,00,00,00,00,
25301116,00000011,false,Rx,0,8,F9,1F,00,00,1E,01,00,00,
25302706,00000012,false,Rx,0,8,A5,0A,0A,00,38,11,00,00,
25304284,00000013,false,Rx,0,8,B2,BE,05,00,CC,B2,00,00,
25305673,00000014,false,Rx,0,4,20,09,1C,01,00,00,00,00,
25357611,00000011,false,Rx,0,8,FD,1F,00,00,1E,01,00,00,
25359238,00000012,false,Rx,0,8,E5,0B,0A,00,38,11,00,00,
25360789,00000013,false,Rx,0,8,53,BF,05,00,CC,B2,00,00,
25362053,00000014,false,Rx,0,4,21,09,1C,01,00,00,00,00,
25414307,00000011,false,Rx,0,8,FD,1F,00,00,E2,00,00,00,
25415659,00000012,false,Rx,0,8,E5,0B,0A,00,A1,0D,00,00,
25417249,00000013,false,Rx,0,8,53,BF,05,00,2B,B2,00,00,
25418546,00000014,false,Rx,0,4,21,09,1B,01,00,00,00,00,
25470545,00000011,false,Rx,0,8,FD,1F,00,00,E2,00,00,00,
25472126,00000012,false,Rx,0,8,E5,0B,0A,00,A1,0D,00,00,
25473691,00000013,false,Rx,0,8,53,BF,05,00,2B,B2,00,00,
25474967,00000014,false,Rx,0,4,21,09,1B,01,00,00,00,00,
25526962,00000011,false,Rx,0,8,FD,1F,00,00,E2,00,00,00,
25528556,00000012,false,Rx,0,8,E5,0B,0A,00,A1,0D,00,00,
25530129,00000013,false,Rx,0,8,53,BF,05,00,2B,B2,00,00,
25531431,00000014,false,Rx,0,4,21,09,1B,01,00,00,00,00,
25583434,00000011,false,Rx,0,8,FD,1F,00,00,E2,00,00,00,
25585052,00000012,false,Rx,0,8,E5,0B,0A,00,A1,0D,00,00,
25586649,00000013,false,Rx,0,8,53,BF,05,00,2B,B2,00,00,
25587923,00000014,false,Rx,0,4,21,09,1B,01,00,00,00,00,
25639883,00000011,false,Rx,0,8,FD,1F,00,00,A6,00,00,00,
25641503,00000012,false,Rx,0,8,E5,0B,0A,00,09,0A,00,00,
25643065,00000013,false,Rx,0,8,53,BF,05,00,8A,B1,00,00,
25644359,00000014,false,Rx,0,4,21,09,1A,01,00,00,00,00,
25696384,00000011,false,Rx,0,8,FD,1F,00,00,E2,00,00,00,
25698007,00000012,false,Rx,0,8,E5,0B,0A,00,A1,0D,00,00,
25699577,00000013,false,Rx,0,8,53,BF,05,00,2B,B2,00,00,
25700857,00000014,false,Rx,0,4,21,09,1B,01,00,00,00,00,
25752857,00000011,false,Rx,0,8,F9,1F,00,00,A6,00,00,00,
25754463,00000012,false,Rx,0,8,A5,0A,0A,00,09,0A,00,00,
25755998,00000013,false,Rx,0,8,B2,BE,05,00,8A,B1,00,00,
25757336,00000014,false,Rx,0,4,20,09,1A,01,00,00,00,00,
25809293,00000011,false,Rx,0,8,F9,1F,00,00,E2,00,00,00,
25810899,00000012,false,Rx,0,8,A5,0A,0A,00,A1,0D,00,00,
25812474,00000013,false,Rx,0,8,B2,BE,05,00,2B,B2,00,00,
25813731,00000014,false,Rx,0,4,20,09,1B,01,00,00,00,00,
25865747,00000011,false,Rx,0,8,F5,1F,00,00,A6,00,00,00,
25867337,00000012,false,Rx,0,8,65,09,0A,00,09,0A,00,00,
25868913,00000013,false,Rx,0,8,11,BE,05,00,8A,B1,00,00,
25870251,00000014,false,Rx,0,4,1F,09,1A,01,00,00,00,00,
25922353,00000011,false,Rx,0,8,F5,1F,00,00,A6,00,00,00,
25923794,00000012,false,Rx,0,8,65,09,0A,00,09,0A,00,00,
25925429,00000013,false,Rx,0,8,11,BE,05,00,8A,B1,00,00,
25926704,00000014,false,Rx,0,4,1F,09,1A,01,00,00,00,00,
25978673,00000011,false,Rx,0,8,F5,1F,00,00,A6,00,00,00,
25980286,00000012,false,Rx,0,8,65,09,0A,00,09,0A,00,00,
25981840,00000013,false,Rx,0,8,11,BE,05,00,8A,B1,00,00,
25983138,00000014,false,Rx,0,4,1F,09,1A,01,00,00,00,00,
26035165,00000011,false,Rx,0,8,F5,1F,00,00,A6,00,00,00,
26036801,00000012,false,Rx,0,8,65,09,0A,00,09,0A,00,00,
26038551,00000013,false,Rx,0,8,11,BE,05,00,8A,B1,00,00,
26039661,00000014,false,Rx,0,4,1F,09,1A,01,00,00,00,00,
26091654,00000011,false,Rx,0,8,F5,1F,00,00,E2,00,00,00,
26093242,00000012,false,Rx,0,8,65,09,0A,00,A1,0D,00,00,
26094817,00000013,false,Rx,0,8,11,BE,05,00,2B,B2,00,00,
26096115,00000014,false,Rx,0,4,1F,09,1B,01,00,00,00,00,
26148152,00000011,false,Rx,0,8,CD,1F,00,00,A6,00,00,00,
26149739,00000012,false,Rx,0,8,E5,FC,09,00,09,0A,00,00,
26151311,00000013,false,Rx,0,8,C5,B7,05,00,8A,B1,00,00,
26152617,00000014,false,Rx,0,4,15,09,1A,01,00,00,00,00,
26204646,00000011,false,Rx,0,8,F1,1F,00,00,A6,00,00,00,
26206236,00000012,false,Rx,0,8,25,08,0A,00,09,0A,00,00,
26207824,00000013,false,Rx,0,8,6F,BD,05,00,8A,B1,00,00,
26209110,00000014,false,Rx,0,4,1E,09,1A,01,00,00,00,00,
26261139,00000011,false,Rx,0,8,F5,1F,00,00,A6,00,00,00,
26262738,00000012,false,Rx,0,8,65,09,0A,00,09,0A,00,00,
26264308,00000013,false,Rx,0,8,11,BE,05,00,8A,B1,00,00,
26265607,00000014,false,Rx,0,4,1F,09,1A,01,00,00,00,00,
26317672,00000011,false,Rx,0,8,F5,1F,00,00,A6,00,00,00,
26319345,00000012,false,Rx,0,8,65,09,0A,00,09,0A,00,00,
26321039,00000013,false,Rx,0,8,11,BE,05,00,8A,B1,00,00,
26322134,00000014,false,Rx,0,4,1F,09,1A,01,00,00,00,00,
26374180,00000011,false,Rx,0,8,ED,1F,00,00,A6,00,00,00,
26375762,00000012,false,Rx,0,8,E5,06,0A,00,09,0A,00,00,
26377337,00000013,false,Rx,0,8,CE,BC,05,00,8A,B1,00,00,
26378604,00000014,false,Rx,0,4,1D,09,1A,01,00,00,00,00,
26430666,00000011,false,Rx,0,8,ED,1F,00,00,6B,00,00,00,
26432258,00000012,false,Rx,0,8,E5,06,0A,00,72,06,00,00,
26433828,00000013,false,Rx,0,8,CE,BC,05,00,E9,B0,00,00,
26435117,00000014,false,Rx,0,4,1D,09,19,01,00,00,00,00,
26487172,00000011,false,Rx,0,8,ED,1F,00,00,A6,00,00,00,
26488739,00000012,false,Rx,0,8,E5,06,0A,00,09,0A,00,00,
26490312,00000013,false,Rx,0,8,CE,BC,05,00,8A,B1,00,00,
26491584,00000014,false,Rx,0,4,1D,09,1A,01,00,00,00,00,
26543588,00000011,false,Rx,0,8,F1,1F,00,00,A6,00,00,00,
26545183,00000012,false,Rx,0,8,25,08,0A,00,09,0A,00,00,
26546779,00000013,false,Rx,0,8,6F,BD,05,00,8A,B1,00,00,
26548085,00000014,false,Rx,0,4,1E,09,1A,01,00,00,00,00,
26600076,00000011,false,Rx,0,8,ED,1F,00,00,A6,00,00,00,
26601691,00000012,false,Rx,0,8,E5,06,0A,00,09,0A,00,00,
26603239,00000013,false,Rx,0,8,CE,BC,05,00,8A,B1,00,00,
26604595,00000014,false,Rx,0,4,1D,09,1A,01,00,00,00,00,
26656595,00000011,false,Rx,0,8,ED,1F,00,00,A6,00,00,00,
26658144,00000012,false,Rx,0,8,E5,06,0A,00,09,0A,00,00,
26659721,00000013,false,Rx,0,8,CE,BC,05,00,8A,B1,00,00,
26661018,00000014,false,Rx,0,4,1D,09,1A,01,00,00,00,00,
26713007,00000011,false,Rx,0,8,ED,1F,00,00,A6,00,00,00,
26714598,00000012,false,Rx,0,8,E5,06,0A,00,09,0A,00,00,
26716196,00000013,false,Rx,0,8,CE,BC,05,00,8A,B1,00,00,
26717469,00000014,false,Rx,0,4,1D,09,1A,01,00,00,00,00,
26769486,00000011,false,Rx,0,8,ED,1F,00,00,A6,00,00,00,
26771100,00000012,false,Rx,0,8,E5,06,0A,00,09,0A,00,00,
26772678,00000013,false,Rx,0,8,CE,BC,05,00,8A,B1,00,00,
26773957,00000014,false,Rx,0,4,1D,09,1A,01,00,00,00,00,
26825949,00000011,false,Rx,0,8,ED,1F,00,00,A6,00,00,00,
26827581,00000012,false,Rx,0,8,E5,06,0A,00,09,0A,00,00,
26829118,00000013,false,Rx,0,8,CE,BC,05,00,8A,B1,00,00,
26830423,00000014,false,Rx,0,4,1D,09,1A,01,00,00,00,00,
26882446,00000011,false,Rx,0,8,E9,1F,00,00,A6,00,00,00,
26884059,00000012,false,Rx,0,8,A5,05,0A,00,09,0A,00,00,
26885625,00000013,false,Rx,0,8,2D,BC,05,00,8A,B1,00,00,
26886893,00000014,false,Rx,0,4,1C,09,1A,01,00,00,00,00,
26938894,00000011,false,Rx,0,8,E5,1F,00,00,A6,00,00,00,
26940519,00000012,false,Rx,0,8,65,04,0A,00,09,0A,00,00,
26942067,00000013,false,Rx,0,8,8C,BB,05,00,8A,B1,00,00,
26943337,00000014,false,Rx,0,4,1B,09,1A,01,00,00,00,00,
26995397,00000011,false,Rx,0,8,E9,1F,00,00,A6,00,00,00,
26996964,00000012,false,Rx,0,8,A5,05,0A,00,09,0A,00,00,
26998514,00000013,false,Rx,0,8,2D,BC,05,00,8A,B1,00,00,
26999845,00000014,false,Rx,0,4,1C,09,1A,01,00,00,00,00,
27051803,00000011,false,Rx,0,8,E5,1F,00,00,A6,00,00,00,
27053398,00000012,false,Rx,0,8,65,04,0A,00,09,0A,00,00,
27055009,00000013,false,Rx,0,8,8C,BB,05,00,8A,B1,00,00,
27056308,00000014,false,Rx,0,4,1B,09,1A,01,00,00,00,00,
27108252,00000011,false,Rx,0,8,E9,1F,00,00,6B,00,00,00,
27109873,00000012,false,Rx,0,8,A5,05,0A,00,72,06,00,00,
27111423,00000013,false,Rx,0,8,2D,BC,05,00,E9,B0,00,00,
27112721,00000014,false,Rx,0,4,1C,09,19,01,00,00,00,00,
27164988,00000011,false,Rx,0,8,E5,1F,00,00,E2,00,00,00,
27166530,00000012,false,Rx,0,8,65,04,0A,00,A1,0D,00,00,
27168167,00000013,false,Rx,0,8,8C,BB,05,00,2B,B2,00,00,
27169469,00000014,false,Rx,0,4,1B,09,1B,01,00,00,00,00,
27221243,00000011,false,Rx,0,8,E5,1F,00,00,A6,00,00,00,
27222860,00000012,false,Rx,0,8,65,04,0A,00,09,0A,00,00,
27224396,00000013,false,Rx,0,8,8C,BB,05,00,8A,B1,00,00,
27225667,00000014,false,Rx,0,4,1B,09,1A,01,00,00,00,00,
27277692,00000011,false,Rx,0,8,D5,1F,00,00,1E,01,00,00,
27279286,00000012,false,Rx,0,8,65,FF,09,00,38,11,00,00,
27280860,00000013,false,Rx,0,8,07,B9,05,00,CC,B2,00,00,
27282164,00000014,false,Rx,0,4,17,09,1C,01,00,00,00,00,
27334154,00000011,false,Rx,0,8,A9,16,00,00,F8,78,00,00,
27335768,00000012,false,Rx,0,8,FF,1D,07,00,F5,46,07,00,
27337348,00000013,false,Rx,0,8,94,45,04,00,67,F6,01,00,
27338645,00000014,false,Rx,0,4,C9,06,1E,03,00,00,00,00,
27390688,00000011,false,Rx,0,8,38,1D,00,00,92,AB,00,00,
27392286,00000012,false,Rx,0,8,6C,2D,09,00,30,52,0A,00,
27393805,00000013,false,Rx,0,8,42,4F,05,00,05,7F,02,00,
27395099,00000014,false,Rx,0,4,6F,08,F7,03,00,00,00,00,
27447154,00000011,false,Rx,0,8,9D,1F,00,00,07,BA,00,00,
27448735,00000012,false,Rx,0,8,E6,ED,09,00,D3,30,0B,00,
27450319,00000013,false,Rx,0,8,37,B0,05,00,0E,A6,02,00,
27451621,00000014,false,Rx,0,4,09,09,35,04,00,00,00,00,
27503605,00000011,false,Rx,0,8,05,20,00,00,54,B9,00,00,
27505218,00000012,false,Rx,0,8,65,0E,0A,00,0E,26,0B,00,
27506780,00000013,false,Rx,0,8,95,C0,05,00,2A,A4,02,00,
27508022,00000014,false,Rx,0,4,23,09,32,04,00,00,00,00,
27560039,00000011,false,Rx,0,8,0D,20,00,00,DC,B8,00,00,
27561628,00000012,false,Rx,0,8,E4,10,0A,00,DF,1E,0B,00,
27563208,00000013,false,Rx,0,8,D8,C1,05,00,E8,A2,02,00,
27564496,00000014,false,Rx,0,4,25,09,30,04,00,00,00,00,
27616560,00000011,false,Rx,0,8,09,20,00,00,29,B8,00,00,
27618172,00000012,false,Rx,0,8,A5,0F,0A,00,19,14,0B,00,
27619675,00000013,false,Rx,0,8,36,C1,05,00,05,A1,02,00,
27620966,00000014,false,Rx,0,4,24,09,2D,04,00,00,00,00,
27673021,00000011,false,Rx,0,8,05,20,00,00,ED,B7,00,00,
27674617,00000012,false,Rx,0,8,65,0E,0A,00,82,10,0B,00,
27676207,00000013,false,Rx,0,8,95,C0,05,00,63,A0,02,00,
27677455,00000014,false,Rx,0,4,23,09,2C,04,00,00,00,00,
27729495,00000011,false,Rx,0,8,FD,1F,00,00,76,B7,00,00,
27731086,00000012,false,Rx,0,8,E5,0B,0A,00,53,09,0B,00,
27732662,00000013,false,Rx,0,8,53,BF,05,00,21,9F,02,00,
27733972,00000014,false,Rx,0,4,21,09,2A,04,00,00,00,00,
27785970,00000011,false,Rx,0,8,F1,1F,00,00,3A,B7,00,00,
27787609,00000012,false,Rx,0,8,25,08,0A,00,BC,05,0B,00,
27789163,00000013,false,Rx,0,8,6F,BD,05,00,80,9E,02,00,
27790403,00000014,false,Rx,0,4,1E,09,29,04,00,00,00,00,
27842396,00000011,false,Rx,0,8,E5,1F,00,00,C3,B6,00,00,
27844043,00000012,false,Rx,0,8,65,04,0A,00,8E,FE,0A,00,
27845590,00000013,false,Rx,0,8,8C,BB,05,00,3E,9D,02,00,
27846896,00000014,false,Rx,0,4,1B,09,27,04,00,00,00,00,
27898875,00000011,false,Rx,0,8,DD,1F,00,00,FF,B6,00,00,
27900573,00000012,false,Rx,0,8,E5,01,0A,00,25,02,0B,00,
27902094,00000013,false,Rx,0,8,49,BA,05,00,DF,9D,02,00,
27903392,00000014,false,Rx,0,4,19,09,28,04,00,00,00,00,
27955377,00000011,false,Rx,0,8,D5,1F,00,00,87,B6,00,00,
27957001,00000012,false,Rx,0,8,65,FF,09,00,F6,FA,0A,00,
27958543,00000013,false,Rx,0,8,07,B9,05,00,9C,9C,02,00,
27959869,00000014,false,Rx,0,4,17,09,26,04,00,00,00,00,
28011853,00000011,false,Rx,0,8,B9,1F,00,00,87,B6,00,00,
28013442,00000012,false,Rx,0,8,A5,F6,09,00,F6,FA,0A,00,
28015034,00000013,false,Rx,0,8,9F,B4,05,00,9C,9C,02,00,
28016350,00000014,false,Rx,0,4,10,09,26,04,00,00,00,00,
28068304,00000011,false,Rx,0,8,C9,1F,00,00,4C,B6,00,00,
28069898,00000012,false,Rx,0,8,A5,FB,09,00,5F,F7,0A,00,
28071512,00000013,false,Rx,0,8,24,B7,05,00,FB,9B,02,00,
28072794,00000014,false,Rx,0,4,14,09,25,04,00,00,00,00,
28124806,00000011,false,Rx,0,8,C1,1F,00,00,10,B6,00,00,
28126384,00000012,false,Rx,0,8,25,F9,09,00,C8,F3,0A,00,
28127978,00000013,false,Rx,0,8,E1,B5,05,00,5A,9B,02,00,
28129262,00000014,false,Rx,0,4,12,09,24,04,00,00,00,00,
28181264,00000011,false,Rx,0,8,C5,1F,00,00,10,B6,00,00,
28182854,00000012,false,Rx,0,8,65,FA,09,00,C8,F3,0A,00,
28184399,00000013,false,Rx,0,8,82,B6,05,00,5A,9B,02,00,
28185698,00000014,false,Rx,0,4,13,09,24,04,00,00,00,00,
28237773,00000011,false,Rx,0,8,C1,1F,00,00,98,B5,00,00,
28239375,00000012,false,Rx,0,8,25,F9,09,00,99,EC,0A,00,
28240942,00000013,false,Rx,0,8,E1,B5,05,00,18,9A,02,00,
28242205,00000014,false,Rx,0,4,12,09,22,04,00,00,00,00,
28294224,00000011,false,Rx,0,8,BD,1F,00,00,98,B5,00,00,
28295818,00000012,false,Rx,0,8,E5,F7,09,00,99,EC,0A,00,
28297399,00000013,false,Rx,0,8,40,B5,05,00,18,9A,02,00,
28298711,00000014,false,Rx,0,4,11,09,22,04,00,00,00,00,
28350715,00000011,false,Rx,0,8,B9,1F,00,00,98,B5,00,00,
28352288,00000012,false,Rx,0,8,A5,F6,09,00,99,EC,0A,00,
28353854,00000013,false,Rx,0,8,9F,B4,05,00,18,9A,02,00,
28355148,00000014,false,Rx,0,4,10,09,22,04,00,00,00,00,
28407077,00000011,false,Rx,0,8,BD,1F,00,00,98,B5,00,00,
28408723,00000012,false,Rx,0,8,E5,F7,09,00,99,EC,0A,00,
28410297,00000013,false,Rx,0,8,40,B5,05,00,18,9A,02,00,
28411571,00000014,false,Rx,0,4,11,09,22,04,00,00,00,00,
28463573,00000011,false,Rx,0,8,B9,1F,00,00,5D,B5,00,00,
28465189,00000012,false,Rx,0,8,A5,F6,09,00,02,E9,0A,00,
28466741,00000013,false,Rx,0,8,9F,B4,05,00,76,99,02,00,
28468044,00000014,false,Rx,0,4,10,09,21,04,00,00,00,00,
28520011,00000011,false,Rx,0,8,B9,1F,00,00,21,B5,00,00,
28521583,00000012,false,Rx,0,8,A5,F6,09,00,6B,E5,0A,00,
28523124,00000013,false,Rx,0,8,9F,B4,05,00,D5,98,02,00,
28524423,00000014,false,Rx,0,4,10,09,20,04,00,00,00,00,
28576401,00000011,false,Rx,0,8,B9,1F,00,00,21,B5,00,00,
28578021,00000012,false,Rx,0,8,A5,F6,09,00,6B,E5,0A,00,
28579594,00000013,false,Rx,0,8,9F,B4,05,00,D5,98,02,00,
28580897,00000014,false,Rx,0,4,10,09,20,04,00,00,00,00,
28632875,00000011,false,Rx,0,8,B9,1F,00,00,21,B5,00,00,
28634488,00000012,false,Rx,0,8,A5,F6,09,00,6B,E5,0A,00,
28636266,00000013,false,Rx,0,8,9F,B4,05,00,D5,98,02,00,
28637589,00000014,false,Rx,0,4,10,09,20,04,00,00,00,00,
28689350,00000011,false,Rx,0,8,B5,1F,00,00,21,B5,00,00,
28690947,00000012,false,Rx,0,8,65,F5,09,00,6B,E5,0A,00,
28692497,00000013,false,Rx,0,8,FE,B3,05,00,D5,98,02,00,
28693755,00000014,false,Rx,0,4,0F,09,20,04,00,00,00,00,
28745781,00000011,false,Rx,0,8,B9,1F,00,00,E5,B4,00,00,
28747401,00000012,false,Rx,0,8,A5,F6,09,00,D3,E1,0A,00,
28748948,00000013,false,Rx,0,8,9F,B4,05,00,34,98,02,00,
28750274,00000014,false,Rx,0,4,10,09,1F,04,00,00,00,00,
28802316,00000011,false,Rx,0,8,BD,1F,00,00,E5,B4,00,00,
28803875,00000012,false,Rx,0,8,E5,F7,09,00,D3,E1,0A,00,
28805448,00000013,false,Rx,0,8,40,B5,05,00,34,98,02,00,
28806727,00000014,false,Rx,0,4,11,09,1F,04,00,00,00,00,
28858735,00000011,false,Rx,0,8,BD,1F,00,00,AA,B4,00,00,
28860352,00000012,false,Rx,0,8,E5,F7,09,00,3C,DE,0A,00,
28861940,00000013,false,Rx,0,8,40,B5,05,00,93,97,02,00,
28863234,00000014,false,Rx,0,4,11,09,1E,04,00,00,00,00,
28915275,00000011,false,Rx,0,8,BD,1F,00,00,AA,B4,00,00,
28916869,00000012,false,Rx,0,8,E5,F7,09,00,3C,DE,0A,00,
28918453,00000013,false,Rx,0,8,40,B5,05,00,93,97,02,00,
28919751,00000014,false,Rx,0,4,11,09,1E,04,00,00,00,00,
28971789,00000011,false,Rx,0,8,BD,1F,00,00,6E,B4,00,00,
28973421,00000012,false,Rx,0,8,E5,F7,09,00,A5,DA,0A,00,
28974957,00000013,false,Rx,0,8,40,B5,05,00,F2,96,02,00,
28976204,00000014,false,Rx,0,4,11,09,1D,04,00,00,00,00,
29028248,00000011,false,Rx,0,8,BD,1F,00,00,6E,B4,00,00,
29029868,00000012,false,Rx,0,8,E5,F7,09,00,A5,DA,0A,00,
29031442,00000013,false,Rx,0,8,40,B5,05,00,F2,96,02,00,
29032752,00000014,false,Rx,0,4,11,09,1D,04,00,00,00,00,
29084981,00000011,false,Rx,0,8,BD,1F,00,00,6E,B4,00,00,
29086541,00000012,false,Rx,0,8,E5,F7,09,00,A5,DA,0A,00,
29088050,00000013,false,Rx,0,8,40,B5,05,00,F2,96,02,00,
29089223,00000014,false,Rx,0,4,11,09,1D,04,00,00,00,00,
29141252,00000011,false,Rx,0,8,C1,1F,00,00,AA,B4,00,00,
29142831,00000012,false,Rx,0,8,25,F9,09,00,3C,DE,0A,00,
29144381,00000013,false,Rx,0,8,E1,B5,05,00,93,97,02,00,
29145723,00000014,false,Rx,0,4,12,09,1E,04,00,00,00,00,
29197705,00000011,false,Rx,0,8,C1,1F,00,00,6E,B4,00,00,
29199562,00000012,false,Rx,0,8,25,F9,09,00,A5,DA,0A,00,
29200907,00000013,false,Rx,0,8,E1,B5,05,00,F2,96,02,00,
29202167,00000014,false,Rx,0,4,12,09,1D,04,00,00,00,00,
29254213,00000011,false,Rx,0,8,C1,1F,00,00,6E,B4,00,00,
29255743,00000012,false,Rx,0,8,25,F9,09,00,A5,DA,0A,00,
29257351,00000013,false,Rx,0,8,E1,B5,05,00,F2,96,02,00,
29258621,00000014,false,Rx,0,4,12,09,1D,04,00,00,00,00,
29310625,00000011,false,Rx,0,8,BD,1F,00,00,6E,B4,00,00,
29312199,00000012,false,Rx,0,8,E5,F7,09,00,A5,DA,0A,00,
29313774,00000013,false,Rx,0,8,40,B5,05,00,F2,96,02,00,
29315105,00000014,false,Rx,0,4,11,09,1D,04,00,00,00,00,
29367114,00000011,false,Rx,0,8,C1,1F,00,00,32,B4,00,00,
29368719,00000012,false,Rx,0,8,25,F9,09,00,0D,D7,0A,00,
29370268,00000013,false,Rx,0,8,E1,B5,05,00,51,96,02,00,
29371568,00000014,false,Rx,0,4,12,09,1C,04,00,00,00,00,
29423560,00000011,false,Rx,0,8,C5,1F,00,00,32,B4,00,00,
29425151,00000012,false,Rx,0,8,65,FA,09,00,0D,D7,0A,00,
29426756,00000013,false,Rx,0,8,82,B6,05,00,51,96,02,00,
29428028,00000014,false,Rx,0,4,13,09,1C,04,00,00,00,00,
29480054,00000011,false,Rx,0,8,C5,1F,00,00,32,B4,00,00,
29481646,00000012,false,Rx,0,8,65,FA,09,00,0D,D7,0A,00,
29483210,00000013,false,Rx,0,8,82,B6,05,00,51,96,02,00,
29484483,00000014,false,Rx,0,4,13,09,1C,04,00,00,00,00,
29536723,00000011,false,Rx,0,8,C5,1F,00,00,32,B4,00,00,
29538117,00000012,false,Rx,0,8,65,FA,09,00,0D,D7,0A,00,
29539680,00000013,false,Rx,0,8,82,B6,05,00,51,96,02,00,
29540925,00000014,false,Rx,0,4,13,09,1C,04,00,00,00,00,
29592951,00000011,false,Rx,0,8,C5,1F,00,00,32,B4,00,00,
29594555,00000012,false,Rx,0,8,65,FA,09,00,0D,D7,0A,00,
29596173,00000013,false,Rx,0,8,82,B6,05,00,51,96,02,00,
29597445,00000014,false,Rx,0,4,13,09,1C,04,00,00,00,00,
29649454,00000011,false,Rx,0,8,C9,1F,00,00,32,B4,00,00,
29651072,00000012,false,Rx,0,8,A5,FB,09,00,0D,D7,0A,00,
29652651,00000013,false,Rx,0,8,24,B7,05,00,51,96,02,00,
29653879,00000014,false,Rx,0,4,14,09,1C,04,00,00,00,00,
29705958,00000011,false,Rx,0,8,C9,1F,00,00,32,B4,00,00,
29707523,00000012,false,Rx,0,8,A5,FB,09,00,0D,D7,0A,00,
29709107,00000013,false,Rx,0,8,24,B7,05,00,51,96,02,00,
29710400,00000014,false,Rx,0,4,14,09,1C,04,00,00,00,00,
29762439,00000011,false,Rx,0,8,CD,1F,00,00,6E,B4,00,00,
29764026,00000012,false,Rx,0,8,E5,FC,09,00,A5,DA,0A,00,
29765599,00000013,false,Rx,0,8,C5,B7,05,00,F2,96,02,00,
29766949,00000014,false,Rx,0,4,15,09,1D,04,00,00,00,00,
29818991,00000011,false,Rx,0,8,C9,1F,00,00,98,B5,00,00,
29820760,00000012,false,Rx,0,8,A5,FB,09,00,99,EC,0A,00,
29822122,00000013,false,Rx,0,8,24,B7,05,00,18,9A,02,00,
29823405,00000014,false,Rx,0,4,14,09,22,04,00,00,00,00,
29875466,00000011,false,Rx,0,8,C9,1F,00,00,D4,B5,00,00,
29877081,00000012,false,Rx,0,8,A5,FB,09,00,31,F0,0A,00,
29878634,00000013,false,Rx,0,8,24,B7,05,00,B9,9A,02,00,
29879971,00000014,false,Rx,0,4,14,09,23,04,00,00,00,00,
29931986,00000011,false,Rx,0,8,FF,1D,00,00,C4,AF,00,00,
29933610,00000012,false,Rx,0,8,EA,6B,09,00,D3,92,0A,00,
29935189,00000013,false,Rx,0,8,BD,6E,05,00,5A,8A,02,00,
29936698,00000014,false,Rx,0,4,A1,08,09,04,00,00,00,00,
29988514,00000011,false,Rx,0,8,7F,1E,00,00,21,81,00,00,
29990060,00000012,false,Rx,0,8,E9,93,09,00,A4,C4,07,00,
29991668,00000013,false,Rx,0,8,E2,82,05,00,70,0C,02,00,
29992968,00000014,false,Rx,0,4,C1,08,41,03,00,00,00,00,
30044981,00000011,false,Rx,0,8,D6,1E,00,00,B0,5D,00,00,
30046572,00000012,false,Rx,0,8,68,AF,09,00,D1,A2,05,00,
30048172,00000013,false,Rx,0,8,BC,90,05,00,BE,AC,01,00,
30049447,00000014,false,Rx,0,4,D7,08,A9,02,00,00,00,00,
30101464,00000011,false,Rx,0,8,16,1F,00,00,A4,42,00,00,
30103097,00000012,false,Rx,0,8,67,C3,09,00,45,02,04,00,
30104645,00000013,false,Rx,0,8,CF,9A,05,00,B6,63,01,00,
30105928,00000014,false,Rx,0,4,E7,08,35,02,00,00,00,00,
30157933,00000011,false,Rx,0,8,4E,1F,00,00,A7,2D,00,00,
30159581,00000012,false,Rx,0,8,E7,D4,09,00,16,BF,02,00,
30161153,00000013,false,Rx,0,8,9F,A3,05,00,0C,2B,01,00,
30162401,00000014,false,Rx,0,4,F5,08,DB,01,00,00,00,00,
30214495,00000011,false,Rx,0,8,7D,1F,00,00,7F,1E,00,00,
30216096,00000012,false,Rx,0,8,E6,E3,09,00,AD,D5,01,00,
30217651,00000013,false,Rx,0,8,2D,AB,05,00,20,02,01,00,
30218967,00000014,false,Rx,0,4,01,09,9A,01,00,00,00,00,
30271006,00000011,false,Rx,0,8,99,1F,00,00,12,13,00,00,
30272595,00000012,false,Rx,0,8,A6,EC,09,00,B8,25,01,00,
30274139,00000013,false,Rx,0,8,96,AF,05,00,47,E3,00,00,
30275409,00000014,false,Rx,0,4,08,09,69,01,00,00,00,00,
30327484,00000011,false,Rx,0,8,B5,1F,00,00,FA,09,00,00,
30329075,00000012,false,Rx,0,8,65,F5,09,00,AC,99,00,00,
30330659,00000013,false,Rx,0,8,FE,B3,05,00,B9,CA,00,00,
30331950,00000014,false,Rx,0,4,0F,09,42,01,00,00,00,00,
30383962,00000011,false,Rx,0,8,C9,1F,00,00,9D,04,00,00,
30385570,00000012,false,Rx,0,8,A5,FB,09,00,15,47,00,00,
30387146,00000013,false,Rx,0,8,24,B7,05,00,3E,BC,00,00,
30388403,00000014,false,Rx,0,4,14,09,2B,01,00,00,00,00,
30440460,00000011,false,Rx,0,8,D9,1F,00,00,0D,02,00,00,
30442020,00000012,false,Rx,0,8,A5,00,0A,00,95,1F,00,00,
30443594,00000013,false,Rx,0,8,A8,B9,05,00,51,B5,00,00,
30444883,00000014,false,Rx,0,4,18,09,20,01,00,00,00,00,
30496956,00000011,false,Rx,0,8,E5,1F,00,00,1E,01,00,00,
30498712,00000012,false,Rx,0,8,65,04,0A,00,38,11,00,00,
30500362,00000013,false,Rx,0,8,8C,BB,05,00,CC,B2,00,00,
30501666,00000014,false,Rx,0,4,1B,09,1C,01,00,00,00,00,
30553433,00000011,false,Rx,0,8,F5,1F,00,00,E2,00,00,00,
30555022,00000012,false,Rx,0,8,65,09,0A,00,A1,0D,00,00,
30556594,00000013,false,Rx,0,8,11,BE,05,00,2B,B2,00,00,
30557860,00000014,false,Rx,0,4,1F,09,1B,01,00,00,00,00,
30609926,00000011,false,Rx,0,8,F1,1F,00,00,1E,01,00,00,
30611519,00000012,false,Rx,0,8,25,08,0A,00,38,11,00,00,
30613093,00000013,false,Rx,0,8,6F,BD,05,00,CC,B2,00,00,
30614393,00000014,false,Rx,0,4,1E,09,1C,01,00,00,00,00,
30666420,00000011,false,Rx,0,8,F9,1F,00,00,E2,00,00,00,
30668177,00000012,false,Rx,0,8,A5,0A,0A,00,A1,0D,00,00,
30669624,00000013,false,Rx,0,8,B2,BE,05,00,2B,B2,00,00,
30670923,00000014,false,Rx,0,4,20,09,1B,01,00,00,00,00,
30722899,00000011,false,Rx,0,8,FD,1F,00,00,E2,00,00,00,
30724484,00000012,false,Rx,0,8,E5,0B,0A,00,A1,0D,00,00,
30726059,00000013,false,Rx,0,8,53,BF,05,00,2B,B2,00,00,
30727354,00000014,false,Rx,0,4,21,09,1B,01,00,00,00,00,
30779410,00000011,false,Rx,0,8,FD,1F,00,00,A6,00,00,00,
30781019,00000012,false,Rx,0,8,E5,0B,0A,00,09,0A,00,00,
30782593,00000013,false,Rx,0,8,53,BF,05,00,8A,B1,00,00,
30783878,00000014,false,Rx,0,4,21,09,1A,01,00,00,00,00,
30835945,00000011,false,Rx,0,8,FD,1F,00,00,A6,00,00,00,
30837546,00000012,false,Rx,0,8,E5,0B,0A,00,09,0A,00,00,
30839062,00000013,false,Rx,0,8,53,BF,05,00,8A,B1,00,00,
30840379,00000014,false,Rx,0,4,21,09,1A,01,00,00,00,00,
30892404,00000011,false,Rx,0,8,FD,1F,00,00,A6,00,00,00,
30894005,00000012,false,Rx,0,8,E5,0B,0A,00,09,0A,00,00,
30895577,00000013,false,Rx,0,8,53,BF,05,00,8A,B1,00,00,
30896876,00000014,false,Rx,0,4,21,09,1A,01,00,00,00,00,
30948860,00000011,false,Rx,0,8,FD,1F,00,00,E2,00,00,00,
30950460,00000012,false,Rx,0,8,E5,0B,0A,00,A1,0D,00,00,
30952051,00000013,false,Rx,0,8,53,BF,05,00,2B,B2,00,00,
30953328,00000014,false,Rx,0,4,21,09,1B,01,00,00,00,00,
31005320,00000011,false,Rx,0,8,FD,1F,00,00,A6,00,00,00,
31006919,00000012,false,Rx,0,8,E5,0B,0A,00,09,0A,00,00,
31008487,00000013,false,Rx,0,8,53,BF,05,00,8A,B1,00,00,
31009786,00000014,false,Rx,0,4,21,09,1A,01,00,00,00,00,
31061837,00000011,false,Rx,0,8,FD,1F,00,00,A6,00,00,00,
31063429,00000012,false,Rx,0,8,E5,0B,0A,00,09,0A,00,00,
31065002,00000013,false,Rx,0,8,53,BF,05,00,8A,B1,00,00,
31066297,00000014,false,Rx,0,4,21,09,1A,01,00,00,00,00,
31118361,00000011,false,Rx,0,8,FD,1F,00,00,E2,00,00,00,
31119925,00000012,false,Rx,0,8,E5,0B,0A,00,A1,0D,00,00,
31121481,00000013,false,Rx,0,8,53,BF,05,00,2B,B2,00,00,
31122776,00000014,false,Rx,0,4,21,09,1B,01,00,00,00,00,
31174766,00000011,false,Rx,0,8,FD,1F,00,00,A6,00,00,00,
31176389,00000012,false,Rx,0,8,E5,0B,0A,00,09,0A,00,00,
31177962,00000013,false,Rx,0,8,53,BF,05,00,8A,B1,00,00,
31179236,00000014,false,Rx,0,4,21,09,1A,01,00,00,00,00,
31231262,00000011,false,Rx,0,8,FD,1F,00,00,6B,00,00,00,
31232877,00000012,false,Rx,0,8,E5,0B,0A,00,72,06,00,00,
31234451,00000013,false,Rx,0,8,53,BF,05,00,E9,B0,00,00,
31235708,00000014,false,Rx,0,4,21,09,19,01,00,00,00,00,
31287746,00000011,false,Rx,0,8,F9,1F,00,00,A6,00,00,00,
31289323,00000012,false,Rx,0,8,A5,0A,0A,00,09,0A,00,00,
31290883,00000013,false,Rx,0,8,B2,BE,05,00,8A,B1,00,00,
31292190,00000014,false,Rx,0,4,20,09,1A,01,00,00,00,00,
31344242,00000011,false,Rx,0,8,F9,1F,00,00,A6,00,00,00,
31345988,00000012,false,Rx,0,8,A5,0A,0A,00,09,0A,00,00,
31347362,00000013,false,Rx,0,8,B2,BE,05,00,8A,B1,00,00,
31348839,00000014,false,Rx,0,4,20,09,1A,01,00,00,00,00,
31400717,00000011,false,Rx,0,8,F9,1F,00,00,A6,00,00,00,
31402317,00000012,false,Rx,0,8,A5,0A,0A,00,09,0A,00,00,
31403838,00000013,false,Rx,0,8,B2,BE,05,00,8A,B1,00,00,
31405180,00000014,false,Rx,0,4,20,09,1A,01,00,00,00,00,
31457173,00000011,false,Rx,0,8,F5,1F,00,00,A6,00,00,00,
31458802,00000012,false,Rx,0,8,65,09,0A,00,09,0A,00,00,
31460376,00000013,false,Rx,0,8,11,BE,05,00,8A,B1,00,00,
31461648,00000014,false,Rx,0,4,1F,09,1A,01,00,00,00,00,
31513698,00000011,false,Rx,0,8,FD,1F,00,00,A6,00,00,00,
31515304,00000012,false,Rx,0,8,E5,0B,0A,00,09,0A,00,00,
31516856,00000013,false,Rx,0,8,53,BF,05,00,8A,B1,00,00,
31518119,00000014,false,Rx,0,4,21,09,1A,01,00,00,00,00,
31570198,00000011,false,Rx,0,8,F5,1F,00,00,A6,00,00,00,
31571764,00000012,false,Rx,0,8,65,09,0A,00,09,0A,00,00,
31573342,00000013,false,Rx,0,8,11,BE,05,00,8A,B1,00,00,
31574639,00000014,false,Rx,0,4,1F,09,1A,01,00,00,00,00,
31626654,00000011,false,Rx,0,8,F5,1F,00,00,A6,00,00,00,
31628308,00000012,false,Rx,0,8,65,09,0A,00,09,0A,00,00,
31629843,00000013,false,Rx,0,8,11,BE,05,00,8A,B1,00,00,
31631154,00000014,false,Rx,0,4,1F,09,1A,01,00,00,00,00,
31683223,00000011,false,Rx,0,8,F5,1F,00,00,A6,00,00,00,
31684805,00000012,false,Rx,0,8,65,09,0A,00,09,0A,00,00,
31686373,00000013,false,Rx,0,8,11,BE,05,00,8A,B1,00,00,
31687680,00000014,false,Rx,0,4,1F,09,1A,01,00,00,00,00,
31739710,00000011,false,Rx,0,8,F5,1F,00,00,A6,00,00,00,
31741326,00000012,false,Rx,0,8,65,09,0A,00,09,0A,00,00,
31742907,00000013,false,Rx,0,8,11,BE,05,00,8A,B1,00,00,
31744193,00000014,false,Rx,0,4,1F,09,1A,01,00,00,00,00,
31796264,00000011,false,Rx,0,8,F9,1F,00,00,A6,00,00,00,
31797857,00000012,false,Rx,0,8,A5,0A,0A,00,09,0A,00,00,
31799407,00000013,false,Rx,0,8,B2,BE,05,00,8A,B1,00,00,
31800705,00000014,false,Rx,0,4,20,09,1A,01,00,00,00,00,
31852759,00000011,false,Rx,0,8,F1,1F,00,00,6B,00,00,00,
31854369,00000012,false,Rx,0,8,25,08,0A,00,72,06,00,00,
31855900,00000013,false,Rx,0,8,6F,BD,05,00,E9,B0,00,00,
31857257,00000014,false,Rx,0,4,1E,09,19,01,00,00,00,00,
31909260,00000011,false,Rx,0,8,F1,1F,00,00,A6,00,00,00,
31910882,00000012,false,Rx,0,8,25,08,0A,00,09,0A,00,00,
31912432,00000013,false,Rx,0,8,6F,BD,05,00,8A,B1,00,00,
31913731,00000014,false,Rx,0,4,1E,09,1A,01,00,00,00,00,
31965742,00000011,false,Rx,0,8,F1,1F,00,00,A6,00,00,00,
31967378,00000012,false,Rx,0,8,25,08,0A,00,09,0A,00,00,
31968967,00000013,false,Rx,0,8,6F,BD,05,00,8A,B1,00,00,
31970485,00000014,false,Rx,0,4,1E,09,1A,01,00,00,00,00,
32022278,00000011,false,Rx,0,8,F1,1F,00,00,6B,00,00,00,
32023843,00000012,false,Rx,0,8,25,08,0A,00,72,06,00,00,
32025463,00000013,false,Rx,0,8,6F,BD,05,00,E9,B0,00,00,
32026724,00000014,false,Rx,0,4,1E,09,19,01,00,00,00,00,
32078775,00000011,false,Rx,0,8,F1,1F,00,00,A6,00,00,00,
32080381,00000012,false,Rx,0,8,25,08,0A,00,09,0A,00,00,
32081961,00000013,false,Rx,0,8,6F,BD,05,00,8A,B1,00,00,
32083259,00000014,false,Rx,0,4,1E,09,1A,01,00,00,00,00,
32135255,00000011,false,Rx,0,8,F5,1F,00,00,A6,00,00,00,
32136852,00000012,false,Rx,0,8,65,09,0A,00,09,0A,00,00,
32138464,00000013,false,Rx,0,8,11,BE,05,00,8A,B1,00,00,
32139714,00000014,false,Rx,0,4,1F,09,1A,01,00,00,00,00,
32191788,00000011,false,Rx,0,8,ED,1F,00,00,A6,00,00,00,
32193392,00000012,false,Rx,0,8,E5,06,0A,00,09,0A,00,00,
32194961,00000013,false,Rx,0,8,CE,BC,05,00,8A,B1,00,00,
32196260,00000014,false,Rx,0,4,1D,09,1A,01,00,00,00,00,
32248241,00000011,false,Rx,0,8,E5,1F,00,00,6B,00,00,00,
32249921,00000012,false,Rx,0,8,65,04,0A,00,72,06,00,00,
32251457,00000013,false,Rx,0,8,8C,BB,05,00,E9,B0,00,00,
32252754,00000014,false,Rx,0,4,1B,09,19,01,00,00,00,00,
32304792,00000011,false,Rx,0,8,DB,14,00,00,49,63,00,00,
32306380,00000012,false,Rx,0,8,04,8D,06,00,00,F9,05,00,
32307981,00000013,false,Rx,0,8,8C,FC,03,00,DA,BB,01,00,
32309285,00000014,false,Rx,0,4,55,06,C1,02,00,00,00,00,
32361317,00000011,false,Rx,0,8,F6,1B,00,00,F1,A2,00,00,
32362910,00000012,false,Rx,0,8,30,C8,08,00,53,CD,09,00,
32364482,00000013,false,Rx,0,8,43,1C,05,00,BA,67,02,00,
32365783,00000014,false,Rx,0,4,1E,08,D2,03,00,00,00,00,
32417803,00000011,false,Rx,0,8,4A,1F,00,00,29,B8,00,00,
32419374,00000012,false,Rx,0,8,A7,D3,09,00,19,14,0B,00,
32420959,00000013,false,Rx,0,8,FE,A2,05,00,05,A1,02,00,
32422266,00000014,false,Rx,0,4,F4,08,2D,04,00,00,00,00,
32474236,00000011,false,Rx,0,8,F5,1F,00,00,54,B9,00,00,
32475826,00000012,false,Rx,0,8,65,09,0A,00,0E,26,0B,00,
32477459,00000013,false,Rx,0,8,11,BE,05,00,2A,A4,02,00,
32478733,00000014,false,Rx,0,4,1F,09,32,04,00,00,00,00,
32530747,00000011,false,Rx,0,8,11,20,00,00,A0,B8,00,00,
32532355,00000012,false,Rx,0,8,25,12,0A,00,48,1B,0B,00,
32533914,00000013,false,Rx,0,8,79,C2,05,00,47,A2,02,00,
32535255,00000014,false,Rx,0,4,26,09,2F,04,00,00,00,00,
32587279,00000011,false,Rx,0,8,0D,20,00,00,29,B8,00,00,
32588796,00000012,false,Rx,0,8,E4,10,0A,00,19,14,0B,00,
32590415,00000013,false,Rx,0,8,D8,C1,05,00,05,A1,02,00,
32591693,00000014,false,Rx,0,4,25,09,2D,04,00,00,00,00,
32643693,00000011,false,Rx,0,8,09,20,00,00,B2,B7,00,00,
32645289,00000012,false,Rx,0,8,A5,0F,0A,00,EB,0C,0B,00,
32647072,00000013,false,Rx,0,8,36,C1,05,00,C2,9F,02,00,
32648344,00000014,false,Rx,0,4,24,09,2B,04,00,00,00,00,
32700166,00000011,false,Rx,0,8,FD,1F,00,00,76,B7,00,00,
32701772,00000012,false,Rx,0,8,E5,0B,0A,00,53,09,0B,00,
32703351,00000013,false,Rx,0,8,53,BF,05,00,21,9F,02,00,
32704609,00000014,false,Rx,0,4,21,09,2A,04,00,00,00,00,
32756599,00000011,false,Rx,0,8,F5,1F,00,00,3A,B7,00,00,
32758245,00000012,false,Rx,0,8,65,09,0A,00,BC,05,0B,00,
32759794,00000013,false,Rx,0,8,11,BE,05,00,80,9E,02,00,
32761091,00000014,false,Rx,0,4,1F,09,29,04,00,00,00,00,
32813252,00000011,false,Rx,0,8,E5,1F,00,00,FF,B6,00,00,
32814815,00000012,false,Rx,0,8,65,04,0A,00,25,02,0B,00,
32816402,00000013,false,Rx,0,8,8C,BB,05,00,DF,9D,02,00,
32817691,00000014,false,Rx,0,4,1B,09,28,04,00,00,00,00,
32869754,00000011,false,Rx,0,8,DD,1F,00,00,C3,B6,00,00,
32871337,00000012,false,Rx,0,8,E5,01,0A,00,8E,FE,0A,00,
32872912,00000013,false,Rx,0,8,49,BA,05,00,3E,9D,02,00,
32874177,00000014,false,Rx,0,4,19,09,27,04,00,00,00,00,
32926222,00000011,false,Rx,0,8,D5,1F,00,00,87,B6,00,00,
32927812,00000012,false,Rx,0,8,65,FF,09,00,F6,FA,0A,00,
32929385,00000013,false,Rx,0,8,07,B9,05,00,9C,9C,02,00,
32930648,00000014,false,Rx,0,4,17,09,26,04,00,00,00,00,
32982737,00000011,false,Rx,0,8,CD,1F,00,00,10,B6,00,00,
32984324,00000012,false,Rx,0,8,E5,FC,09,00,C8,F3,0A,00,
32985883,00000013,false,Rx,0,8,C5,B7,05,00,5A,9B,02,00,
32987199,00000014,false,Rx,0,4,15,09,24,04,00,00,00,00,
33039145,00000011,false,Rx,0,8,CD,1F,00,00,4C,B6,00,00,
33040770,00000012,false,Rx,0,8,E5,FC,09,00,5F,F7,0A,00,
33042341,00000013,false,Rx,0,8,C5,B7,05,00,FB,9B,02,00,
33043612,00000014,false,Rx,0,4,15,09,25,04,00,00,00,00,
33095722,00000011,false,Rx,0,8,C5,1F,00,00,10,B6,00,00,
33097291,00000012,false,Rx,0,8,65,FA,09,00,C8,F3,0A,00,
33098874,00000013,false,Rx,0,8,82,B6,05,00,5A,9B,02,00,
33100132,00000014,false,Rx,0,4,13,09,24,04,00,00,00,00,
33152197,00000011,false,Rx,0,8,C1,1F,00,00,D4,B5,00,00,
33153787,00000012,false,Rx,0,8,25,F9,09,00,31,F0,0A,00,
33155374,00000013,false,Rx,0,8,E1,B5,05,00,B9,9A,02,00,
33156632,00000014,false,Rx,0,4,12,09,23,04,00,00,00,00,
33208653,00000011,false,Rx,0,8,BD,1F,00,00,D4,B5,00,00,
33210267,00000012,false,Rx,0,8,E5,F7,09,00,31,F0,0A,00,
33211817,00000013,false,Rx,0,8,40,B5,05,00,B9,9A,02,00,
33213123,00000014,false,Rx,0,4,11,09,23,04,00,00,00,00,
33265228,00000011,false,Rx,0,8,BD,1F,00,00,98,B5,00,00,
33266742,00000012,false,Rx,0,8,E5,F7,09,00,99,EC,0A,00,
33268411,00000013,false,Rx,0,8,40,B5,05,00,18,9A,02,00,
33269670,00000014,false,Rx,0,4,11,09,22,04,00,00,00,00,
33321642,00000011,false,Rx,0,8,BD,1F,00,00,98,B5,00,00,
33323276,00000012,false,Rx,0,8,E5,F7,09,00,99,EC,0A,00,
33324812,00000013,false,Rx,0,8,40,B5,05,00,18,9A,02,00,
33326114,00000014,false,Rx,0,4,11,09,22,04,00,00,00,00,
33378090,00000011,false,Rx,0,8,C1,1F,00,00,5D,B5,00,00,
33379679,00000012,false,Rx,0,8,25,F9,09,00,02,E9,0A,00,
33381253,00000013,false,Rx,0,8,E1,B5,05,00,76,99,02,00,
33382552,00000014,false,Rx,0,4,12,09,21,04,00,00,00,00,
33434600,00000011,false,Rx,0,8,BD,1F,00,00,5D,B5,00,00,
33436184,00000012,false,Rx,0,8,E5,F7,09,00,02,E9,0A,00,
33437743,00000013,false,Rx,0,8,40,B5,05,00,76,99,02,00,
33438990,00000014,false,Rx,0,4,11,09,21,04,00,00,00,00,
33491008,00000011,false,Rx,0,8,B9,1F,00,00,5D,B5,00,00,
33492602,00000012,false,Rx,0,8,A5,F6,09,00,02,E9,0A,00,
33494219,00000013,false,Rx,0,8,9F,B4,05,00,76,99,02,00,
33495469,00000014,false,Rx,0,4,10,09,21,04,00,00,00,00,
33547488,00000011,false,Rx,0,8,BD,1F,00,00,21,B5,00,00,
33549104,00000012,false,Rx,0,8,E5,F7,09,00,6B,E5,0A,00,
33550720,00000013,false,Rx,0,8,40,B5,05,00,D5,98,02,00,
33552013,00000014,false,Rx,0,4,11,09,20,04,00,00,00,00,
33604008,00000011,false,Rx,0,8,B5,1F,00,00,21,B5,00,00,
33605593,00000012,false,Rx,0,8,65,F5,09,00,6B,E5,0A,00,
33607173,00000013,false,Rx,0,8,FE,B3,05,00,D5,98,02,00,
33608471,00000014,false,Rx,0,4,0F,09,20,04,00,00,00,00,
33660473,00000011,false,Rx,0,8,B9,1F,00,00,21,B5,00,00,
33662102,00000012,false,Rx,0,8,A5,F6,09,00,6B,E5,0A,00,
33663640,00000013,false,Rx,0,8,9F,B4,05,00,D5,98,02,00,
33664971,00000014,false,Rx,0,4,10,09,20,04,00,00,00,00,
33716996,00000011,false,Rx,0,8,B5,1F,00,00,21,B5,00,00,
33718603,00000012,false,Rx,0,8,65,F5,09,00,6B,E5,0A,00,
33720177,00000013,false,Rx,0,8,FE,B3,05,00,D5,98,02,00,
33721471,00000014,false,Rx,0,4,0F,09,20,04,00,00,00,00,
33773422,00000011,false,Rx,0,8,BD,1F,00,00,AA,B4,00,00,
33775072,00000012,false,Rx,0,8,E5,F7,09,00,3C,DE,0A,00,
33776644,00000013,false,Rx,0,8,40,B5,05,00,93,97,02,00,
33777946,00000014,false,Rx,0,4,11,09,1E,04,00,00,00,00,
33829974,00000011,false,Rx,0,8,BD,1F,00,00,E5,B4,00,00,
33831565,00000012,false,Rx,0,8,E5,F7,09,00,D3,E1,0A,00,
33833141,00000013,false,Rx,0,8,40,B5,05,00,34,98,02,00,
33834441,00000014,false,Rx,0,4,11,09,1F,04,00,00,00,00,
33886438,00000011,false,Rx,0,8,B9,1F,00,00,AA,B4,00,00,
33888051,00000012,false,Rx,0,8,A5,F6,09,00,3C,DE,0A,00,
33889595,00000013,false,Rx,0,8,9F,B4,05,00,93,97,02,00,
33890906,00000014,false,Rx,0,4,10,09,1E,04,00,00,00,00,
33942899,00000011,false,Rx,0,8,BD,1F,00,00,AA,B4,00,00,
33944493,00000012,false,Rx,0,8,E5,F7,09,00,3C,DE,0A,00,
33946319,00000013,false,Rx,0,8,40,B5,05,00,93,97,02,00,
33947624,00000014,false,Rx,0,4,11,09,1E,04,00,00,00,00,
33999367,00000011,false,Rx,0,8,BD,1F,00,00,AA,B4,00,00,
34000991,00000012,false,Rx,0,8,E5,F7,09,00,3C,DE,0A,00,
34002534,00000013,false,Rx,0,8,40,B5,05,00,93,97,02,00,
34003867,00000014,false,Rx,0,4,11,09,1E,04,00,00,00,00,
34055839,00000011,false,Rx,0,8,BD,1F,00,00,6E,B4,00,00,
34057454,00000012,false,Rx,0,8,E5,F7,09,00,A5,DA,0A,00,
34059038,00000013,false,Rx,0,8,40,B5,05,00,F2,96,02,00,
34060335,00000014,false,Rx,0,4,11,09,1D,04,00,00,00,00,
34112350,00000011,false,Rx,0,8,BD,1F,00,00,6E,B4,00,00,
34113941,00000012,false,Rx,0,8,E5,F7,09,00,A5,DA,0A,00,
34115515,00000013,false,Rx,0,8,40,B5,05,00,F2,96,02,00,
34116816,00000014,false,Rx,0,4,11,09,1D,04,00,00,00,00,
34169052,00000011,false,Rx,0,8,C1,1F,00,00,6E,B4,00,00,
34170453,00000012,false,Rx,0,8,25,F9,09,00,A5,DA,0A,00,
34171950,00000013,false,Rx,0,8,E1,B5,05,00,F2,96,02,00,
34173251,00000014,false,Rx,0,4,12,09,1D,04,00,00,00,00,
34225327,00000011,false,Rx,0,8,C1,1F,00,00,6E,B4,00,00,
34226949,00000012,false,Rx,0,8,25,F9,09,00,A5,DA,0A,00,
34228517,00000013,false,Rx,0,8,E1,B5,05,00,F2,96,02,00,
34229817,00000014,false,Rx,0,4,12,09,1D,04,00,00,00,00,
34281822,00000011,false,Rx,0,8,BD,1F,00,00,6E,B4,00,00,
34283453,00000012,false,Rx,0,8,E5,F7,09,00,A5,DA,0A,00,
34285018,00000013,false,Rx,0,8,40,B5,05,00,F2,96,02,00,
34286317,00000014,false,Rx,0,4,11,09,1D,04,00,00,00,00,
34338379,00000011,false,Rx,0,8,C5,1F,00,00,32,B4,00,00,
34339996,00000012,false,Rx,0,8,65,FA,09,00,0D,D7,0A,00,
34341532,00000013,false,Rx,0,8,82,B6,05,00,51,96,02,00,
34342853,00000014,false,Rx,0,4,13,09,1C,04,00,00,00,00,
34394904,00000011,false,Rx,0,8,C5,1F,00,00,32,B4,00,00,
34396498,00000012,false,Rx,0,8,65,FA,09,00,0D,D7,0A,00,
34398070,00000013,false,Rx,0,8,82,B6,05,00,51,96,02,00,
34399368,00000014,false,Rx,0,4,13,09,1C,04,00,00,00,00,
34451412,00000011,false,Rx,0,8,C5,1F,00,00,32,B4,00,00,
34453028,00000012,false,Rx,0,8,65,FA,09,00,0D,D7,0A,00,
34454591,00000013,false,Rx,0,8,82,B6,05,00,51,96,02,00,
34455892,00000014,false,Rx,0,4,13,09,1C,04,00,00,00,00,
34507863,00000011,false,Rx,0,8,C5,1F,00,00,32,B4,00,00,
34509481,00000012,false,Rx,0,8,65,FA,09,00,0D,D7,0A,00,
34511106,00000013,false,Rx,0,8,82,B6,05,00,51,96,02,00,
34512368,00000014,false,Rx,0,4,13,09,1C,04,00,00,00,00,
34564391,00000011,false,Rx,0,8,C9,1F,00,00,32,B4,00,00,
34565982,00000012,false,Rx,0,8,A5,FB,09,00,0D,D7,0A,00,
34567568,00000013,false,Rx,0,8,24,B7,05,00,51,96,02,00,
34568855,00000014,false,Rx,0,4,14,09,1C,04,00,00,00,00,
34620907,00000011,false,Rx,0,8,C9,1F,00,00,32,B4,00,00,
34622523,00000012,false,Rx,0,8,A5,FB,09,00,0D,D7,0A,00,
34624055,00000013,false,Rx,0,8,24,B7,05,00,51,96,02,00,
34625354,00000014,false,Rx,0,4,14,09,1C,04,00,00,00,00,
34677428,00000011,false,Rx,0,8,C9,1F,00,00,32,B4,00,00,
34679019,00000012,false,Rx,0,8,A5,FB,09,00,0D,D7,0A,00,
34680604,00000013,false,Rx,0,8,24,B7,05,00,51,96,02,00,
34681896,00000014,false,Rx,0,4,14,09,1C,04,00,00,00,00,
34733935,00000011,false,Rx,0,8,CD,1F,00,00,F7,B3,00,00,
34735574,00000012,false,Rx,0,8,E5,FC,09,00,76,D3,0A,00,
34737104,00000013,false,Rx,0,8,C5,B7,05,00,AF,95,02,00,
34738408,00000014,false,Rx,0,4,15,09,1B,04,00,00,00,00,
34790461,00000011,false,Rx,0,8,CD,1F,00,00,F7,B3,00,00,
34792055,00000012,false,Rx,0,8,E5,FC,09,00,76,D3,0A,00,
34793600,00000013,false,Rx,0,8,C5,B7,05,00,AF,95,02,00,
34794928,00000014,false,Rx,0,4,15,09,1B,04,00,00,00,00,
34846936,00000011,false,Rx,0,8,CD,1F,00,00,F7,B3,00,00,
34848567,00000012,false,Rx,0,8,E5,FC,09,00,76,D3,0A,00,
34850103,00000013,false,Rx,0,8,C5,B7,05,00,AF,95,02,00,
34851416,00000014,false,Rx,0,4,15,09,1B,04,00,00,00,00,
34903464,00000011,false,Rx,0,8,FF,1D,00,00,F7,B3,00,00,
34905060,00000012,false,Rx,0,8,EA,6B,09,00,76,D3,0A,00,
34906602,00000013,false,Rx,0,8,BD,6E,05,00,AF,95,02,00,
34907903,00000014,false,Rx,0,4,A1,08,1B,04,00,00,00,00,
34959970,00000011,false,Rx,0,8,5B,1E,00,00,49,90,00,00,
34961592,00000012,false,Rx,0,8,A9,88,09,00,0D,AE,08,00,
34963163,00000013,false,Rx,0,8,38,7D,05,00,5C,35,02,00,
34964434,00000014,false,Rx,0,4,B8,08,82,03,00,00,00,00,
35016474,00000011,false,Rx,0,8,BE,1E,00,00,6A,68,00,00,
35018096,00000012,false,Rx,0,8,E8,A7,09,00,00,48,06,00,
35019663,00000013,false,Rx,0,8,F5,8C,05,00,B4,C9,01,00,
35020972,00000014,false,Rx,0,4,D1,08,D7,02,00,00,00,00,
35073007,00000011,false,Rx,0,8,06,1F,00,00,09,4B,00,00,
35074590,00000012,false,Rx,0,8,67,BE,09,00,8B,83,04,00,
35076185,00000013,false,Rx,0,8,4A,98,05,00,60,7A,01,00,
35077483,00000014,false,Rx,0,4,E3,08,59,02,00,00,00,00,
35129512,00000011,false,Rx,0,8,42,1F,00,00,6A,34,00,00,
35131130,00000012,false,Rx,0,8,27,D1,09,00,39,27,03,00,
35132884,00000013,false,Rx,0,8,BC,A1,05,00,4E,3D,01,00,
35134002,00000014,false,Rx,0,4,F2,08,F8,01,00,00,00,00,
35186056,00000011,false,Rx,0,8,6D,1F,00,00,ED,22,00,00,
35187671,00000012,false,Rx,0,8,E6,DE,09,00,E7,19,02,00,
35189274,00000013,false,Rx,0,8,A9,A8,05,00,16,0E,01,00,
35190510,00000014,false,Rx,0,4,FD,08,AD,01,00,00,00,00,
35242556,00000011,false,Rx,0,8,91,1F,00,00,92,16,00,00,
35244199,00000012,false,Rx,0,8,26,EA,09,00,95,5B,01,00,
35245753,00000013,false,Rx,0,8,53,AE,05,00,B8,EC,00,00,
35247068,00000014,false,Rx,0,4,06,09,78,01,00,00,00,00,
35299066,00000011,false,Rx,0,8,A9,1F,00,00,02,0D,00,00,
35300688,00000012,false,Rx,0,8,A6,F1,09,00,5B,C8,00,00,
35302266,00000013,false,Rx,0,8,1A,B2,05,00,E8,D2,00,00,
35303563,00000014,false,Rx,0,4,0C,09,4F,01,00,00,00,00,
35355574,00000011,false,Rx,0,8,C1,1F,00,00,03,06,00,00,
35357133,00000012,false,Rx,0,8,25,F9,09,00,A1,5C,00,00,
35358705,00000013,false,Rx,0,8,E1,B5,05,00,05,C0,00,00,
35360056,00000014,false,Rx,0,4,12,09,31,01,00,00,00,00,
35412031,00000011,false,Rx,0,8,D1,1F,00,00,84,02,00,00,
35413626,00000012,false,Rx,0,8,25,FE,09,00,C4,26,00,00,
35415205,00000013,false,Rx,0,8,66,B8,05,00,93,B6,00,00,
35416498,00000014,false,Rx,0,4,16,09,22,01,00,00,00,00,
35468517,00000011,false,Rx,0,8,E1,1F,00,00,1E,01,00,00,
35470133,00000012,false,Rx,0,8,25,03,0A,00,38,11,00,00,
35471638,00000013,false,Rx,0,8,EB,BA,05,00,CC,B2,00,00,
35472970,00000014,false,Rx,0,4,1A,09,1C,01,00,00,00,00,
35524965,00000011,false,Rx,0,8,ED,1F,00,00,E2,00,00,00,
35526581,00000012,false,Rx,0,8,E5,06,0A,00,A1,0D,00,00,
35528156,00000013,false,Rx,0,8,CE,BC,05,00,2B,B2,00,00,
35529431,00000014,false,Rx,0,4,1D,09,1B,01,00,00,00,00,
35581494,00000011,false,Rx,0,8,F1,1F,00,00,A6,00,00,00,
35583069,00000012,false,Rx,0,8,25,08,0A,00,09,0A,00,00,
35584644,00000013,false,Rx,0,8,6F,BD,05,00,8A,B1,00,00,
35585929,00000014,false,Rx,0,4,1E,09,1A,01,00,00,00,00,
35637946,00000011,false,Rx,0,8,F5,1F,00,00,A6,00,00,00,
35639590,00000012,false,Rx,0,8,65,09,0A,00,09,0A,00,00,
35641144,00000013,false,Rx,0,8,11,BE,05,00,8A,B1,00,00,
35642449,00000014,false,Rx,0,4,1F,09,1A,01,00,00,00,00,
35694483,00000011,false,Rx,0,8,F9,1F,00,00,A6,00,00,00,
35696098,00000012,false,Rx,0,8,A5,0A,0A,00,09,0A,00,00,
35697658,00000013,false,Rx,0,8,B2,BE,05,00,8A,B1,00,00,
35698948,00000014,false,Rx,0,4,20,09,1A,01,00,00,00,00,
35750997,00000011,false,Rx,0,8,F9,1F,00,00,A6,00,00,00,
35752570,00000012,false,Rx,0,8,A5,0A,0A,00,09,0A,00,00,
35754106,00000013,false,Rx,0,8,B2,BE,05,00,8A,B1,00,00,
35755410,00000014,false,Rx,0,4,20,09,1A,01,00,00,00,00,
35807486,00000011,false,Rx,0,8,FD,1F,00,00,A6,00,00,00,
35809049,00000012,false,Rx,0,8,E5,0B,0A,00,09,0A,00,00,
35810653,00000013,false,Rx,0,8,53,BF,05,00,8A,B1,00,00,
35811953,00000014,false,Rx,0,4,21,09,1A,01,00,00,00,00,
35863960,00000011,false,Rx,0,8,FD,1F,00,00,A6,00,00,00,
35865578,00000012,false,Rx,0,8,E5,0B,0A,00,09,0A,00,00,
35867086,00000013,false,Rx,0,8,53,BF,05,00,8A,B1,00,00,
35868416,00000014,false,Rx,0,4,21,09,1A,01,00,00,00,00,
35920462,00000011,false,Rx,0,8,FD,1F,00,00,6B,00,00,00,
35922050,00000012,false,Rx,0,8,E5,0B,0A,00,72,06,00,00,
35923591,00000013,false,Rx,0,8,53,BF,05,00,E9,B0,00,00,
35924887,00000014,false,Rx,0,4,21,09,19,01,00,00,00,00,
35976942,00000011,false,Rx,0,8,FD,1F,00,00,6B,00,00,00,
35978539,00000012,false,Rx,0,8,E5,0B,0A,00,72,06,00,00,
35980109,00000013,false,Rx,0,8,53,BF,05,00,E9,B0,00,00,
35981481,00000014,false,Rx,0,4,21,09,19,01,00,00,00,00,
36033436,00000011,false,Rx,0,8,FD,1F,00,00,6B,00,00,00,
36035054,00000012,false,Rx,0,8,E5,0B,0A,00,72,06,00,00,
36036606,00000013,false,Rx,0,8,53,BF,05,00,E9,B0,00,00,
36037865,00000014,false,Rx,0,4,21,09,19,01,00,00,00,00,
36089862,00000011,false,Rx,0,8,FD,1F,00,00,6B,00,00,00,
36091482,00000012,false,Rx,0,8,E5,0B,0A,00,72,06,00,00,
36093054,00000013,false,Rx,0,8,53,BF,05,00,E9,B0,00,00,
36094360,00000014,false,Rx,0,4,21,09,19,01,00,00,00,00,
36146393,00000011,false,Rx,0,8,F9,1F,00,00,A6,00,00,00,
36147991,00000012,false,Rx,0,8,A5,0A,0A,00,09,0A,00,00,
36149603,00000013,false,Rx,0,8,B2,BE,05,00,8A,B1,00,00,
36151039,00000014,false,Rx,0,4,20,09,1A,01,00,00,00,00,
36203133,00000011,false,Rx,0,8,F9,1F,00,00,A6,00,00,00,
36204497,00000012,false,Rx,0,8,A5,0A,0A,00,09,0A,00,00,
36206017,00000013,false,Rx,0,8,B2,BE,05,00,8A,B1,00,00,
36207285,00000014,false,Rx,0,4,20,09,1A,01,00,00,00,00,
36259329,00000011,false,Rx,0,8,F9,1F,00,00,6B,00,00,00,
36260916,00000012,false,Rx,0,8,A5,0A,0A,00,72,06,00,00,
36262518,00000013,false,Rx,0,8,B2,BE,05,00,E9,B0,00,00,
36263789,00000014,false,Rx,0,4,20,09,19,01,00,00,00,00,
36315822,00000011,false,Rx,0,8,F9,1F,00,00,A6,00,00,00,
36317409,00000012,false,Rx,0,8,A5,0A,0A,00,09,0A,00,00,
36318980,00000013,false,Rx,0,8,B2,BE,05,00,8A,B1,00,00,
36320315,00000014,false,Rx,0,4,20,09,1A,01,00,00,00,00,
36372261,00000011,false,Rx,0,8,F9,1F,00,00,A6,00,00,00,
36373916,00000012,false,Rx,0,8,A5,0A,0A,00,09,0A,00,00,
36375461,00000013,false,Rx,0,8,B2,BE,05,00,8A,B1,00,00,
36376757,00000014,false,Rx,0,4,20,09,1A,01,00,00,00,00,
36428736,00000011,false,Rx,0,8,FD,1F,00,00,6B,00,00,00,
36430389,00000012,false,Rx,0,8,E5,0B,0A,00,72,06,00,00,
36431960,00000013,false,Rx,0,8,53,BF,05,00,E9,B0,00,00,
36433468,00000014,false,Rx,0,4,21,09,19,01,00,00,00,00,
36485468,00000011,false,Rx,0,8,F9,1F,00,00,6B,00,00,00,
36486812,00000012,false,Rx,0,8,A5,0A,0A,00,72,06,00,00,
36488414,00000013,false,Rx,0,8,B2,BE,05,00,E9,B0,00,00,
36489720,00000014,false,Rx,0,4,20,09,19,01,00,00,00,00,
36541714,00000011,false,Rx,0,8,F9,1F,00,00,6B,00,00,00,
36543327,00000012,false,Rx,0,8,A5,0A,0A,00,72,06,00,00,
36544902,00000013,false,Rx,0,8,B2,BE,05,00,E9,B0,00,00,
36546181,00000014,false,Rx,0,4,20,09,19,01,00,00,00,00,
36598168,00000011,false,Rx,0,8,F9,1F,00,00,A6,00,00,00,
36599786,00000012,false,Rx,0,8,A5,0A,0A,00,09,0A,00,00,
36601390,00000013,false,Rx,0,8,B2,BE,05,00,8A,B1,00,00,
36602653,00000014,false,Rx,0,4,20,09,1A,01,00,00,00,00,
