Time Stamp,ID,Extended,Dir,Bus,LEN,D1,D2,D3,D4,D5,D6,D7,D8
16850306,00000011,false,Rx,0,8,27,0F,00,00,59,01,00,00,
16851894,00000012,false,Rx,0,8,54,C2,04,00,CF,14,00,00,
16853481,00000013,false,Rx,0,8,7D,15,03,00,6E,B3,00,00,
16854819,00000014,false,Rx,0,4,E6,04,1D,01,00,00,00,00,
16906807,00000011,false,Rx,0,8,27,0F,00,00,95,01,00,00,
16908384,00000012,false,Rx,0,8,54,C2,04,00,66,18,00,00,
16909958,00000013,false,Rx,0,8,7D,15,03,00,0F,B4,00,00,
16911227,00000014,false,Rx,0,4,E6,04,1E,01,00,00,00,00,
16963254,00000011,false,Rx,0,8,2B,0F,00,00,95,01,00,00,
16964845,00000012,false,Rx,0,8,94,C3,04,00,66,18,00,00,
16966423,00000013,false,Rx,0,8,1F,16,03,00,0F,B4,00,00,
16967722,00000014,false,Rx,0,4,E7,04,1E,01,00,00,00,00,
17019735,00000011,false,Rx,0,8,27,0F,00,00,59,01,00,00,
17021297,00000012,false,Rx,0,8,54,C2,04,00,CF,14,00,00,
17022911,00000013,false,Rx,0,8,7D,15,03,00,6E,B3,00,00,
17024146,00000014,false,Rx,0,4,E6,04,1D,01,00,00,00,00,
17076128,00000011,false,Rx,0,8,27,0F,00,00,59,01,00,00,
17077743,00000012,false,Rx,0,8,54,C2,04,00,CF,14,00,00,
17079329,00000013,false,Rx,0,8,7D,15,03,00,6E,B3,00,00,
17080625,00000014,false,Rx,0,4,E6,04,1D,01,00,00,00,00,
17132601,00000011,false,Rx,0,8,27,0F,00,00,95,01,00,00,
17134234,00000012,false,Rx,0,8,54,C2,04,00,66,18,00,00,
17135806,00000013,false,Rx,0,8,7D,15,03,00,0F,B4,00,00,
17137247,00000014,false,Rx,0,4,E6,04,1E,01,00,00,00,00,
17189056,00000011,false,Rx,0,8,2B,0F,00,00,59,01,00,00,
17190656,00000012,false,Rx,0,8,94,C3,04,00,CF,14,00,00,
17192174,00000013,false,Rx,0,8,1F,16,03,00,6E,B3,00,00,
17193476,00000014,false,Rx,0,4,E7,04,1D,01,00,00,00,00,
17245511,00000011,false,Rx,0,8,27,0F,00,00,59,01,00,00,
17247096,00000012,false,Rx,0,8,54,C2,04,00,CF,14,00,00,
17248671,00000013,false,Rx,0,8,7D,15,03,00,6E,B3,00,00,
17249950,00000014,false,Rx,0,4,E6,04,1D,01,00,00,00,00,
17301873,00000011,false,Rx,0,8,23,0F,00,00,59,01,00,00,
17303538,00000012,false,Rx,0,8,14,C1,04,00,CF,14,00,00,
17305121,00000013,false,Rx,0,8,DC,14,03,00,6E,B3,00,00,
17306365,00000014,false,Rx,0,4,E5,04,1D,01,00,00,00,00,
17358369,00000011,false,Rx,0,8,23,0F,00,00,59,01,00,00,
17359922,00000012,false,Rx,0,8,14,C1,04,00,CF,14,00,00,
17361497,00000013,false,Rx,0,8,DC,14,03,00,6E,B3,00,00,
17362789,00000014,false,Rx,0,4,E5,04,1D,01,00,00,00,00,
17414748,00000011,false,Rx,0,8,23,0F,00,00,59,01,00,00,
17416483,00000012,false,Rx,0,8,14,C1,04,00,CF,14,00,00,
17418198,00000013,false,Rx,0,8,DC,14,03,00,6E,B3,00,00,
17419496,00000014,false,Rx,0,4,E5,04,1D,01,00,00,00,00,
17471225,00000011,false,Rx,0,8,23,0F,00,00,59,01,00,00,
17472806,00000012,false,Rx,0,8,14,C1,04,00,CF,14,00,00,
17474381,00000013,false,Rx,0,8,DC,14,03,00,6E,B3,00,00,
17475695,00000014,false,Rx,0,4,E5,04,1D,01,00,00,00,00,
17527625,00000011,false,Rx,0,8,23,0F,00,00,59,01,00,00,
17529272,00000012,false,Rx,0,8,14,C1,04,00,CF,14,00,00,
17530843,00000013,false,Rx,0,8,DC,14,03,00,6E,B3,00,00,
17532371,00000014,false,Rx,0,4,E5,04,1D,01,00,00,00,00,
17584139,00000011,false,Rx,0,8,23,0F,00,00,59,01,00,00,
17585666,00000012,false,Rx,0,8,14,C1,04,00,CF,14,00,00,
17587239,00000013,false,Rx,0,8,DC,14,03,00,6E,B3,00,00,
17588514,00000014,false,Rx,0,4,E5,04,1D,01,00,00,00,00,
17640507,00000011,false,Rx,0,8,23,0F,00,00,59,01,00,00,
17642096,00000012,false,Rx,0,8,14,C1,04,00,CF,14,00,00,
17643723,00000013,false,Rx,0,8,DC,14,03,00,6E,B3,00,00,
17644966,00000014,false,Rx,0,4,E5,04,1D,01,00,00,00,00,
17696984,00000011,false,Rx,0,8,23,0F,00,00,95,01,00,00,
17698591,00000012,false,Rx,0,8,14,C1,04,00,66,18,00,00,
17700168,00000013,false,Rx,0,8,DC,14,03,00,0F,B4,00,00,
17701440,00000014,false,Rx,0,4,E5,04,1E,01,00,00,00,00,
17753440,00000011,false,Rx,0,8,23,0F,00,00,59,01,00,00,
17755032,00000012,false,Rx,0,8,14,C1,04,00,CF,14,00,00,
17756617,00000013,false,Rx,0,8,DC,14,03,00,6E,B3,00,00,
17757893,00000014,false,Rx,0,4,E5,04,1D,01,00,00,00,00,
17809837,00000011,false,Rx,0,8,23,0F,00,00,59,01,00,00,
17811512,00000012,false,Rx,0,8,14,C1,04,00,CF,14,00,00,
17813045,00000013,false,Rx,0,8,DC,14,03,00,6E,B3,00,00,
17814319,00000014,false,Rx,0,4,E5,04,1D,01,00,00,00,00,
17866304,00000011,false,Rx,0,8,1B,0F,00,00,59,01,00,00,
17867895,00000012,false,Rx,0,8,94,BE,04,00,CF,14,00,00,
17869470,00000013,false,Rx,0,8,9A,13,03,00,6E,B3,00,00,
17870998,00000014,false,Rx,0,4,E3,04,1D,01,00,00,00,00,
17922974,00000011,false,Rx,0,8,23,0F,00,00,59,01,00,00,
17924331,00000012,false,Rx,0,8,14,C1,04,00,CF,14,00,00,
17925936,00000013,false,Rx,0,8,DC,14,03,00,6E,B3,00,00,
17927222,00000014,false,Rx,0,4,E5,04,1D,01,00,00,00,00,
17979180,00000011,false,Rx,0,8,23,0F,00,00,95,01,00,00,
17980810,00000012,false,Rx,0,8,14,C1,04,00,66,18,00,00,
17982742,00000013,false,Rx,0,8,DC,14,03,00,0F,B4,00,00,
17983775,00000014,false,Rx,0,4,E5,04,1E,01,00,00,00,00,
18035729,00000011,false,Rx,0,8,1F,0F,00,00,59,01,00,00,
18037397,00000012,false,Rx,0,8,D4,BF,04,00,CF,14,00,00,
18039047,00000013,false,Rx,0,8,3B,14,03,00,6E,B3,00,00,
18040231,00000014,false,Rx,0,4,E4,04,1D,01,00,00,00,00,
18092202,00000011,false,Rx,0,8,1F,0F,00,00,59,01,00,00,
18093832,00000012,false,Rx,0,8,D4,BF,04,00,CF,14,00,00,
18095375,00000013,false,Rx,0,8,3B,14,03,00,6E,B3,00,00,
18096674,00000014,false,Rx,0,4,E4,04,1D,01,00,00,00,00,
18148687,00000011,false,Rx,0,8,1F,0F,00,00,59,01,00,00,
18150250,00000012,false,Rx,0,8,D4,BF,04,00,CF,14,00,00,
18151857,00000013,false,Rx,0,8,3B,14,03,00,6E,B3,00,00,
18153148,00000014,false,Rx,0,4,E4,04,1D,01,00,00,00,00,
18205131,00000011,false,Rx,0,8,1F,0F,00,00,59,01,00,00,
18206728,00000012,false,Rx,0,8,D4,BF,04,00,CF,14,00,00,
18208280,00000013,false,Rx,0,8,3B,14,03,00,6E,B3,00,00,
18209581,00000014,false,Rx,0,4,E4,04,1D,01,00,00,00,00,
18261558,00000011,false,Rx,0,8,23,0F,00,00,59,01,00,00,
18263155,00000012,false,Rx,0,8,14,C1,04,00,CF,14,00,00,
18264695,00000013,false,Rx,0,8,DC,14,03,00,6E,B3,00,00,
18266030,00000014,false,Rx,0,4,E5,04,1D,01,00,00,00,00,
18318253,00000011,false,Rx,0,8,1F,0F,00,00,59,01,00,00,
18319693,00000012,false,Rx,0,8,D4,BF,04,00,CF,14,00,00,
18321201,00000013,false,Rx,0,8,3B,14,03,00,6E,B3,00,00,
18322748,00000014,false,Rx,0,4,E4,04,1D,01,00,00,00,00,
18374482,00000011,false,Rx,0,8,1F,0F,00,00,59,01,00,00,
18376083,00000012,false,Rx,0,8,D4,BF,04,00,CF,14,00,00,
18377632,00000013,false,Rx,0,8,3B,14,03,00,6E,B3,00,00,
18378928,00000014,false,Rx,0,4,E4,04,1D,01,00,00,00,00,
18430911,00000011,false,Rx,0,8,1B,0F,00,00,59,01,00,00,
18432529,00000012,false,Rx,0,8,94,BE,04,00,CF,14,00,00,
18434300,00000013,false,Rx,0,8,9A,13,03,00,6E,B3,00,00,
18435654,00000014,false,Rx,0,4,E3,04,1D,01,00,00,00,00,
18487639,00000011,false,Rx,0,8,1B,0F,00,00,59,01,00,00,
18489003,00000012,false,Rx,0,8,94,BE,04,00,CF,14,00,00,
18490533,00000013,false,Rx,0,8,9A,13,03,00,6E,B3,00,00,
18491802,00000014,false,Rx,0,4,E3,04,1D,01,00,00,00,00,
18543815,00000011,false,Rx,0,8,D2,09,00,00,1B,0F,00,00,
18545442,00000012,false,Rx,0,8,A3,15,03,00,AD,E8,00,00,
18547009,00000013,false,Rx,0,8,8B,3D,02,00,93,D8,00,00,
18548308,00000014,false,Rx,0,4,8F,03,58,01,00,00,00,00,
18600309,00000011,false,Rx,0,8,B5,0A,00,00,BF,36,00,00,
18601928,00000012,false,Rx,0,8,E0,5C,03,00,22,4B,03,00,
18603689,00000013,false,Rx,0,8,6E,61,02,00,9A,43,01,00,
18605004,00000014,false,Rx,0,4,C8,03,02,02,00,00,00,00,
18656735,00000011,false,Rx,0,8,5E,0C,00,00,C6,40,00,00,
18658329,00000012,false,Rx,0,8,9B,E2,03,00,8B,E5,03,00,
18659932,00000013,false,Rx,0,8,CC,A4,02,00,AC,5E,01,00,
18661206,00000014,false,Rx,0,4,33,04,2D,02,00,00,00,00,
18713185,00000011,false,Rx,0,8,BA,0C,00,00,4F,40,00,00,
18714806,00000012,false,Rx,0,8,5A,FF,03,00,5C,DE,03,00,
18716348,00000013,false,Rx,0,8,47,B3,02,00,6A,5D,01,00,
18717906,00000014,false,Rx,0,4,4A,04,2B,02,00,00,00,00,
18769636,00000011,false,Rx,0,8,BA,0C,00,00,13,40,00,00,
18771276,00000012,false,Rx,0,8,5A,FF,03,00,C5,DA,03,00,
18772800,00000013,false,Rx,0,8,47,B3,02,00,C9,5C,01,00,
18774080,00000014,false,Rx,0,4,4A,04,2A,02,00,00,00,00,
18826033,00000011,false,Rx,0,8,AA,0C,00,00,D7,3F,00,00,
18827627,00000012,false,Rx,0,8,5B,FA,03,00,2E,D7,03,00,
18829200,00000013,false,Rx,0,8,C2,B0,02,00,28,5C,01,00,
18830538,00000014,false,Rx,0,4,46,04,29,02,00,00,00,00,
18882516,00000011,false,Rx,0,8,A6,0C,00,00,9C,3F,00,00,
18884318,00000012,false,Rx,0,8,1B,F9,03,00,96,D3,03,00,
18885718,00000013,false,Rx,0,8,21,B0,02,00,87,5B,01,00,
18887012,00000014,false,Rx,0,4,45,04,28,02,00,00,00,00,
18939101,00000011,false,Rx,0,8,A2,0C,00,00,60,3F,00,00,
18940623,00000012,false,Rx,0,8,DB,F7,03,00,FF,CF,03,00,
18942183,00000013,false,Rx,0,8,7F,AF,02,00,E5,5A,01,00,
18943429,00000014,false,Rx,0,4,44,04,27,02,00,00,00,00,
18995514,00000011,false,Rx,0,8,9A,0C,00,00,60,3F,00,00,
18997056,00000012,false,Rx,0,8,5B,F5,03,00,FF,CF,03,00,
18998670,00000013,false,Rx,0,8,3D,AE,02,00,E5,5A,01,00,
18999956,00000014,false,Rx,0,4,42,04,27,02,00,00,00,00,
19051968,00000011,false,Rx,0,8,9A,0C,00,00,24,3F,00,00,
19053580,00000012,false,Rx,0,8,5B,F5,03,00,68,CC,03,00,
19055310,00000013,false,Rx,0,8,3D,AE,02,00,44,5A,01,00,
19056443,00000014,false,Rx,0,4,42,04,26,02,00,00,00,00,
19108454,00000011,false,Rx,0,8,96,0C,00,00,24,3F,00,00,
19110038,00000012,false,Rx,0,8,1B,F4,03,00,68,CC,03,00,
19111590,00000013,false,Rx,0,8,9C,AD,02,00,44,5A,01,00,
19112885,00000014,false,Rx,0,4,41,04,26,02,00,00,00,00,
19164890,00000011,false,Rx,0,8,92,0C,00,00,E9,3E,00,00,
19166510,00000012,false,Rx,0,8,DB,F2,03,00,D1,C8,03,00,
19168084,00000013,false,Rx,0,8,FB,AC,02,00,A3,59,01,00,
19169363,00000014,false,Rx,0,4,40,04,25,02,00,00,00,00,
19221396,00000011,false,Rx,0,8,96,0C,00,00,AD,3E,00,00,
19223016,00000012,false,Rx,0,8,1B,F4,03,00,39,C5,03,00,
19224506,00000013,false,Rx,0,8,9C,AD,02,00,02,59,01,00,
19225848,00000014,false,Rx,0,4,41,04,24,02,00,00,00,00,
19277792,00000011,false,Rx,0,8,8E,0C,00,00,AD,3E,00,00,
19279384,00000012,false,Rx,0,8,9B,F1,03,00,39,C5,03,00,
19280956,00000013,false,Rx,0,8,5A,AC,02,00,02,59,01,00,
19282304,00000014,false,Rx,0,4,3F,04,24,02,00,00,00,00,
19334286,00000011,false,Rx,0,8,92,0C,00,00,AD,3E,00,00,
19335872,00000012,false,Rx,0,8,DB,F2,03,00,39,C5,03,00,
19337476,00000013,false,Rx,0,8,FB,AC,02,00,02,59,01,00,
19338782,00000014,false,Rx,0,4,40,04,24,02,00,00,00,00,
19390683,00000011,false,Rx,0,8,92,0C,00,00,AD,3E,00,00,
19392290,00000012,false,Rx,0,8,DB,F2,03,00,39,C5,03,00,
19393911,00000013,false,Rx,0,8,FB,AC,02,00,02,59,01,00,
19395205,00000014,false,Rx,0,4,40,04,24,02,00,00,00,00,
19447161,00000011,false,Rx,0,8,8E,0C,00,00,AD,3E,00,00,
19448753,00000012,false,Rx,0,8,9B,F1,03,00,39,C5,03,00,
19450327,00000013,false,Rx,0,8,5A,AC,02,00,02,59,01,00,
19451621,00000014,false,Rx,0,4,3F,04,24,02,00,00,00,00,
19503593,00000011,false,Rx,0,8,8E,0C,00,00,AD,3E,00,00,
19505204,00000012,false,Rx,0,8,9B,F1,03,00,39,C5,03,00,
19506769,00000013,false,Rx,0,8,5A,AC,02,00,02,59,01,00,
19508036,00000014,false,Rx,0,4,3F,04,24,02,00,00,00,00,
19560044,00000011,false,Rx,0,8,8E,0C,00,00,AD,3E,00,00,
19561685,00000012,false,Rx,0,8,9B,F1,03,00,39,C5,03,00,
19563235,00000013,false,Rx,0,8,5A,AC,02,00,02,59,01,00,
19564531,00000014,false,Rx,0,4,3F,04,24,02,00,00,00,00,
19616455,00000011,false,Rx,0,8,8E,0C,00,00,71,3E,00,00,
19618065,00000012,false,Rx,0,8,9B,F1,03,00,A2,C1,03,00,
19619648,00000013,false,Rx,0,8,5A,AC,02,00,61,58,01,00,
19621077,00000014,false,Rx,0,4,3F,04,23,02,00,00,00,00,
19672925,00000011,false,Rx,0,8,8A,0C,00,00,AD,3E,00,00,
19674516,00000012,false,Rx,0,8,5B,F0,03,00,39,C5,03,00,
19676090,00000013,false,Rx,0,8,B8,AB,02,00,02,59,01,00,
19677389,00000014,false,Rx,0,4,3E,04,24,02,00,00,00,00,
19729367,00000011,false,Rx,0,8,8A,0C,00,00,35,3E,00,00,
19730995,00000012,false,Rx,0,8,5B,F0,03,00,0B,BE,03,00,
19732785,00000013,false,Rx,0,8,B8,AB,02,00,BF,57,01,00,
19734088,00000014,false,Rx,0,4,3E,04,22,02,00,00,00,00,
19785846,00000011,false,Rx,0,8,8E,0C,00,00,71,3E,00,00,
19787678,00000012,false,Rx,0,8,9B,F1,03,00,A2,C1,03,00,
19789241,00000013,false,Rx,0,8,5A,AC,02,00,61,58,01,00,
19790305,00000014,false,Rx,0,4,3F,04,23,02,00,00,00,00,
19842274,00000011,false,Rx,0,8,8A,0C,00,00,71,3E,00,00,
19843890,00000012,false,Rx,0,8,5B,F0,03,00,A2,C1,03,00,
19845513,00000013,false,Rx,0,8,B8,AB,02,00,61,58,01,00,
19846741,00000014,false,Rx,0,4,3E,04,23,02,00,00,00,00,
19898905,00000011,false,Rx,0,8,8A,0C,00,00,35,3E,00,00,
19900360,00000012,false,Rx,0,8,5B,F0,03,00,0B,BE,03,00,
19901935,00000013,false,Rx,0,8,B8,AB,02,00,BF,57,01,00,
19903363,00000014,false,Rx,0,4,3E,04,22,02,00,00,00,00,
19955442,00000011,false,Rx,0,8,8A,0C,00,00,71,3E,00,00,
19956789,00000012,false,Rx,0,8,5B,F0,03,00,A2,C1,03,00,
19958369,00000013,false,Rx,0,8,B8,AB,02,00,61,58,01,00,
19959685,00000014,false,Rx,0,4,3E,04,23,02,00,00,00,00,
20011619,00000011,false,Rx,0,8,8A,0C,00,00,35,3E,00,00,
20013274,00000012,false,Rx,0,8,5B,F0,03,00,0B,BE,03,00,
20014812,00000013,false,Rx,0,8,B8,AB,02,00,BF,57,01,00,
20016112,00000014,false,Rx,0,4,3E,04,22,02,00,00,00,00,
20068126,00000011,false,Rx,0,8,8A,0C,00,00,FA,3D,00,00,
20069763,00000012,false,Rx,0,8,5B,F0,03,00,73,BA,03,00,
20071455,00000013,false,Rx,0,8,B8,AB,02,00,1E,57,01,00,
20072744,00000014,false,Rx,0,4,3E,04,21,02,00,00,00,00,
20124574,00000011,false,Rx,0,8,86,0C,00,00,35,3E,00,00,
20126204,00000012,false,Rx,0,8,1B,EF,03,00,0B,BE,03,00,
20127777,00000013,false,Rx,0,8,17,AB,02,00,BF,57,01,00,
20129043,00000014,false,Rx,0,4,3D,04,22,02,00,00,00,00,
20180997,00000011,false,Rx,0,8,8A,0C,00,00,35,3E,00,00,
20182657,00000012,false,Rx,0,8,5B,F0,03,00,0B,BE,03,00,
20184239,00000013,false,Rx,0,8,B8,AB,02,00,BF,57,01,00,
20185519,00000014,false,Rx,0,4,3E,04,22,02,00,00,00,00,
20237551,00000011,false,Rx,0,8,8A,0C,00,00,35,3E,00,00,
20239349,00000012,false,Rx,0,8,5B,F0,03,00,0B,BE,03,00,
20240620,00000013,false,Rx,0,8,B8,AB,02,00,BF,57,01,00,
20241913,00000014,false,Rx,0,4,3E,04,22,02,00,00,00,00,
20293869,00000011,false,Rx,0,8,8A,0C,00,00,FA,3D,00,00,
20295489,00000012,false,Rx,0,8,5B,F0,03,00,73,BA,03,00,
20297036,00000013,false,Rx,0,8,B8,AB,02,00,1E,57,01,00,
20298381,00000014,false,Rx,0,4,3E,04,21,02,00,00,00,00,
20350338,00000011,false,Rx,0,8,5E,0C,00,00,35,3E,00,00,
20351938,00000012,false,Rx,0,8,9B,E2,03,00,0B,BE,03,00,
20353540,00000013,false,Rx,0,8,CC,A4,02,00,BF,57,01,00,
20354997,00000014,false,Rx,0,4,33,04,22,02,00,00,00,00,
20406733,00000011,false,Rx,0,8,8A,0C,00,00,35,3E,00,00,
20408375,00000012,false,Rx,0,8,5B,F0,03,00,0B,BE,03,00,
20409928,00000013,false,Rx,0,8,B8,AB,02,00,BF,57,01,00,
20411228,00000014,false,Rx,0,4,3E,04,22,02,00,00,00,00,
20463219,00000011,false,Rx,0,8,8A,0C,00,00,35,3E,00,00,
20464793,00000012,false,Rx,0,8,5B,F0,03,00,0B,BE,03,00,
20466372,00000013,false,Rx,0,8,B8,AB,02,00,BF,57,01,00,
20467697,00000014,false,Rx,0,4,3E,04,22,02,00,00,00,00,
20519667,00000011,false,Rx,0,8,8A,0C,00,00,FA,3D,00,00,
20521513,00000012,false,Rx,0,8,5B,F0,03,00,73,BA,03,00,
20522838,00000013,false,Rx,0,8,B8,AB,02,00,1E,57,01,00,
20524129,00000014,false,Rx,0,4,3E,04,21,02,00,00,00,00,
20576106,00000011,false,Rx,0,8,8E,0C,00,00,FA,3D,00,00,
20577709,00000012,false,Rx,0,8,9B,F1,03,00,73,BA,03,00,
20579280,00000013,false,Rx,0,8,5A,AC,02,00,1E,57,01,00,
20580571,00000014,false,Rx,0,4,3F,04,21,02,00,00,00,00,
20632531,00000011,false,Rx,0,8,8A,0C,00,00,35,3E,00,00,
20634156,00000012,false,Rx,0,8,5B,F0,03,00,0B,BE,03,00,
20635731,00000013,false,Rx,0,8,B8,AB,02,00,BF,57,01,00,
20637219,00000014,false,Rx,0,4,3E,04,22,02,00,00,00,00,
20689000,00000011,false,Rx,0,8,86,0C,00,00,FA,3D,00,00,
20690601,00000012,false,Rx,0,8,1B,EF,03,00,73,BA,03,00,
20692149,00000013,false,Rx,0,8,17,AB,02,00,1E,57,01,00,
20693467,00000014,false,Rx,0,4,3D,04,21,02,00,00,00,00,
20745439,00000011,false,Rx,0,8,86,0C,00,00,FA,3D,00,00,
20747031,00000012,false,Rx,0,8,1B,EF,03,00,73,BA,03,00,
20748570,00000013,false,Rx,0,8,17,AB,02,00,1E,57,01,00,
20749906,00000014,false,Rx,0,4,3D,04,21,02,00,00,00,00,
20801877,00000011,false,Rx,0,8,86,0C,00,00,FA,3D,00,00,
20803684,00000012,false,Rx,0,8,1B,EF,03,00,73,BA,03,00,
20805049,00000013,false,Rx,0,8,17,AB,02,00,1E,57,01,00,
20806330,00000014,false,Rx,0,4,3D,04,21,02,00,00,00,00,
20858347,00000011,false,Rx,0,8,8A,0C,00,00,FA,3D,00,00,
20859950,00000012,false,Rx,0,8,5B,F0,03,00,73,BA,03,00,
20861526,00000013,false,Rx,0,8,B8,AB,02,00,1E,57,01,00,
20862802,00000014,false,Rx,0,4,3E,04,21,02,00,00,00,00,
20914759,00000011,false,Rx,0,8,86,0C,00,00,BE,3D,00,00,
20916374,00000012,false,Rx,0,8,1B,EF,03,00,DC,B6,03,00,
20917969,00000013,false,Rx,0,8,17,AB,02,00,7D,56,01,00,
20919433,00000014,false,Rx,0,4,3D,04,20,02,00,00,00,00,
20971442,00000011,false,Rx,0,8,86,0C,00,00,BE,3D,00,00,
20972840,00000012,false,Rx,0,8,1B,EF,03,00,DC,B6,03,00,
20974377,00000013,false,Rx,0,8,17,AB,02,00,7D,56,01,00,
20975677,00000014,false,Rx,0,4,3D,04,20,02,00,00,00,00,
21027598,00000011,false,Rx,0,8,92,0C,00,00,BE,3D,00,00,
21029217,00000012,false,Rx,0,8,DB,F2,03,00,DC,B6,03,00,
21030835,00000013,false,Rx,0,8,FB,AC,02,00,7D,56,01,00,
21032136,00000014,false,Rx,0,4,40,04,20,02,00,00,00,00,
21084116,00000011,false,Rx,0,8,86,0C,00,00,BE,3D,00,00,
21085681,00000012,false,Rx,0,8,1B,EF,03,00,DC,B6,03,00,
21087258,00000013,false,Rx,0,8,17,AB,02,00,7D,56,01,00,
21088558,00000014,false,Rx,0,4,3D,04,20,02,00,00,00,00,
21140502,00000011,false,Rx,0,8,86,0C,00,00,FA,3D,00,00,
21142071,00000012,false,Rx,0,8,1B,EF,03,00,73,BA,03,00,
21143643,00000013,false,Rx,0,8,17,AB,02,00,1E,57,01,00,
21144942,00000014,false,Rx,0,4,3D,04,21,02,00,00,00,00,
21196919,00000011,false,Rx,0,8,86,0C,00,00,BE,3D,00,00,
21198534,00000012,false,Rx,0,8,1B,EF,03,00,DC,B6,03,00,
21200122,00000013,false,Rx,0,8,17,AB,02,00,7D,56,01,00,
21201397,00000014,false,Rx,0,4,3D,04,20,02,00,00,00,00,
21253379,00000011,false,Rx,0,8,8A,0C,00,00,BE,3D,00,00,
21255174,00000012,false,Rx,0,8,5B,F0,03,00,DC,B6,03,00,
21256543,00000013,false,Rx,0,8,B8,AB,02,00,7D,56,01,00,
21257795,00000014,false,Rx,0,4,3E,04,20,02,00,00,00,00,
21309776,00000011,false,Rx,0,8,86,0C,00,00,BE,3D,00,00,
21311369,00000012,false,Rx,0,8,1B,EF,03,00,DC,B6,03,00,
21312943,00000013,false,Rx,0,8,17,AB,02,00,7D,56,01,00,
21314288,00000014,false,Rx,0,4,3D,04,20,02,00,00,00,00,
21366282,00000011,false,Rx,0,8,86,0C,00,00,BE,3D,00,00,
21367863,00000012,false,Rx,0,8,1B,EF,03,00,DC,B6,03,00,
21369645,00000013,false,Rx,0,8,17,AB,02,00,7D,56,01,00,
21370968,00000014,false,Rx,0,4,3D,04,20,02,00,00,00,00,
21422696,00000011,false,Rx,0,8,86,0C,00,00,BE,3D,00,00,
21424246,00000012,false,Rx,0,8,1B,EF,03,00,DC,B6,03,00,
21425830,00000013,false,Rx,0,8,17,AB,02,00,7D,56,01,00,
21427122,00000014,false,Rx,0,4,3D,04,20,02,00,00,00,00,
21479079,00000011,false,Rx,0,8,86,0C,00,00,BE,3D,00,00,
21480701,00000012,false,Rx,0,8,1B,EF,03,00,DC,B6,03,00,
21482311,00000013,false,Rx,0,8,17,AB,02,00,7D,56,01,00,
21483631,00000014,false,Rx,0,4,3D,04,20,02,00,00,00,00,
21535626,00000011,false,Rx,0,8,86,0C,00,00,BE,3D,00,00,
21537198,00000012,false,Rx,0,8,1B,EF,03,00,DC,B6,03,00,
21538933,00000013,false,Rx,0,8,17,AB,02,00,7D,56,01,00,
21540026,00000014,false,Rx,0,4,3D,04,20,02,00,00,00,00,
21592004,00000011,false,Rx,0,8,86,0C,00,00,BE,3D,00,00,
21593598,00000012,false,Rx,0,8,1B,EF,03,00,DC,B6,03,00,
21595170,00000013,false,Rx,0,8,17,AB,02,00,7D,56,01,00,
21596495,00000014,false,Rx,0,4,3D,04,20,02,00,00,00,00,
21648549,00000011,false,Rx,0,8,86,0C,00,00,BE,3D,00,00,
21650316,00000012,false,Rx,0,8,1B,EF,03,00,DC,B6,03,00,
21651700,00000013,false,Rx,0,8,17,AB,02,00,7D,56,01,00,
21652977,00000014,false,Rx,0,4,3D,04,20,02,00,00,00,00,
21705083,00000011,false,Rx,0,8,86,0C,00,00,82,3D,00,00,
21706533,00000012,false,Rx,0,8,1B,EF,03,00,45,B3,03,00,
21708092,00000013,false,Rx,0,8,17,AB,02,00,DC,55,01,00,
21709380,00000014,false,Rx,0,4,3D,04,1F,02,00,00,00,00,
21761353,00000011,false,Rx,0,8,82,0C,00,00,BE,3D,00,00,
21762930,00000012,false,Rx,0,8,DB,ED,03,00,DC,B6,03,00,
21764528,00000013,false,Rx,0,8,76,AA,02,00,7D,56,01,00,
21765784,00000014,false,Rx,0,4,3C,04,20,02,00,00,00,00,
21817810,00000011,false,Rx,0,8,86,0C,00,00,BE,3D,00,00,
21819639,00000012,false,Rx,0,8,1B,EF,03,00,DC,B6,03,00,
21821196,00000013,false,Rx,0,8,17,AB,02,00,7D,56,01,00,
21822264,00000014,false,Rx,0,4,3D,04,20,02,00,00,00,00,
21874213,00000011,false,Rx,0,8,86,0C,00,00,FA,3D,00,00,
21875833,00000012,false,Rx,0,8,1B,EF,03,00,73,BA,03,00,
21877392,00000013,false,Rx,0,8,17,AB,02,00,1E,57,01,00,
21878688,00000014,false,Rx,0,4,3D,04,21,02,00,00,00,00,
21930648,00000011,false,Rx,0,8,86,0C,00,00,BE,3D,00,00,
21932263,00000012,false,Rx,0,8,1B,EF,03,00,DC,B6,03,00,
21934071,00000013,false,Rx,0,8,17,AB,02,00,7D,56,01,00,
21935371,00000014,false,Rx,0,4,3D,04,20,02,00,00,00,00,
21987184,00000011,false,Rx,0,8,86,0C,00,00,82,3D,00,00,
21988780,00000012,false,Rx,0,8,1B,EF,03,00,45,B3,03,00,
21990267,00000013,false,Rx,0,8,17,AB,02,00,DC,55,01,00,
21991528,00000014,false,Rx,0,4,3D,04,1F,02,00,00,00,00,
22043554,00000011,false,Rx,0,8,82,0C,00,00,BE,3D,00,00,
22045145,00000012,false,Rx,0,8,DB,ED,03,00,DC,B6,03,00,
22046655,00000013,false,Rx,0,8,76,AA,02,00,7D,56,01,00,
22047952,00000014,false,Rx,0,4,3C,04,20,02,00,00,00,00,
22099965,00000011,false,Rx,0,8,82,0C,00,00,BE,3D,00,00,
22101553,00000012,false,Rx,0,8,DB,ED,03,00,DC,B6,03,00,
22103208,00000013,false,Rx,0,8,76,AA,02,00,7D,56,01,00,
22104513,00000014,false,Rx,0,4,3C,04,20,02,00,00,00,00,
22156346,00000011,false,Rx,0,8,86,0C,00,00,47,3D,00,00,
22157965,00000012,false,Rx,0,8,1B,EF,03,00,AE,AF,03,00,
22159504,00000013,false,Rx,0,8,17,AB,02,00,3B,55,01,00,
22160817,00000014,false,Rx,0,4,3D,04,1E,02,00,00,00,00,
22212765,00000011,false,Rx,0,8,86,0C,00,00,82,3D,00,00,
22214357,00000012,false,Rx,0,8,1B,EF,03,00,45,B3,03,00,
22215939,00000013,false,Rx,0,8,17,AB,02,00,DC,55,01,00,
22217252,00000014,false,Rx,0,4,3D,04,1F,02,00,00,00,00,
22269208,00000011,false,Rx,0,8,82,0C,00,00,82,3D,00,00,
22271052,00000012,false,Rx,0,8,DB,ED,03,00,45,B3,03,00,
22272383,00000013,false,Rx,0,8,76,AA,02,00,DC,55,01,00,
22273648,00000014,false,Rx,0,4,3C,04,1F,02,00,00,00,00,
22325629,00000011,false,Rx,0,8,86,0C,00,00,0B,3D,00,00,
22327248,00000012,false,Rx,0,8,1B,EF,03,00,16,AC,03,00,
22328799,00000013,false,Rx,0,8,17,AB,02,00,9A,54,01,00,
22330359,00000014,false,Rx,0,4,3D,04,1D,02,00,00,00,00,
22382345,00000011,false,Rx,0,8,86,0C,00,00,47,3D,00,00,
22383705,00000012,false,Rx,0,8,1B,EF,03,00,AE,AF,03,00,
22385238,00000013,false,Rx,0,8,17,AB,02,00,3B,55,01,00,
22386529,00000014,false,Rx,0,4,3D,04,1E,02,00,00,00,00,
22438644,00000011,false,Rx,0,8,86,0C,00,00,BE,3D,00,00,
22440155,00000012,false,Rx,0,8,1B,EF,03,00,DC,B6,03,00,
22441676,00000013,false,Rx,0,8,17,AB,02,00,7D,56,01,00,
22443000,00000014,false,Rx,0,4,3D,04,20,02,00,00,00,00,
22494982,00000011,false,Rx,0,8,86,0C,00,00,47,3D,00,00,
22496551,00000012,false,Rx,0,8,1B,EF,03,00,AE,AF,03,00,
22498334,00000013,false,Rx,0,8,17,AB,02,00,3B,55,01,00,
22499614,00000014,false,Rx,0,4,3D,04,1E,02,00,00,00,00,
22551673,00000011,false,Rx,0,8,86,0C,00,00,E0,3B,00,00,
22553053,00000012,false,Rx,0,8,1B,EF,03,00,22,9A,03,00,
22554855,00000013,false,Rx,0,8,17,AB,02,00,74,51,01,00,
22555859,00000014,false,Rx,0,4,3D,04,18,02,00,00,00,00,
22607866,00000011,false,Rx,0,8,86,0C,00,00,BE,3D,00,00,
22609457,00000012,false,Rx,0,8,1B,EF,03,00,DC,B6,03,00,
22611041,00000013,false,Rx,0,8,17,AB,02,00,7D,56,01,00,
22612302,00000014,false,Rx,0,4,3D,04,20,02,00,00,00,00,
22664335,00000011,false,Rx,0,8,82,0C,00,00,82,3D,00,00,
22665923,00000012,false,Rx,0,8,DB,ED,03,00,45,B3,03,00,
22667490,00000013,false,Rx,0,8,76,AA,02,00,DC,55,01,00,
22668756,00000014,false,Rx,0,4,3C,04,1F,02,00,00,00,00,
22720737,00000011,false,Rx,0,8,86,0C,00,00,47,3D,00,00,
22722327,00000012,false,Rx,0,8,1B,EF,03,00,AE,AF,03,00,
22723909,00000013,false,Rx,0,8,17,AB,02,00,3B,55,01,00,
22725178,00000014,false,Rx,0,4,3D,04,1E,02,00,00,00,00,
22777162,00000011,false,Rx,0,8,86,0C,00,00,82,3D,00,00,
22778751,00000012,false,Rx,0,8,1B,EF,03,00,45,B3,03,00,
22780304,00000013,false,Rx,0,8,17,AB,02,00,DC,55,01,00,
22781879,00000014,false,Rx,0,4,3D,04,1F,02,00,00,00,00,
22833609,00000011,false,Rx,0,8,86,0C,00,00,47,3D,00,00,
22835459,00000012,false,Rx,0,8,1B,EF,03,00,AE,AF,03,00,
22837010,00000013,false,Rx,0,8,17,AB,02,00,3B,55,01,00,
22838309,00000014,false,Rx,0,4,3D,04,1E,02,00,00,00,00,
22890038,00000011,false,Rx,0,8,86,0C,00,00,82,3D,00,00,
22891643,00000012,false,Rx,0,8,1B,EF,03,00,45,B3,03,00,
22893211,00000013,false,Rx,0,8,17,AB,02,00,DC,55,01,00,
22894531,00000014,false,Rx,0,4,3D,04,1F,02,00,00,00,00,
22946441,00000011,false,Rx,0,8,86,0C,00,00,47,3D,00,00,
22948304,00000012,false,Rx,0,8,1B,EF,03,00,AE,AF,03,00,
22949885,00000013,false,Rx,0,8,17,AB,02,00,3B,55,01,00,
22951285,00000014,false,Rx,0,4,3D,04,1E,02,00,00,00,00,
23003167,00000011,false,Rx,0,8,86,0C,00,00,47,3D,00,00,
23004785,00000012,false,Rx,0,8,1B,EF,03,00,AE,AF,03,00,
23006278,00000013,false,Rx,0,8,17,AB,02,00,3B,55,01,00,
23007429,00000014,false,Rx,0,4,3D,04,1E,02,00,00,00,00,
23059439,00000011,false,Rx,0,8,86,0C,00,00,82,3D,00,00,
23061035,00000012,false,Rx,0,8,1B,EF,03,00,45,B3,03,00,
23062582,00000013,false,Rx,0,8,17,AB,02,00,DC,55,01,00,
23063882,00000014,false,Rx,0,4,3D,04,1F,02,00,00,00,00,
23115856,00000011,false,Rx,0,8,82,0C,00,00,47,3D,00,00,
23117470,00000012,false,Rx,0,8,DB,ED,03,00,AE,AF,03,00,
23119048,00000013,false,Rx,0,8,76,AA,02,00,3B,55,01,00,
23120344,00000014,false,Rx,0,4,3C,04,1E,02,00,00,00,00,
23172293,00000011,false,Rx,0,8,86,0C,00,00,47,3D,00,00,
23173909,00000012,false,Rx,0,8,1B,EF,03,00,AE,AF,03,00,
23175508,00000013,false,Rx,0,8,17,AB,02,00,3B,55,01,00,
23176761,00000014,false,Rx,0,4,3D,04,1E,02,00,00,00,00,
23228736,00000011,false,Rx,0,8,86,0C,00,00,47,3D,00,00,
23230566,00000012,false,Rx,0,8,1B,EF,03,00,AE,AF,03,00,
23231957,00000013,false,Rx,0,8,17,AB,02,00,3B,55,01,00,
23233258,00000014,false,Rx,0,4,3D,04,1E,02,00,00,00,00,
23285266,00000011,false,Rx,0,8,86,0C,00,00,47,3D,00,00,
23287085,00000012,false,Rx,0,8,1B,EF,03,00,AE,AF,03,00,
23288413,00000013,false,Rx,0,8,17,AB,02,00,3B,55,01,00,
23289689,00000014,false,Rx,0,4,3D,04,1E,02,00,00,00,00,
23341662,00000011,false,Rx,0,8,86,0C,00,00,47,3D,00,00,
23343258,00000012,false,Rx,0,8,1B,EF,03,00,AE,AF,03,00,
23344863,00000013,false,Rx,0,8,17,AB,02,00,3B,55,01,00,
23346135,00000014,false,Rx,0,4,3D,04,1E,02,00,00,00,00,
23398297,00000011,false,Rx,0,8,82,0C,00,00,47,3D,00,00,
23399680,00000012,false,Rx,0,8,DB,ED,03,00,AE,AF,03,00,
23401309,00000013,false,Rx,0,8,76,AA,02,00,3B,55,01,00,
23402834,00000014,false,Rx,0,4,3C,04,1E,02,00,00,00,00,
23454574,00000011,false,Rx,0,8,86,0C,00,00,47,3D,00,00,
23456150,00000012,false,Rx,0,8,1B,EF,03,00,AE,AF,03,00,
23457717,00000013,false,Rx,0,8,17,AB,02,00,3B,55,01,00,
23459016,00000014,false,Rx,0,4,3D,04,1E,02,00,00,00,00,
23510970,00000011,false,Rx,0,8,82,0C,00,00,47,3D,00,00,
23512563,00000012,false,Rx,0,8,DB,ED,03,00,AE,AF,03,00,
23514138,00000013,false,Rx,0,8,76,AA,02,00,3B,55,01,00,
23515623,00000014,false,Rx,0,4,3C,04,1E,02,00,00,00,00,
23567529,00000011,false,Rx,0,8,86,0C,00,00,0B,3D,00,00,
23569014,00000012,false,Rx,0,8,1B,EF,03,00,16,AC,03,00,
23570816,00000013,false,Rx,0,8,17,AB,02,00,9A,54,01,00,
23571838,00000014,false,Rx,0,4,3D,04,1D,02,00,00,00,00,
23623826,00000011,false,Rx,0,8,86,0C,00,00,47,3D,00,00,
23625416,00000012,false,Rx,0,8,1B,EF,03,00,AE,AF,03,00,
23626987,00000013,false,Rx,0,8,17,AB,02,00,3B,55,01,00,
23628285,00000014,false,Rx,0,4,3D,04,1E,02,00,00,00,00,
23680247,00000011,false,Rx,0,8,86,0C,00,00,47,3D,00,00,
23682015,00000012,false,Rx,0,8,1B,EF,03,00,AE,AF,03,00,
23683512,00000013,false,Rx,0,8,17,AB,02,00,3B,55,01,00,
23684963,00000014,false,Rx,0,4,3D,04,1E,02,00,00,00,00,
23736914,00000011,false,Rx,0,8,86,0C,00,00,47,3D,00,00,
23738270,00000012,false,Rx,0,8,1B,EF,03,00,AE,AF,03,00,
23739814,00000013,false,Rx,0,8,17,AB,02,00,3B,55,01,00,
23741143,00000014,false,Rx,0,4,3D,04,1E,02,00,00,00,00,
23793098,00000011,false,Rx,0,8,86,0C,00,00,47,3D,00,00,
23794695,00000012,false,Rx,0,8,1B,EF,03,00,AE,AF,03,00,
23796265,00000013,false,Rx,0,8,17,AB,02,00,3B,55,01,00,
23797742,00000014,false,Rx,0,4,3D,04,1E,02,00,00,00,00,
23849798,00000011,false,Rx,0,8,86,0C,00,00,47,3D,00,00,
23851316,00000012,false,Rx,0,8,1B,EF,03,00,AE,AF,03,00,
23852737,00000013,false,Rx,0,8,17,AB,02,00,3B,55,01,00,
23854039,00000014,false,Rx,0,4,3D,04,1E,02,00,00,00,00,
23905996,00000011,false,Rx,0,8,82,0C,00,00,47,3D,00,00,
23907590,00000012,false,Rx,0,8,DB,ED,03,00,AE,AF,03,00,
23909168,00000013,false,Rx,0,8,76,AA,02,00,3B,55,01,00,
23910467,00000014,false,Rx,0,4,3C,04,1E,02,00,00,00,00,
23962402,00000011,false,Rx,0,8,86,0C,00,00,47,3D,00,00,
23964016,00000012,false,Rx,0,8,1B,EF,03,00,AE,AF,03,00,
23965594,00000013,false,Rx,0,8,17,AB,02,00,3B,55,01,00,
23966891,00000014,false,Rx,0,4,3D,04,1E,02,00,00,00,00,
24019114,00000011,false,Rx,0,8,82,0C,00,00,47,3D,00,00,
24020582,00000012,false,Rx,0,8,DB,ED,03,00,AE,AF,03,00,
24022063,00000013,false,Rx,0,8,76,AA,02,00,3B,55,01,00,
24023351,00000014,false,Rx,0,4,3C,04,1E,02,00,00,00,00,
24075297,00000011,false,Rx,0,8,82,0C,00,00,47,3D,00,00,
24076918,00000012,false,Rx,0,8,DB,ED,03,00,AE,AF,03,00,
24078490,00000013,false,Rx,0,8,76,AA,02,00,3B,55,01,00,
24079769,00000014,false,Rx,0,4,3C,04,1E,02,00,00,00,00,
24131720,00000011,false,Rx,0,8,86,0C,00,00,47,3D,00,00,
24133338,00000012,false,Rx,0,8,1B,EF,03,00,AE,AF,03,00,
24134886,00000013,false,Rx,0,8,17,AB,02,00,3B,55,01,00,
24136187,00000014,false,Rx,0,4,3D,04,1E,02,00,00,00,00,
24188200,00000011,false,Rx,0,8,82,0C,00,00,0B,3D,00,00,
24189798,00000012,false,Rx,0,8,DB,ED,03,00,16,AC,03,00,
24191371,00000013,false,Rx,0,8,76,AA,02,00,9A,54,01,00,
24192669,00000014,false,Rx,0,4,3C,04,1D,02,00,00,00,00,
24244649,00000011,false,Rx,0,8,86,0C,00,00,47,3D,00,00,
24246259,00000012,false,Rx,0,8,1B,EF,03,00,AE,AF,03,00,
24247817,00000013,false,Rx,0,8,17,AB,02,00,3B,55,01,00,
24249121,00000014,false,Rx,0,4,3D,04,1E,02,00,00,00,00,
24301098,00000011,false,Rx,0,8,86,0C,00,00,47,3D,00,00,
24302861,00000012,false,Rx,0,8,1B,EF,03,00,AE,AF,03,00,
24304518,00000013,false,Rx,0,8,17,AB,02,00,3B,55,01,00,
24305562,00000014,false,Rx,0,4,3D,04,1E,02,00,00,00,00,
24357550,00000011,false,Rx,0,8,86,0C,00,00,47,3D,00,00,
24359132,00000012,false,Rx,0,8,1B,EF,03,00,AE,AF,03,00,
24360696,00000013,false,Rx,0,8,17,AB,02,00,3B,55,01,00,
24361993,00000014,false,Rx,0,4,3D,04,1E,02,00,00,00,00,
24414021,00000011,false,Rx,0,8,86,0C,00,00,82,3D,00,00,
24415692,00000012,false,Rx,0,8,1B,EF,03,00,45,B3,03,00,
24417188,00000013,false,Rx,0,8,17,AB,02,00,DC,55,01,00,
24418557,00000014,false,Rx,0,4,3D,04,1F,02,00,00,00,00,
24470582,00000011,false,Rx,0,8,86,0C,00,00,47,3D,00,00,
24472092,00000012,false,Rx,0,8,1B,EF,03,00,AE,AF,03,00,
24473618,00000013,false,Rx,0,8,17,AB,02,00,3B,55,01,00,
24474944,00000014,false,Rx,0,4,3D,04,1E,02,00,00,00,00,
24526951,00000011,false,Rx,0,8,86,0C,00,00,0B,3D,00,00,
24528520,00000012,false,Rx,0,8,1B,EF,03,00,16,AC,03,00,
24530123,00000013,false,Rx,0,8,17,AB,02,00,9A,54,01,00,
24531439,00000014,false,Rx,0,4,3D,04,1D,02,00,00,00,00,
24583477,00000011,false,Rx,0,8,86,0C,00,00,0B,3D,00,00,
24585040,00000012,false,Rx,0,8,1B,EF,03,00,16,AC,03,00,
24586594,00000013,false,Rx,0,8,17,AB,02,00,9A,54,01,00,
24587885,00000014,false,Rx,0,4,3D,04,1D,02,00,00,00,00,
24639879,00000011,false,Rx,0,8,86,0C,00,00,0B,3D,00,00,
24641476,00000012,false,Rx,0,8,1B,EF,03,00,16,AC,03,00,
24643050,00000013,false,Rx,0,8,17,AB,02,00,9A,54,01,00,
24644358,00000014,false,Rx,0,4,3D,04,1D,02,00,00,00,00,
24696340,00000011,false,Rx,0,8,82,0C,00,00,0B,3D,00,00,
24697934,00000012,false,Rx,0,8,DB,ED,03,00,16,AC,03,00,
24699508,00000013,false,Rx,0,8,76,AA,02,00,9A,54,01,00,
24700820,00000014,false,Rx,0,4,3C,04,1D,02,00,00,00,00,
24753018,00000011,false,Rx,0,8,82,0C,00,00,0B,3D,00,00,
24754540,00000012,false,Rx,0,8,DB,ED,03,00,16,AC,03,00,
24755923,00000013,false,Rx,0,8,76,AA,02,00,9A,54,01,00,
24757254,00000014,false,Rx,0,4,3C,04,1D,02,00,00,00,00,
24809207,00000011,false,Rx,0,8,82,0C,00,00,0B,3D,00,00,
24810859,00000012,false,Rx,0,8,DB,ED,03,00,16,AC,03,00,
24812425,00000013,false,Rx,0,8,76,AA,02,00,9A,54,01,00,
24813731,00000014,false,Rx,0,4,3C,04,1D,02,00,00,00,00,
24865717,00000011,false,Rx,0,8,86,0C,00,00,0B,3D,00,00,
24867359,00000012,false,Rx,0,8,1B,EF,03,00,16,AC,03,00,
24868897,00000013,false,Rx,0,8,17,AB,02,00,9A,54,01,00,
24870417,00000014,false,Rx,0,4,3D,04,1D,02,00,00,00,00,
24922129,00000011,false,Rx,0,8,82,0C,00,00,0B,3D,00,00,
24923696,00000012,false,Rx,0,8,DB,ED,03,00,16,AC,03,00,
24925270,00000013,false,Rx,0,8,76,AA,02,00,9A,54,01,00,
24926577,00000014,false,Rx,0,4,3C,04,1D,02,00,00,00,00,
24978571,00000011,false,Rx,0,8,82,0C,00,00,0B,3D,00,00,
24980128,00000012,false,Rx,0,8,DB,ED,03,00,16,AC,03,00,
24981696,00000013,false,Rx,0,8,76,AA,02,00,9A,54,01,00,
24983092,00000014,false,Rx,0,4,3C,04,1D,02,00,00,00,00,
25035101,00000011,false,Rx,0,8,82,0C,00,00,47,3D,00,00,
25036869,00000012,false,Rx,0,8,DB,ED,03,00,AE,AF,03,00,
25038157,00000013,false,Rx,0,8,76,AA,02,00,3B,55,01,00,
25039478,00000014,false,Rx,0,4,3C,04,1E,02,00,00,00,00,
25091402,00000011,false,Rx,0,8,82,0C,00,00,47,3D,00,00,
25093023,00000012,false,Rx,0,8,DB,ED,03,00,AE,AF,03,00,
25094595,00000013,false,Rx,0,8,76,AA,02,00,3B,55,01,00,
25095940,00000014,false,Rx,0,4,3C,04,1E,02,00,00,00,00,
25147865,00000011,false,Rx,0,8,86,0C,00,00,0B,3D,00,00,
25149478,00000012,false,Rx,0,8,1B,EF,03,00,16,AC,03,00,
25151064,00000013,false,Rx,0,8,17,AB,02,00,9A,54,01,00,
25152364,00000014,false,Rx,0,4,3D,04,1D,02,00,00,00,00,
25204337,00000011,false,Rx,0,8,86,0C,00,00,0B,3D,00,00,
25205914,00000012,false,Rx,0,8,1B,EF,03,00,16,AC,03,00,
25207475,00000013,false,Rx,0,8,17,AB,02,00,9A,54,01,00,
25208774,00000014,false,Rx,0,4,3D,04,1D,02,00,00,00,00,
25260754,00000011,false,Rx,0,8,82,0C,00,00,0B,3D,00,00,
25262320,00000012,false,Rx,0,8,DB,ED,03,00,16,AC,03,00,
25264167,00000013,false,Rx,0,8,76,AA,02,00,9A,54,01,00,
25265235,00000014,false,Rx,0,4,3C,04,1D,02,00,00,00,00,
25317233,00000011,false,Rx,0,8,86,0C,00,00,0B,3D,00,00,
25319075,00000012,false,Rx,0,8,1B,EF,03,00,16,AC,03,00,
25320478,00000013,false,Rx,0,8,17,AB,02,00,9A,54,01,00,
25321659,00000014,false,Rx,0,4,3D,04,1D,02,00,00,00,00,
25373631,00000011,false,Rx,0,8,82,0C,00,00,0B,3D,00,00,
25375258,00000012,false,Rx,0,8,DB,ED,03,00,16,AC,03,00,
25376807,00000013,false,Rx,0,8,76,AA,02,00,9A,54,01,00,
25378072,00000014,false,Rx,0,4,3C,04,1D,02,00,00,00,00,
25430052,00000011,false,Rx,0,8,82,0C,00,00,0B,3D,00,00,
25431681,00000012,false,Rx,0,8,DB,ED,03,00,16,AC,03,00,
25433275,00000013,false,Rx,0,8,76,AA,02,00,9A,54,01,00,
25434801,00000014,false,Rx,0,4,3C,04,1D,02,00,00,00,00,
25486749,00000011,false,Rx,0,8,82,0C,00,00,0B,3D,00,00,
25488133,00000012,false,Rx,0,8,DB,ED,03,00,16,AC,03,00,
25489704,00000013,false,Rx,0,8,76,AA,02,00,9A,54,01,00,
25490982,00000014,false,Rx,0,4,3C,04,1D,02,00,00,00,00,
25542962,00000011,false,Rx,0,8,86,0C,00,00,0B,3D,00,00,
25544577,00000012,false,Rx,0,8,1B,EF,03,00,16,AC,03,00,
25546124,00000013,false,Rx,0,8,17,AB,02,00,9A,54,01,00,
25547397,00000014,false,Rx,0,4,3D,04,1D,02,00,00,00,00,
25599676,00000011,false,Rx,0,8,86,0C,00,00,CF,3C,00,00,
25601024,00000012,false,Rx,0,8,1B,EF,03,00,7F,A8,03,00,
25602824,00000013,false,Rx,0,8,17,AB,02,00,F8,53,01,00,
25604051,00000014,false,Rx,0,4,3D,04,1C,02,00,00,00,00,
25655803,00000011,false,Rx,0,8,7E,0C,00,00,0B,3D,00,00,
25657457,00000012,false,Rx,0,8,9B,EC,03,00,16,AC,03,00,
25659008,00000013,false,Rx,0,8,D5,A9,02,00,9A,54,01,00,
25660303,00000014,false,Rx,0,4,3B,04,1D,02,00,00,00,00,
25712285,00000011,false,Rx,0,8,86,0C,00,00,0B,3D,00,00,
25713929,00000012,false,Rx,0,8,1B,EF,03,00,16,AC,03,00,
25715675,00000013,false,Rx,0,8,17,AB,02,00,9A,54,01,00,
25716775,00000014,false,Rx,0,4,3D,04,1D,02,00,00,00,00,
25768735,00000011,false,Rx,0,8,86,0C,00,00,CF,3C,00,00,
25770348,00000012,false,Rx,0,8,1B,EF,03,00,7F,A8,03,00,
25771892,00000013,false,Rx,0,8,17,AB,02,00,F8,53,01,00,
25773178,00000014,false,Rx,0,4,3D,04,1C,02,00,00,00,00,
25825161,00000011,false,Rx,0,8,86,0C,00,00,0B,3D,00,00,
25826725,00000012,false,Rx,0,8,1B,EF,03,00,16,AC,03,00,
25828298,00000013,false,Rx,0,8,17,AB,02,00,9A,54,01,00,
25829601,00000014,false,Rx,0,4,3D,04,1D,02,00,00,00,00,
25881608,00000011,false,Rx,0,8,86,0C,00,00,0B,3D,00,00,
25883456,00000012,false,Rx,0,8,1B,EF,03,00,16,AC,03,00,
25884956,00000013,false,Rx,0,8,17,AB,02,00,9A,54,01,00,
25886077,00000014,false,Rx,0,4,3D,04,1D,02,00,00,00,00,
25938020,00000011,false,Rx,0,8,86,0C,00,00,0B,3D,00,00,
25939655,00000012,false,Rx,0,8,1B,EF,03,00,16,AC,03,00,
25941217,00000013,false,Rx,0,8,17,AB,02,00,9A,54,01,00,
25942479,00000014,false,Rx,0,4,3D,04,1D,02,00,00,00,00,
25994488,00000011,false,Rx,0,8,82,0C,00,00,0B,3D,00,00,
25996082,00000012,false,Rx,0,8,DB,ED,03,00,16,AC,03,00,
25997902,00000013,false,Rx,0,8,76,AA,02,00,9A,54,01,00,
25999132,00000014,false,Rx,0,4,3C,04,1D,02,00,00,00,00,
26051150,00000011,false,Rx,0,8,82,0C,00,00,0B,3D,00,00,
26052653,00000012,false,Rx,0,8,DB,ED,03,00,16,AC,03,00,
26054119,00000013,false,Rx,0,8,76,AA,02,00,9A,54,01,00,
26055380,00000014,false,Rx,0,4,3C,04,1D,02,00,00,00,00,
26107370,00000011,false,Rx,0,8,82,0C,00,00,0B,3D,00,00,
26108978,00000012,false,Rx,0,8,DB,ED,03,00,16,AC,03,00,
26110525,00000013,false,Rx,0,8,76,AA,02,00,9A,54,01,00,
26111839,00000014,false,Rx,0,4,3C,04,1D,02,00,00,00,00,
26163809,00000011,false,Rx,0,8,82,0C,00,00,0B,3D,00,00,
26165428,00000012,false,Rx,0,8,DB,ED,03,00,16,AC,03,00,
26166978,00000013,false,Rx,0,8,76,AA,02,00,9A,54,01,00,
26168254,00000014,false,Rx,0,4,3C,04,1D,02,00,00,00,00,
26220235,00000011,false,Rx,0,8,82,0C,00,00,CF,3C,00,00,
26221852,00000012,false,Rx,0,8,DB,ED,03,00,7F,A8,03,00,
26223420,00000013,false,Rx,0,8,76,AA,02,00,F8,53,01,00,
26224692,00000014,false,Rx,0,4,3C,04,1C,02,00,00,00,00,
26276636,00000011,false,Rx,0,8,82,0C,00,00,0B,3D,00,00,
26278255,00000012,false,Rx,0,8,DB,ED,03,00,16,AC,03,00,
26280014,00000013,false,Rx,0,8,76,AA,02,00,9A,54,01,00,
26281297,00000014,false,Rx,0,4,3C,04,1D,02,00,00,00,00,
26333111,00000011,false,Rx,0,8,82,0C,00,00,0B,3D,00,00,
26334928,00000012,false,Rx,0,8,DB,ED,03,00,16,AC,03,00,
26336505,00000013,false,Rx,0,8,76,AA,02,00,9A,54,01,00,
26337562,00000014,false,Rx,0,4,3C,04,1D,02,00,00,00,00,
26389562,00000011,false,Rx,0,8,82,0C,00,00,0B,3D,00,00,
26391132,00000012,false,Rx,0,8,DB,ED,03,00,16,AC,03,00,
26392707,00000013,false,Rx,0,8,76,AA,02,00,9A,54,01,00,
26393978,00000014,false,Rx,0,4,3C,04,1D,02,00,00,00,00,
26445940,00000011,false,Rx,0,8,82,0C,00,00,CF,3C,00,00,
26447562,00000012,false,Rx,0,8,DB,ED,03,00,7F,A8,03,00,
26449157,00000013,false,Rx,0,8,76,AA,02,00,F8,53,01,00,
26450672,00000014,false,Rx,0,4,3C,04,1C,02,00,00,00,00,
26502524,00000011,false,Rx,0,8,86,0C,00,00,0B,3D,00,00,
26503982,00000012,false,Rx,0,8,1B,EF,03,00,16,AC,03,00,
26505591,00000013,false,Rx,0,8,17,AB,02,00,9A,54,01,00,
26506858,00000014,false,Rx,0,4,3D,04,1D,02,00,00,00,00,
26558844,00000011,false,Rx,0,8,82,0C,00,00,0B,3D,00,00,
26560447,00000012,false,Rx,0,8,DB,ED,03,00,16,AC,03,00,
26562015,00000013,false,Rx,0,8,76,AA,02,00,9A,54,01,00,
26563320,00000014,false,Rx,0,4,3C,04,1D,02,00,00,00,00,
26615241,00000011,false,Rx,0,8,82,0C,00,00,CF,3C,00,00,
26616895,00000012,false,Rx,0,8,DB,ED,03,00,7F,A8,03,00,
26618458,00000013,false,Rx,0,8,76,AA,02,00,F8,53,01,00,
26619764,00000014,false,Rx,0,4,3C,04,1C,02,00,00,00,00,
26671721,00000011,false,Rx,0,8,82,0C,00,00,CF,3C,00,00,
26673293,00000012,false,Rx,0,8,DB,ED,03,00,7F,A8,03,00,
26674873,00000013,false,Rx,0,8,76,AA,02,00,F8,53,01,00,
26676171,00000014,false,Rx,0,4,3C,04,1C,02,00,00,00,00,
26728156,00000011,false,Rx,0,8,82,0C,00,00,CF,3C,00,00,
26729710,00000012,false,Rx,0,8,DB,ED,03,00,7F,A8,03,00,
26731327,00000013,false,Rx,0,8,76,AA,02,00,F8,53,01,00,
26732611,00000014,false,Rx,0,4,3C,04,1C,02,00,00,00,00,
26784595,00000011,false,Rx,0,8,7E,0C,00,00,0B,3D,00,00,
26786198,00000012,false,Rx,0,8,9B,EC,03,00,16,AC,03,00,
26787737,00000013,false,Rx,0,8,D5,A9,02,00,9A,54,01,00,
26789009,00000014,false,Rx,0,4,3B,04,1D,02,00,00,00,00,
26841022,00000011,false,Rx,0,8,7E,0C,00,00,CF,3C,00,00,
26842623,00000012,false,Rx,0,8,9B,EC,03,00,7F,A8,03,00,
26844198,00000013,false,Rx,0,8,D5,A9,02,00,F8,53,01,00,
26845461,00000014,false,Rx,0,4,3B,04,1C,02,00,00,00,00,
26897419,00000011,false,Rx,0,8,82,0C,00,00,CF,3C,00,00,
26899299,00000012,false,Rx,0,8,DB,ED,03,00,7F,A8,03,00,
26900660,00000013,false,Rx,0,8,76,AA,02,00,F8,53,01,00,
26901936,00000014,false,Rx,0,4,3C,04,1C,02,00,00,00,00,
26953899,00000011,false,Rx,0,8,86,0C,00,00,CF,3C,00,00,
26955517,00000012,false,Rx,0,8,1B,EF,03,00,7F,A8,03,00,
26957039,00000013,false,Rx,0,8,17,AB,02,00,F8,53,01,00,
26958366,00000014,false,Rx,0,4,3D,04,1C,02,00,00,00,00,
27010394,00000011,false,Rx,0,8,82,0C,00,00,CF,3C,00,00,
27011963,00000012,false,Rx,0,8,DB,ED,03,00,7F,A8,03,00,
27013569,00000013,false,Rx,0,8,76,AA,02,00,F8,53,01,00,
27015004,00000014,false,Rx,0,4,3C,04,1C,02,00,00,00,00,
27066957,00000011,false,Rx,0,8,82,0C,00,00,CF,3C,00,00,
27068542,00000012,false,Rx,0,8,DB,ED,03,00,7F,A8,03,00,
27070164,00000013,false,Rx,0,8,76,AA,02,00,F8,53,01,00,
27071300,00000014,false,Rx,0,4,3C,04,1C,02,00,00,00,00,
27123271,00000011,false,Rx,0,8,7E,0C,00,00,CF,3C,00,00,
27124893,00000012,false,Rx,0,8,9B,EC,03,00,7F,A8,03,00,
27126476,00000013,false,Rx,0,8,D5,A9,02,00,F8,53,01,00,
27127776,00000014,false,Rx,0,4,3B,04,1C,02,00,00,00,00,
27179743,00000011,false,Rx,0,8,82,0C,00,00,CF,3C,00,00,
27181616,00000012,false,Rx,0,8,DB,ED,03,00,7F,A8,03,00,
27183167,00000013,false,Rx,0,8,76,AA,02,00,F8,53,01,00,
27184237,00000014,false,Rx,0,4,3C,04,1C,02,00,00,00,00,
27236435,00000011,false,Rx,0,8,86,0C,00,00,CF,3C,00,00,
27237826,00000012,false,Rx,0,8,1B,EF,03,00,7F,A8,03,00,
27239360,00000013,false,Rx,0,8,17,AB,02,00,F8,53,01,00,
27240658,00000014,false,Rx,0,4,3D,04,1C,02,00,00,00,00,
27292669,00000011,false,Rx,0,8,82,0C,00,00,CF,3C,00,00,
27294260,00000012,false,Rx,0,8,DB,ED,03,00,7F,A8,03,00,
27295929,00000013,false,Rx,0,8,76,AA,02,00,F8,53,01,00,
27297335,00000014,false,Rx,0,4,3C,04,1C,02,00,00,00,00,
27349146,00000011,false,Rx,0,8,82,0C,00,00,CF,3C,00,00,
27350978,00000012,false,Rx,0,8,DB,ED,03,00,7F,A8,03,00,
27352531,00000013,false,Rx,0,8,76,AA,02,00,F8,53,01,00,
27353661,00000014,false,Rx,0,4,3C,04,1C,02,00,00,00,00,
27405600,00000011,false,Rx,0,8,82,0C,00,00,CF,3C,00,00,
27407204,00000012,false,Rx,0,8,DB,ED,03,00,7F,A8,03,00,
27408777,00000013,false,Rx,0,8,76,AA,02,00,F8,53,01,00,
27410079,00000014,false,Rx,0,4,3C,04,1C,02,00,00,00,00,
27462061,00000011,false,Rx,0,8,82,0C,00,00,0B,3D,00,00,
27463617,00000012,false,Rx,0,8,DB,ED,03,00,16,AC,03,00,
27465195,00000013,false,Rx,0,8,76,AA,02,00,9A,54,01,00,
27466505,00000014,false,Rx,0,4,3C,04,1D,02,00,00,00,00,
27518706,00000011,false,Rx,0,8,82,0C,00,00,CF,3C,00,00,
27520277,00000012,false,Rx,0,8,DB,ED,03,00,7F,A8,03,00,
27521676,00000013,false,Rx,0,8,76,AA,02,00,F8,53,01,00,
27522918,00000014,false,Rx,0,4,3C,04,1C,02,00,00,00,00,
27574929,00000011,false,Rx,0,8,86,0C,00,00,CF,3C,00,00,
27576529,00000012,false,Rx,0,8,1B,EF,03,00,7F,A8,03,00,
27578105,00000013,false,Rx,0,8,17,AB,02,00,F8,53,01,00,
27579366,00000014,false,Rx,0,4,3D,04,1C,02,00,00,00,00,
27631364,00000011,false,Rx,0,8,82,0C,00,00,0B,3D,00,00,
27632970,00000012,false,Rx,0,8,DB,ED,03,00,16,AC,03,00,
27634758,00000013,false,Rx,0,8,76,AA,02,00,9A,54,01,00,
27635901,00000014,false,Rx,0,4,3C,04,1D,02,00,00,00,00,
27687754,00000011,false,Rx,0,8,82,0C,00,00,0B,3D,00,00,
27689370,00000012,false,Rx,0,8,DB,ED,03,00,16,AC,03,00,
27690949,00000013,false,Rx,0,8,76,AA,02,00,9A,54,01,00,
27692255,00000014,false,Rx,0,4,3C,04,1D,02,00,00,00,00,
27744261,00000011,false,Rx,0,8,82,0C,00,00,CF,3C,00,00,
27745823,00000012,false,Rx,0,8,DB,ED,03,00,7F,A8,03,00,
27747375,00000013,false,Rx,0,8,76,AA,02,00,F8,53,01,00,
27748663,00000014,false,Rx,0,4,3C,04,1C,02,00,00,00,00,
27800699,00000011,false,Rx,0,8,86,0C,00,00,0B,3D,00,00,
27802282,00000012,false,Rx,0,8,1B,EF,03,00,16,AC,03,00,
27803864,00000013,false,Rx,0,8,17,AB,02,00,9A,54,01,00,
27805138,00000014,false,Rx,0,4,3D,04,1D,02,00,00,00,00,
27857073,00000011,false,Rx,0,8,82,0C,00,00,CF,3C,00,00,
27858692,00000012,false,Rx,0,8,DB,ED,03,00,7F,A8,03,00,
27860241,00000013,false,Rx,0,8,76,AA,02,00,F8,53,01,00,
27861537,00000014,false,Rx,0,4,3C,04,1C,02,00,00,00,00,
27913552,00000011,false,Rx,0,8,7E,0C,00,00,CF,3C,00,00,
27915314,00000012,false,Rx,0,8,9B,EC,03,00,7F,A8,03,00,
27916746,00000013,false,Rx,0,8,D5,A9,02,00,F8,53,01,00,
27918043,00000014,false,Rx,0,4,3B,04,1C,02,00,00,00,00,
27970146,00000011,false,Rx,0,8,7E,0C,00,00,CF,3C,00,00,
27971576,00000012,false,Rx,0,8,9B,EC,03,00,7F,A8,03,00,
27973148,00000013,false,Rx,0,8,D5,A9,02,00,F8,53,01,00,
27974475,00000014,false,Rx,0,4,3B,04,1C,02,00,00,00,00,
28026466,00000011,false,Rx,0,8,82,0C,00,00,CF,3C,00,00,
28028058,00000012,false,Rx,0,8,DB,ED,03,00,7F,A8,03,00,
28029594,00000013,false,Rx,0,8,76,AA,02,00,F8,53,01,00,
28030888,00000014,false,Rx,0,4,3C,04,1C,02,00,00,00,00,
28083017,00000011,false,Rx,0,8,82,0C,00,00,47,3D,00,00,
28084501,00000012,false,Rx,0,8,DB,ED,03,00,AE,AF,03,00,
28086057,00000013,false,Rx,0,8,76,AA,02,00,3B,55,01,00,
28087320,00000014,false,Rx,0,4,3C,04,1E,02,00,00,00,00,
28139304,00000011,false,Rx,0,8,82,0C,00,00,CF,3C,00,00,
28140895,00000012,false,Rx,0,8,DB,ED,03,00,7F,A8,03,00,
28142509,00000013,false,Rx,0,8,76,AA,02,00,F8,53,01,00,
28143809,00000014,false,Rx,0,4,3C,04,1C,02,00,00,00,00,
28195727,00000011,false,Rx,0,8,82,0C,00,00,CF,3C,00,00,
28197346,00000012,false,Rx,0,8,DB,ED,03,00,7F,A8,03,00,
28198987,00000013,false,Rx,0,8,76,AA,02,00,F8,53,01,00,
28200356,00000014,false,Rx,0,4,3C,04,1C,02,00,00,00,00,
28252417,00000011,false,Rx,0,8,82,0C,00,00,0B,3D,00,00,
28253795,00000012,false,Rx,0,8,DB,ED,03,00,16,AC,03,00,
28255318,00000013,false,Rx,0,8,76,AA,02,00,9A,54,01,00,
28256624,00000014,false,Rx,0,4,3C,04,1D,02,00,00,00,00,
28308616,00000011,false,Rx,0,8,82,0C,00,00,CF,3C,00,00,
28310211,00000012,false,Rx,0,8,DB,ED,03,00,7F,A8,03,00,
28311784,00000013,false,Rx,0,8,76,AA,02,00,F8,53,01,00,
28313021,00000014,false,Rx,0,4,3C,04,1C,02,00,00,00,00,
28364977,00000011,false,Rx,0,8,82,0C,00,00,CF,3C,00,00,
28366618,00000012,false,Rx,0,8,DB,ED,03,00,7F,A8,03,00,
28368157,00000013,false,Rx,0,8,76,AA,02,00,F8,53,01,00,
28369444,00000014,false,Rx,0,4,3C,04,1C,02,00,00,00,00,
28421449,00000011,false,Rx,0,8,7E,0C,00,00,CF,3C,00,00,
28423000,00000012,false,Rx,0,8,9B,EC,03,00,7F,A8,03,00,
28424580,00000013,false,Rx,0,8,D5,A9,02,00,F8,53,01,00,
28425871,00000014,false,Rx,0,4,3B,04,1C,02,00,00,00,00,
28477893,00000011,false,Rx,0,8,82,0C,00,00,CF,3C,00,00,
28479490,00000012,false,Rx,0,8,DB,ED,03,00,7F,A8,03,00,
28481017,00000013,false,Rx,0,8,76,AA,02,00,F8,53,01,00,
28482521,00000014,false,Rx,0,4,3C,04,1C,02,00,00,00,00,
28534342,00000011,false,Rx,0,8,17,0C,00,00,CF,3C,00,00,
28536022,00000012,false,Rx,0,8,1C,CC,03,00,7F,A8,03,00,
28537485,00000013,false,Rx,0,8,76,99,02,00,F8,53,01,00,
28538814,00000014,false,Rx,0,4,21,04,1C,02,00,00,00,00,
28590759,00000011,false,Rx,0,8,CF,0B,00,00,61,38,00,00,
28592391,00000012,false,Rx,0,8,9D,B5,03,00,45,64,03,00,
28593963,00000013,false,Rx,0,8,21,8E,02,00,02,48,01,00,
28595218,00000014,false,Rx,0,4,0F,04,09,02,00,00,00,00,
28647219,00000011,false,Rx,0,8,D3,0B,00,00,07,25,00,00,
28648848,00000012,false,Rx,0,8,DD,B6,03,00,39,3A,02,00,
28650461,00000013,false,Rx,0,8,C3,8E,02,00,C1,13,01,00,
28651696,00000014,false,Rx,0,4,10,04,B6,01,00,00,00,00,
28703661,00000011,false,Rx,0,8,D7,0B,00,00,BC,17,00,00,
28705265,00000012,false,Rx,0,8,1D,B8,03,00,8A,6D,01,00,
28706831,00000013,false,Rx,0,8,64,8F,02,00,DE,EF,00,00,
28708129,00000014,false,Rx,0,4,11,04,7D,01,00,00,00,00,
28760074,00000011,false,Rx,0,8,DB,0B,00,00,B5,0D,00,00,
28761702,00000012,false,Rx,0,8,5D,B9,03,00,21,D3,00,00,
28763421,00000013,false,Rx,0,8,05,90,02,00,CC,D4,00,00,
28764596,00000014,false,Rx,0,4,12,04,52,01,00,00,00,00,
28816606,00000011,false,Rx,0,8,D7,0B,00,00,B6,06,00,00,
28818171,00000012,false,Rx,0,8,1D,B8,03,00,67,67,00,00,
28819785,00000013,false,Rx,0,8,64,8F,02,00,E9,C1,00,00,
28821037,00000014,false,Rx,0,4,11,04,34,01,00,00,00,00,
28873005,00000011,false,Rx,0,8,DB,0B,00,00,37,03,00,00,
28874598,00000012,false,Rx,0,8,5D,B9,03,00,89,31,00,00,
28876175,00000013,false,Rx,0,8,05,90,02,00,77,B8,00,00,
28877474,00000014,false,Rx,0,4,12,04,25,01,00,00,00,00,
28929694,00000011,false,Rx,0,8,DB,0B,00,00,48,02,00,00,
28931315,00000012,false,Rx,0,8,5D,B9,03,00,2C,23,00,00,
28932653,00000013,false,Rx,0,8,05,90,02,00,F2,B5,00,00,
28933947,00000014,false,Rx,0,4,12,04,21,01,00,00,00,00,
28986154,00000011,false,Rx,0,8,DB,0B,00,00,00,00,00,00,
28987483,00000012,false,Rx,0,8,5D,B9,03,00,00,00,00,00,
28989081,00000013,false,Rx,0,8,05,90,02,00,05,AF,00,00,
28990381,00000014,false,Rx,0,4,12,04,16,01,00,00,00,00,
29042334,00000011,false,Rx,0,8,DF,0B,00,00,0D,02,00,00,
29043950,00000012,false,Rx,0,8,9D,BA,03,00,95,1F,00,00,
29045496,00000013,false,Rx,0,8,A6,90,02,00,51,B5,00,00,
29046769,00000014,false,Rx,0,4,13,04,20,01,00,00,00,00,
29099037,00000011,false,Rx,0,8,DF,0B,00,00,0D,02,00,00,
29100430,00000012,false,Rx,0,8,9D,BA,03,00,95,1F,00,00,
29101998,00000013,false,Rx,0,8,A6,90,02,00,51,B5,00,00,
29103258,00000014,false,Rx,0,4,13,04,20,01,00,00,00,00,
29155205,00000011,false,Rx,0,8,DB,0B,00,00,0D,02,00,00,
29156833,00000012,false,Rx,0,8,5D,B9,03,00,95,1F,00,00,
29158401,00000013,false,Rx,0,8,05,90,02,00,51,B5,00,00,
29159703,00000014,false,Rx,0,4,12,04,20,01,00,00,00,00,
29211708,00000011,false,Rx,0,8,DF,0B,00,00,48,02,00,00,
29213551,00000012,false,Rx,0,8,9D,BA,03,00,2C,23,00,00,
29215006,00000013,false,Rx,0,8,A6,90,02,00,F2,B5,00,00,
29216204,00000014,false,Rx,0,4,13,04,21,01,00,00,00,00,
29268426,00000011,false,Rx,0,8,DF,0B,00,00,0D,02,00,00,
29269759,00000012,false,Rx,0,8,9D,BA,03,00,95,1F,00,00,
29271355,00000013,false,Rx,0,8,A6,90,02,00,51,B5,00,00,
29272657,00000014,false,Rx,0,4,13,04,20,01,00,00,00,00,
29324661,00000011,false,Rx,0,8,DF,0B,00,00,0D,02,00,00,
29326224,00000012,false,Rx,0,8,9D,BA,03,00,95,1F,00,00,
29327799,00000013,false,Rx,0,8,A6,90,02,00,51,B5,00,00,
29329095,00000014,false,Rx,0,4,13,04,20,01,00,00,00,00,
29381300,00000011,false,Rx,0,8,E3,0B,00,00,0D,02,00,00,
29382944,00000012,false,Rx,0,8,DD,BB,03,00,95,1F,00,00,
29384386,00000013,false,Rx,0,8,47,91,02,00,51,B5,00,00,
29385581,00000014,false,Rx,0,4,14,04,20,01,00,00,00,00,
29437598,00000011,false,Rx,0,8,DF,0B,00,00,0D,02,00,00,
29439181,00000012,false,Rx,0,8,9D,BA,03,00,95,1F,00,00,
29440756,00000013,false,Rx,0,8,A6,90,02,00,51,B5,00,00,
29442052,00000014,false,Rx,0,4,13,04,20,01,00,00,00,00,
29494034,00000011,false,Rx,0,8,DF,0B,00,00,95,01,00,00,
29495628,00000012,false,Rx,0,8,9D,BA,03,00,66,18,00,00,
29497223,00000013,false,Rx,0,8,A6,90,02,00,0F,B4,00,00,
29498524,00000014,false,Rx,0,4,13,04,1E,01,00,00,00,00,
29550726,00000011,false,Rx,0,8,DF,0B,00,00,0D,02,00,00,
29552324,00000012,false,Rx,0,8,9D,BA,03,00,95,1F,00,00,
29553670,00000013,false,Rx,0,8,A6,90,02,00,51,B5,00,00,
29554927,00000014,false,Rx,0,4,13,04,20,01,00,00,00,00,
29606905,00000011,false,Rx,0,8,E3,0B,00,00,D1,01,00,00,
29608553,00000012,false,Rx,0,8,DD,BB,03,00,FE,1B,00,00,
29610072,00000013,false,Rx,0,8,47,91,02,00,B0,B4,00,00,
29611373,00000014,false,Rx,0,4,14,04,1F,01,00,00,00,00,
29663639,00000011,false,Rx,0,8,E3,0B,00,00,95,01,00,00,
29665031,00000012,false,Rx,0,8,DD,BB,03,00,66,18,00,00,
29666549,00000013,false,Rx,0,8,47,91,02,00,0F,B4,00,00,
29667822,00000014,false,Rx,0,4,14,04,1E,01,00,00,00,00,
29719864,00000011,false,Rx,0,8,E3,0B,00,00,D1,01,00,00,
29721479,00000012,false,Rx,0,8,DD,BB,03,00,FE,1B,00,00,
29723059,00000013,false,Rx,0,8,47,91,02,00,B0,B4,00,00,
29724330,00000014,false,Rx,0,4,14,04,1F,01,00,00,00,00,
29776336,00000011,false,Rx,0,8,DF,0B,00,00,D1,01,00,00,
29777955,00000012,false,Rx,0,8,9D,BA,03,00,FE,1B,00,00,
29779683,00000013,false,Rx,0,8,A6,90,02,00,B0,B4,00,00,
29780832,00000014,false,Rx,0,4,13,04,1F,01,00,00,00,00,
29832818,00000011,false,Rx,0,8,DF,0B,00,00,D1,01,00,00,
29834509,00000012,false,Rx,0,8,9D,BA,03,00,FE,1B,00,00,
29836171,00000013,false,Rx,0,8,A6,90,02,00,B0,B4,00,00,
29837271,00000014,false,Rx,0,4,13,04,1F,01,00,00,00,00,
29889268,00000011,false,Rx,0,8,E3,0B,00,00,95,01,00,00,
29890862,00000012,false,Rx,0,8,DD,BB,03,00,66,18,00,00,
29892444,00000013,false,Rx,0,8,47,91,02,00,0F,B4,00,00,
29893743,00000014,false,Rx,0,4,14,04,1E,01,00,00,00,00,
29945701,00000011,false,Rx,0,8,E3,0B,00,00,95,01,00,00,
29947477,00000012,false,Rx,0,8,DD,BB,03,00,66,18,00,00,
29948905,00000013,false,Rx,0,8,47,91,02,00,0F,B4,00,00,
29950180,00000014,false,Rx,0,4,14,04,1E,01,00,00,00,00,
30002141,00000011,false,Rx,0,8,E3,0B,00,00,0D,02,00,00,
30003682,00000012,false,Rx,0,8,DD,BB,03,00,95,1F,00,00,
30005290,00000013,false,Rx,0,8,47,91,02,00,51,B5,00,00,
30006562,00000014,false,Rx,0,4,14,04,20,01,00,00,00,00,
30058606,00000011,false,Rx,0,8,E7,0B,00,00,D1,01,00,00,
30060171,00000012,false,Rx,0,8,1D,BD,03,00,FE,1B,00,00,
30061746,00000013,false,Rx,0,8,E8,91,02,00,B0,B4,00,00,
30063020,00000014,false,Rx,0,4,15,04,1F,01,00,00,00,00,
30114990,00000011,false,Rx,0,8,E3,0B,00,00,D1,01,00,00,
30116624,00000012,false,Rx,0,8,DD,BB,03,00,FE,1B,00,00,
30118328,00000013,false,Rx,0,8,47,91,02,00,B0,B4,00,00,
30119433,00000014,false,Rx,0,4,14,04,1F,01,00,00,00,00,
30171434,00000011,false,Rx,0,8,E3,0B,00,00,D1,01,00,00,
30173053,00000012,false,Rx,0,8,DD,BB,03,00,FE,1B,00,00,
30174589,00000013,false,Rx,0,8,47,91,02,00,B0,B4,00,00,
30175901,00000014,false,Rx,0,4,14,04,1F,01,00,00,00,00,
30227937,00000011,false,Rx,0,8,E7,0B,00,00,95,01,00,00,
30229710,00000012,false,Rx,0,8,1D,BD,03,00,66,18,00,00,
30231211,00000013,false,Rx,0,8,E8,91,02,00,0F,B4,00,00,
30232361,00000014,false,Rx,0,4,15,04,1E,01,00,00,00,00,
30284542,00000011,false,Rx,0,8,E3,0B,00,00,0D,02,00,00,
30286036,00000012,false,Rx,0,8,DD,BB,03,00,95,1F,00,00,
30287488,00000013,false,Rx,0,8,47,91,02,00,51,B5,00,00,
30288762,00000014,false,Rx,0,4,14,04,20,01,00,00,00,00,
30340737,00000011,false,Rx,0,8,E7,0B,00,00,0D,02,00,00,
30342363,00000012,false,Rx,0,8,1D,BD,03,00,95,1F,00,00,
30343879,00000013,false,Rx,0,8,E8,91,02,00,51,B5,00,00,
30345178,00000014,false,Rx,0,4,15,04,20,01,00,00,00,00,
30397330,00000011,false,Rx,0,8,E3,0B,00,00,D1,01,00,00,
30398931,00000012,false,Rx,0,8,DD,BB,03,00,FE,1B,00,00,
30400385,00000013,false,Rx,0,8,47,91,02,00,B0,B4,00,00,
30401681,00000014,false,Rx,0,4,14,04,1F,01,00,00,00,00,
30453669,00000011,false,Rx,0,8,E3,0B,00,00,D1,01,00,00,
30455263,00000012,false,Rx,0,8,DD,BB,03,00,FE,1B,00,00,
30456835,00000013,false,Rx,0,8,47,91,02,00,B0,B4,00,00,
30458134,00000014,false,Rx,0,4,14,04,1F,01,00,00,00,00,
30510096,00000011,false,Rx,0,8,E3,0B,00,00,D1,01,00,00,
30511710,00000012,false,Rx,0,8,DD,BB,03,00,FE,1B,00,00,
30513545,00000013,false,Rx,0,8,47,91,02,00,B0,B4,00,00,
30514836,00000014,false,Rx,0,4,14,04,1F,01,00,00,00,00,
30566777,00000011,false,Rx,0,8,E3,0B,00,00,0D,02,00,00,
30568405,00000012,false,Rx,0,8,DD,BB,03,00,95,1F,00,00,
30569755,00000013,false,Rx,0,8,47,91,02,00,51,B5,00,00,
30570982,00000014,false,Rx,0,4,14,04,20,01,00,00,00,00,
30622970,00000011,false,Rx,0,8,E3,0B,00,00,95,01,00,00,
30624604,00000012,false,Rx,0,8,DD,BB,03,00,66,18,00,00,
30626167,00000013,false,Rx,0,8,47,91,02,00,0F,B4,00,00,
30627465,00000014,false,Rx,0,4,14,04,1E,01,00,00,00,00,
30679389,00000011,false,Rx,0,8,E7,0B,00,00,0D,02,00,00,
30681062,00000012,false,Rx,0,8,1D,BD,03,00,95,1F,00,00,
30682851,00000013,false,Rx,0,8,E8,91,02,00,51,B5,00,00,
30684153,00000014,false,Rx,0,4,15,04,20,01,00,00,00,00,
30735888,00000011,false,Rx,0,8,E7,0B,00,00,95,01,00,00,
30737436,00000012,false,Rx,0,8,1D,BD,03,00,66,18,00,00,
30739044,00000013,false,Rx,0,8,E8,91,02,00,0F,B4,00,00,
30740344,00000014,false,Rx,0,4,15,04,1E,01,00,00,00,00,
30792307,00000011,false,Rx,0,8,E7,0B,00,00,0D,02,00,00,
30793926,00000012,false,Rx,0,8,1D,BD,03,00,95,1F,00,00,
30795477,00000013,false,Rx,0,8,E8,91,02,00,51,B5,00,00,
30796787,00000014,false,Rx,0,4,15,04,20,01,00,00,00,00,
30848744,00000011,false,Rx,0,8,E7,0B,00,00,0D,02,00,00,
30850377,00000012,false,Rx,0,8,1D,BD,03,00,95,1F,00,00,
30852153,00000013,false,Rx,0,8,E8,91,02,00,51,B5,00,00,
30853197,00000014,false,Rx,0,4,15,04,20,01,00,00,00,00,
30905206,00000011,false,Rx,0,8,E7,0B,00,00,D1,01,00,00,
30906794,00000012,false,Rx,0,8,1D,BD,03,00,FE,1B,00,00,
30908351,00000013,false,Rx,0,8,E8,91,02,00,B0,B4,00,00,
30909652,00000014,false,Rx,0,4,15,04,1F,01,00,00,00,00,
30961635,00000011,false,Rx,0,8,E7,0B,00,00,D1,01,00,00,
30963383,00000012,false,Rx,0,8,1D,BD,03,00,FE,1B,00,00,
30964812,00000013,false,Rx,0,8,E8,91,02,00,B0,B4,00,00,
30966060,00000014,false,Rx,0,4,15,04,1F,01,00,00,00,00,
31018071,00000011,false,Rx,0,8,E7,0B,00,00,D1,01,00,00,
31019674,00000012,false,Rx,0,8,1D,BD,03,00,FE,1B,00,00,
31021222,00000013,false,Rx,0,8,E8,91,02,00,B0,B4,00,00,
31022519,00000014,false,Rx,0,4,15,04,1F,01,00,00,00,00,
31074484,00000011,false,Rx,0,8,E7,0B,00,00,0D,02,00,00,
31076104,00000012,false,Rx,0,8,1D,BD,03,00,95,1F,00,00,
31077677,00000013,false,Rx,0,8,E8,91,02,00,51,B5,00,00,
31078977,00000014,false,Rx,0,4,15,04,20,01,00,00,00,00,
31131060,00000011,false,Rx,0,8,E7,0B,00,00,0D,02,00,00,
31132633,00000012,false,Rx,0,8,1D,BD,03,00,95,1F,00,00,
31134244,00000013,false,Rx,0,8,E8,91,02,00,51,B5,00,00,
31135546,00000014,false,Rx,0,4,15,04,20,01,00,00,00,00,
31187338,00000011,false,Rx,0,8,EB,0B,00,00,0D,02,00,00,
31188963,00000012,false,Rx,0,8,5D,BE,03,00,95,1F,00,00,
31190535,00000013,false,Rx,0,8,8A,92,02,00,51,B5,00,00,
31191837,00000014,false,Rx,0,4,16,04,20,01,00,00,00,00,
31243897,00000011,false,Rx,0,8,E7,0B,00,00,95,01,00,00,
31245418,00000012,false,Rx,0,8,1D,BD,03,00,66,18,00,00,
31246969,00000013,false,Rx,0,8,E8,91,02,00,0F,B4,00,00,
31248259,00000014,false,Rx,0,4,15,04,1E,01,00,00,00,00,
31300516,00000011,false,Rx,0,8,E3,0B,00,00,95,01,00,00,
31302122,00000012,false,Rx,0,8,DD,BB,03,00,66,18,00,00,
31303448,00000013,false,Rx,0,8,47,91,02,00,0F,B4,00,00,
31304685,00000014,false,Rx,0,4,14,04,1E,01,00,00,00,00,
31356694,00000011,false,Rx,0,8,E7,0B,00,00,95,01,00,00,
31358315,00000012,false,Rx,0,8,1D,BD,03,00,66,18,00,00,
31359887,00000013,false,Rx,0,8,E8,91,02,00,0F,B4,00,00,
31361186,00000014,false,Rx,0,4,15,04,1E,01,00,00,00,00,
31413317,00000011,false,Rx,0,8,E7,0B,00,00,95,01,00,00,
31414869,00000012,false,Rx,0,8,1D,BD,03,00,66,18,00,00,
31416391,00000013,false,Rx,0,8,E8,91,02,00,0F,B4,00,00,
31417695,00000014,false,Rx,0,4,15,04,1E,01,00,00,00,00,
31469633,00000011,false,Rx,0,8,E7,0B,00,00,95,01,00,00,
31471212,00000012,false,Rx,0,8,1D,BD,03,00,66,18,00,00,
31472815,00000013,false,Rx,0,8,E8,91,02,00,0F,B4,00,00,
31474113,00000014,false,Rx,0,4,15,04,1E,01,00,00,00,00,
31526096,00000011,false,Rx,0,8,EF,0B,00,00,95,01,00,00,
31527720,00000012,false,Rx,0,8,9D,BF,03,00,66,18,00,00,
31529412,00000013,false,Rx,0,8,2B,93,02,00,0F,B4,00,00,
31530744,00000014,false,Rx,0,4,17,04,1E,01,00,00,00,00,
31582789,00000011,false,Rx,0,8,E7,0B,00,00,95,01,00,00,
31584346,00000012,false,Rx,0,8,1D,BD,03,00,66,18,00,00,
31585721,00000013,false,Rx,0,8,E8,91,02,00,0F,B4,00,00,
31586999,00000014,false,Rx,0,4,15,04,1E,01,00,00,00,00,
31638997,00000011,false,Rx,0,8,EB,0B,00,00,D1,01,00,00,
31640599,00000012,false,Rx,0,8,5D,BE,03,00,FE,1B,00,00,
31642181,00000013,false,Rx,0,8,8A,92,02,00,B0,B4,00,00,
31643614,00000014,false,Rx,0,4,16,04,1F,01,00,00,00,00,
31695606,00000011,false,Rx,0,8,EF,0B,00,00,95,01,00,00,
31697046,00000012,false,Rx,0,8,9D,BF,03,00,66,18,00,00,
31698837,00000013,false,Rx,0,8,2B,93,02,00,0F,B4,00,00,
31700137,00000014,false,Rx,0,4,17,04,1E,01,00,00,00,00,
31752094,00000011,false,Rx,0,8,0F,0C,00,00,D1,01,00,00,
31753478,00000012,false,Rx,0,8,9C,C9,03,00,FE,1B,00,00,
31755046,00000013,false,Rx,0,8,34,98,02,00,B0,B4,00,00,
31756348,00000014,false,Rx,0,4,1F,04,1F,01,00,00,00,00,
31808323,00000011,false,Rx,0,8,D6,0C,00,00,95,01,00,00,
31809942,00000012,false,Rx,0,8,1A,08,04,00,66,18,00,00,
31811647,00000013,false,Rx,0,8,AF,B7,02,00,0F,B4,00,00,
31813071,00000014,false,Rx,0,4,51,04,1E,01,00,00,00,00,
31864843,00000011,false,Rx,0,8,71,0D,00,00,D1,01,00,00,
31866364,00000012,false,Rx,0,8,D9,38,04,00,FE,1B,00,00,
31867936,00000013,false,Rx,0,8,3C,D0,02,00,B0,B4,00,00,
31869237,00000014,false,Rx,0,4,78,04,1F,01,00,00,00,00,
31921251,00000011,false,Rx,0,8,99,0D,00,00,D1,01,00,00,
31922871,00000012,false,Rx,0,8,58,45,04,00,FE,1B,00,00,
31924419,00000013,false,Rx,0,8,88,D6,02,00,B0,B4,00,00,
31925716,00000014,false,Rx,0,4,82,04,1F,01,00,00,00,00,
31977971,00000011,false,Rx,0,8,AD,0D,00,00,D1,01,00,00,
31979442,00000012,false,Rx,0,8,98,4B,04,00,FE,1B,00,00,
31980918,00000013,false,Rx,0,8,AE,D9,02,00,B0,B4,00,00,
31982216,00000014,false,Rx,0,4,87,04,1F,01,00,00,00,00,
32034225,00000011,false,Rx,0,8,B1,0D,00,00,95,01,00,00,
32035803,00000012,false,Rx,0,8,D8,4C,04,00,66,18,00,00,
32037382,00000013,false,Rx,0,8,4F,DA,02,00,0F,B4,00,00,
32038673,00000014,false,Rx,0,4,88,04,1E,01,00,00,00,00,
32090650,00000011,false,Rx,0,8,BD,0D,00,00,D1,01,00,00,
32092214,00000012,false,Rx,0,8,98,50,04,00,FE,1B,00,00,
32093822,00000013,false,Rx,0,8,33,DC,02,00,B0,B4,00,00,
32095375,00000014,false,Rx,0,4,8B,04,1F,01,00,00,00,00,
32147353,00000011,false,Rx,0,8,B9,0D,00,00,95,01,00,00,
32148720,00000012,false,Rx,0,8,58,4F,04,00,66,18,00,00,
32150377,00000013,false,Rx,0,8,92,DB,02,00,0F,B4,00,00,
32151674,00000014,false,Rx,0,4,8A,04,1E,01,00,00,00,00,
32203573,00000011,false,Rx,0,8,C1,0D,00,00,0D,02,00,00,
32205152,00000012,false,Rx,0,8,D8,51,04,00,95,1F,00,00,
32206722,00000013,false,Rx,0,8,D4,DC,02,00,51,B5,00,00,
32207994,00000014,false,Rx,0,4,8C,04,20,01,00,00,00,00,
32260021,00000011,false,Rx,0,8,C5,0D,00,00,95,01,00,00,
32261593,00000012,false,Rx,0,8,18,53,04,00,66,18,00,00,
32263279,00000013,false,Rx,0,8,75,DD,02,00,0F,B4,00,00,
32264522,00000014,false,Rx,0,4,8D,04,1E,01,00,00,00,00,
32316559,00000011,false,Rx,0,8,CD,0D,00,00,D1,01,00,00,
32318242,00000012,false,Rx,0,8,98,55,04,00,FE,1B,00,00,
32319654,00000013,false,Rx,0,8,B7,DE,02,00,B0,B4,00,00,
32320934,00000014,false,Rx,0,4,8F,04,1F,01,00,00,00,00,
32372881,00000011,false,Rx,0,8,DC,0D,00,00,D1,01,00,00,
32374499,00000012,false,Rx,0,8,97,5A,04,00,FE,1B,00,00,
32376072,00000013,false,Rx,0,8,3C,E1,02,00,B0,B4,00,00,
32377347,00000014,false,Rx,0,4,93,04,1F,01,00,00,00,00,
32429577,00000011,false,Rx,0,8,EC,0D,00,00,95,01,00,00,
32431178,00000012,false,Rx,0,8,97,5F,04,00,66,18,00,00,
32432527,00000013,false,Rx,0,8,C1,E3,02,00,0F,B4,00,00,
32433794,00000014,false,Rx,0,4,97,04,1E,01,00,00,00,00,
32485752,00000011,false,Rx,0,8,00,0E,00,00,95,01,00,00,
32487346,00000012,false,Rx,0,8,D7,65,04,00,66,18,00,00,
32488923,00000013,false,Rx,0,8,E7,E6,02,00,0F,B4,00,00,
32490221,00000014,false,Rx,0,4,9C,04,1E,01,00,00,00,00,
32542176,00000011,false,Rx,0,8,18,0E,00,00,95,01,00,00,
32543859,00000012,false,Rx,0,8,57,6D,04,00,66,18,00,00,
32545347,00000013,false,Rx,0,8,AE,EA,02,00,0F,B4,00,00,
32546645,00000014,false,Rx,0,4,A2,04,1E,01,00,00,00,00,
32598811,00000011,false,Rx,0,8,34,0E,00,00,95,01,00,00,
32600492,00000012,false,Rx,0,8,16,76,04,00,66,18,00,00,
32601926,00000013,false,Rx,0,8,16,EF,02,00,0F,B4,00,00,
32603108,00000014,false,Rx,0,4,A9,04,1E,01,00,00,00,00,
32655108,00000011,false,Rx,0,8,48,0E,00,00,95,01,00,00,
32656696,00000012,false,Rx,0,8,56,7C,04,00,66,18,00,00,
32658270,00000013,false,Rx,0,8,3C,F2,02,00,0F,B4,00,00,
32659621,00000014,false,Rx,0,4,AE,04,1E,01,00,00,00,00,
32711626,00000011,false,Rx,0,8,58,0E,00,00,95,01,00,00,
32713175,00000012,false,Rx,0,8,56,81,04,00,66,18,00,00,
32714972,00000013,false,Rx,0,8,C0,F4,02,00,0F,B4,00,00,
32716216,00000014,false,Rx,0,4,B2,04,1E,01,00,00,00,00,
32768227,00000011,false,Rx,0,8,64,0E,00,00,95,01,00,00,
32769596,00000012,false,Rx,0,8,16,85,04,00,66,18,00,00,
32771148,00000013,false,Rx,0,8,A4,F6,02,00,0F,B4,00,00,
32772446,00000014,false,Rx,0,4,B5,04,1E,01,00,00,00,00,
32824456,00000011,false,Rx,0,8,70,0E,00,00,95,01,00,00,
32826061,00000012,false,Rx,0,8,D6,88,04,00,66,18,00,00,
32827610,00000013,false,Rx,0,8,87,F8,02,00,0F,B4,00,00,
32828907,00000014,false,Rx,0,4,B8,04,1E,01,00,00,00,00,
32881129,00000011,false,Rx,0,8,78,0E,00,00,D1,01,00,00,
32882742,00000012,false,Rx,0,8,56,8B,04,00,FE,1B,00,00,
32884085,00000013,false,Rx,0,8,CA,F9,02,00,B0,B4,00,00,
32885382,00000014,false,Rx,0,4,BA,04,1F,01,00,00,00,00,
32937305,00000011,false,Rx,0,8,84,0E,00,00,95,01,00,00,
32938956,00000012,false,Rx,0,8,15,8F,04,00,66,18,00,00,
32940503,00000013,false,Rx,0,8,AD,FB,02,00,0F,B4,00,00,
32941801,00000014,false,Rx,0,4,BD,04,1E,01,00,00,00,00,
32993734,00000011,false,Rx,0,8,84,0E,00,00,D1,01,00,00,
32995529,00000012,false,Rx,0,8,15,8F,04,00,FE,1B,00,00,
32997177,00000013,false,Rx,0,8,AD,FB,02,00,B0,B4,00,00,
32998478,00000014,false,Rx,0,4,BD,04,1F,01,00,00,00,00,
33050206,00000011,false,Rx,0,8,8C,0E,00,00,D1,01,00,00,
33051751,00000012,false,Rx,0,8,95,91,04,00,FE,1B,00,00,
33053361,00000013,false,Rx,0,8,F0,FC,02,00,B0,B4,00,00,
33054665,00000014,false,Rx,0,4,BF,04,1F,01,00,00,00,00,
33106643,00000011,false,Rx,0,8,90,0E,00,00,95,01,00,00,
33108233,00000012,false,Rx,0,8,D5,92,04,00,66,18,00,00,
33109809,00000013,false,Rx,0,8,91,FD,02,00,0F,B4,00,00,
33111112,00000014,false,Rx,0,4,C0,04,1E,01,00,00,00,00,
33163060,00000011,false,Rx,0,8,94,0E,00,00,D1,01,00,00,
33164705,00000012,false,Rx,0,8,15,94,04,00,FE,1B,00,00,
33166272,00000013,false,Rx,0,8,32,FE,02,00,B0,B4,00,00,
33167566,00000014,false,Rx,0,4,C1,04,1F,01,00,00,00,00,
33219570,00000011,false,Rx,0,8,97,0E,00,00,95,01,00,00,
33221106,00000012,false,Rx,0,8,55,95,04,00,66,18,00,00,
33222714,00000013,false,Rx,0,8,D3,FE,02,00,0F,B4,00,00,
33224018,00000014,false,Rx,0,4,C2,04,1E,01,00,00,00,00,
33275999,00000011,false,Rx,0,8,9B,0E,00,00,95,01,00,00,
33277617,00000012,false,Rx,0,8,95,96,04,00,66,18,00,00,
33279183,00000013,false,Rx,0,8,74,FF,02,00,0F,B4,00,00,
33280481,00000014,false,Rx,0,4,C3,04,1E,01,00,00,00,00,
33332460,00000011,false,Rx,0,8,9B,0E,00,00,95,01,00,00,
33334081,00000012,false,Rx,0,8,95,96,04,00,66,18,00,00,
33335635,00000013,false,Rx,0,8,74,FF,02,00,0F,B4,00,00,
33336933,00000014,false,Rx,0,4,C3,04,1E,01,00,00,00,00,
33388858,00000011,false,Rx,0,8,9F,0E,00,00,95,01,00,00,
33390515,00000012,false,Rx,0,8,D5,97,04,00,66,18,00,00,
33392067,00000013,false,Rx,0,8,16,00,03,00,0F,B4,00,00,
33393368,00000014,false,Rx,0,4,C4,04,1E,01,00,00,00,00,
33445302,00000011,false,Rx,0,8,A7,0E,00,00,95,01,00,00,
33447152,00000012,false,Rx,0,8,55,9A,04,00,66,18,00,00,
33448506,00000013,false,Rx,0,8,58,01,03,00,0F,B4,00,00,
33449809,00000014,false,Rx,0,4,C6,04,1E,01,00,00,00,00,
33501658,00000011,false,Rx,0,8,A3,0E,00,00,95,01,00,00,
33503310,00000012,false,Rx,0,8,15,99,04,00,66,18,00,00,
33504890,00000013,false,Rx,0,8,B7,00,03,00,0F,B4,00,00,
33506199,00000014,false,Rx,0,4,C5,04,1E,01,00,00,00,00,
33558113,00000011,false,Rx,0,8,A7,0E,00,00,D1,01,00,00,
33559675,00000012,false,Rx,0,8,55,9A,04,00,FE,1B,00,00,
33561351,00000013,false,Rx,0,8,58,01,03,00,B0,B4,00,00,
33562783,00000014,false,Rx,0,4,C6,04,1F,01,00,00,00,00,
33614571,00000011,false,Rx,0,8,AB,0E,00,00,D1,01,00,00,
33616185,00000012,false,Rx,0,8,95,9B,04,00,FE,1B,00,00,
33617958,00000013,false,Rx,0,8,F9,01,03,00,B0,B4,00,00,
33619024,00000014,false,Rx,0,4,C7,04,1F,01,00,00,00,00,
33670953,00000011,false,Rx,0,8,AB,0E,00,00,95,01,00,00,
33672608,00000012,false,Rx,0,8,95,9B,04,00,66,18,00,00,
33674161,00000013,false,Rx,0,8,F9,01,03,00,0F,B4,00,00,
33675456,00000014,false,Rx,0,4,C7,04,1E,01,00,00,00,00,
33727600,00000011,false,Rx,0,8,AF,0E,00,00,D1,01,00,00,
33729287,00000012,false,Rx,0,8,D5,9C,04,00,FE,1B,00,00,
33730860,00000013,false,Rx,0,8,9A,02,03,00,B0,B4,00,00,
33731881,00000014,false,Rx,0,4,C8,04,1F,01,00,00,00,00,
33783942,00000011,false,Rx,0,8,AF,0E,00,00,D1,01,00,00,
33785446,00000012,false,Rx,0,8,D5,9C,04,00,FE,1B,00,00,
33787044,00000013,false,Rx,0,8,9A,02,03,00,B0,B4,00,00,
33788304,00000014,false,Rx,0,4,C8,04,1F,01,00,00,00,00,
33840287,00000011,false,Rx,0,8,B3,0E,00,00,95,01,00,00,
33841911,00000012,false,Rx,0,8,15,9E,04,00,66,18,00,00,
33843481,00000013,false,Rx,0,8,3B,03,03,00,0F,B4,00,00,
33845007,00000014,false,Rx,0,4,C9,04,1E,01,00,00,00,00,
33896764,00000011,false,Rx,0,8,B3,0E,00,00,95,01,00,00,
33898359,00000012,false,Rx,0,8,15,9E,04,00,66,18,00,00,
33900151,00000013,false,Rx,0,8,3B,03,03,00,0F,B4,00,00,
33901472,00000014,false,Rx,0,4,C9,04,1E,01,00,00,00,00,
33953166,00000011,false,Rx,0,8,B7,0E,00,00,D1,01,00,00,
33954758,00000012,false,Rx,0,8,55,9F,04,00,FE,1B,00,00,
33956334,00000013,false,Rx,0,8,DD,03,03,00,B0,B4,00,00,
33957633,00000014,false,Rx,0,4,CA,04,1F,01,00,00,00,00,
34009639,00000011,false,Rx,0,8,B7,0E,00,00,95,01,00,00,
34011252,00000012,false,Rx,0,8,55,9F,04,00,66,18,00,00,
34012816,00000013,false,Rx,0,8,DD,03,03,00,0F,B4,00,00,
34014111,00000014,false,Rx,0,4,CA,04,1E,01,00,00,00,00,
34066119,00000011,false,Rx,0,8,B7,0E,00,00,95,01,00,00,
34067685,00000012,false,Rx,0,8,55,9F,04,00,66,18,00,00,
34069287,00000013,false,Rx,0,8,DD,03,03,00,0F,B4,00,00,
34070534,00000014,false,Rx,0,4,CA,04,1E,01,00,00,00,00,
34122516,00000011,false,Rx,0,8,BB,0E,00,00,95,01,00,00,
34124138,00000012,false,Rx,0,8,95,A0,04,00,66,18,00,00,
34125686,00000013,false,Rx,0,8,7E,04,03,00,0F,B4,00,00,
34126987,00000014,false,Rx,0,4,CB,04,1E,01,00,00,00,00,
34179009,00000011,false,Rx,0,8,BB,0E,00,00,95,01,00,00,
34180619,00000012,false,Rx,0,8,95,A0,04,00,66,18,00,00,
34182209,00000013,false,Rx,0,8,7E,04,03,00,0F,B4,00,00,
34183627,00000014,false,Rx,0,4,CB,04,1E,01,00,00,00,00,
34235495,00000011,false,Rx,0,8,C3,0E,00,00,95,01,00,00,
34237050,00000012,false,Rx,0,8,15,A3,04,00,66,18,00,00,
34238610,00000013,false,Rx,0,8,C0,05,03,00,0F,B4,00,00,
34239953,00000014,false,Rx,0,4,CD,04,1E,01,00,00,00,00,
34291921,00000011,false,Rx,0,8,D7,0E,00,00,95,01,00,00,
34293538,00000012,false,Rx,0,8,55,A9,04,00,66,18,00,00,
34295111,00000013,false,Rx,0,8,E6,08,03,00,0F,B4,00,00,
34296390,00000014,false,Rx,0,4,D2,04,1E,01,00,00,00,00,
34348442,00000011,false,Rx,0,8,07,0F,00,00,D1,01,00,00,
34350036,00000012,false,Rx,0,8,54,B8,04,00,FE,1B,00,00,
34351620,00000013,false,Rx,0,8,74,10,03,00,B0,B4,00,00,
34352867,00000014,false,Rx,0,4,DE,04,1F,01,00,00,00,00,
34404898,00000011,false,Rx,0,8,3B,0F,00,00,95,01,00,00,
34406489,00000012,false,Rx,0,8,93,C8,04,00,66,18,00,00,
34408065,00000013,false,Rx,0,8,A3,18,03,00,0F,B4,00,00,
34409363,00000014,false,Rx,0,4,EB,04,1E,01,00,00,00,00,
34461392,00000011,false,Rx,0,8,62,0F,00,00,95,01,00,00,
34463140,00000012,false,Rx,0,8,13,D5,04,00,66,18,00,00,
34464560,00000013,false,Rx,0,8,EF,1E,03,00,0F,B4,00,00,
34465839,00000014,false,Rx,0,4,F5,04,1E,01,00,00,00,00,
34517842,00000011,false,Rx,0,8,82,0F,00,00,95,01,00,00,
34519403,00000012,false,Rx,0,8,13,DF,04,00,66,18,00,00,
34520972,00000013,false,Rx,0,8,F8,23,03,00,0F,B4,00,00,
34522308,00000014,false,Rx,0,4,FD,04,1E,01,00,00,00,00,
34574273,00000011,false,Rx,0,8,92,0F,00,00,95,01,00,00,
34575868,00000012,false,Rx,0,8,13,E4,04,00,66,18,00,00,
34577439,00000013,false,Rx,0,8,7D,26,03,00,0F,B4,00,00,
34578736,00000014,false,Rx,0,4,01,05,1E,01,00,00,00,00,
34630924,00000011,false,Rx,0,8,9E,0F,00,00,D1,01,00,00,
34632385,00000012,false,Rx,0,8,D2,E7,04,00,FE,1B,00,00,
34633940,00000013,false,Rx,0,8,61,28,03,00,B0,B4,00,00,
34635219,00000014,false,Rx,0,4,04,05,1F,01,00,00,00,00,
34687223,00000011,false,Rx,0,8,A6,0F,00,00,D1,01,00,00,
34688846,00000012,false,Rx,0,8,52,EA,04,00,FE,1B,00,00,
34690417,00000013,false,Rx,0,8,A3,29,03,00,B0,B4,00,00,
34691693,00000014,false,Rx,0,4,06,05,1F,01,00,00,00,00,
34743709,00000011,false,Rx,0,8,AE,0F,00,00,95,01,00,00,
34745314,00000012,false,Rx,0,8,D2,EC,04,00,66,18,00,00,
34746860,00000013,false,Rx,0,8,E5,2A,03,00,0F,B4,00,00,
34748188,00000014,false,Rx,0,4,08,05,1E,01,00,00,00,00,
34800292,00000011,false,Rx,0,8,B6,0F,00,00,D1,01,00,00,
34801810,00000012,false,Rx,0,8,52,EF,04,00,FE,1B,00,00,
34803371,00000013,false,Rx,0,8,28,2C,03,00,B0,B4,00,00,
34804686,00000014,false,Rx,0,4,0A,05,1F,01,00,00,00,00,
34856663,00000011,false,Rx,0,8,BA,0F,00,00,D1,01,00,00,
34858284,00000012,false,Rx,0,8,92,F0,04,00,FE,1B,00,00,
34859860,00000013,false,Rx,0,8,C9,2C,03,00,B0,B4,00,00,
34861158,00000014,false,Rx,0,4,0B,05,1F,01,00,00,00,00,
34913183,00000011,false,Rx,0,8,BE,0F,00,00,0D,02,00,00,
34914833,00000012,false,Rx,0,8,D2,F1,04,00,95,1F,00,00,
34916410,00000013,false,Rx,0,8,6A,2D,03,00,51,B5,00,00,
34917743,00000014,false,Rx,0,4,0C,05,20,01,00,00,00,00,
34969589,00000011,false,Rx,0,8,C2,0F,00,00,95,01,00,00,
34971215,00000012,false,Rx,0,8,12,F3,04,00,66,18,00,00,
34972786,00000013,false,Rx,0,8,0B,2E,03,00,0F,B4,00,00,
34974061,00000014,false,Rx,0,4,0D,05,1E,01,00,00,00,00,
35026096,00000011,false,Rx,0,8,C6,0F,00,00,95,01,00,00,
35027719,00000012,false,Rx,0,8,52,F4,04,00,66,18,00,00,
35029297,00000013,false,Rx,0,8,AC,2E,03,00,0F,B4,00,00,
35030562,00000014,false,Rx,0,4,0E,05,1E,01,00,00,00,00,
35082544,00000011,false,Rx,0,8,C6,0F,00,00,D1,01,00,00,
35084164,00000012,false,Rx,0,8,52,F4,04,00,FE,1B,00,00,
35085722,00000013,false,Rx,0,8,AC,2E,03,00,B0,B4,00,00,
35087037,00000014,false,Rx,0,4,0E,05,1F,01,00,00,00,00,
35138983,00000011,false,Rx,0,8,CA,0F,00,00,D1,01,00,00,
35140587,00000012,false,Rx,0,8,92,F5,04,00,FE,1B,00,00,
35142215,00000013,false,Rx,0,8,4D,2F,03,00,B0,B4,00,00,
35143564,00000014,false,Rx,0,4,0F,05,1F,01,00,00,00,00,
35195582,00000011,false,Rx,0,8,CE,0F,00,00,95,01,00,00,
35197115,00000012,false,Rx,0,8,D2,F6,04,00,66,18,00,00,
35198836,00000013,false,Rx,0,8,EF,2F,03,00,0F,B4,00,00,
35200189,00000014,false,Rx,0,4,10,05,1E,01,00,00,00,00,
35251973,00000011,false,Rx,0,8,D2,0F,00,00,95,01,00,00,
35253516,00000012,false,Rx,0,8,12,F8,04,00,66,18,00,00,
35255094,00000013,false,Rx,0,8,90,30,03,00,0F,B4,00,00,
35256391,00000014,false,Rx,0,4,11,05,1E,01,00,00,00,00,
35308367,00000011,false,Rx,0,8,D6,0F,00,00,95,01,00,00,
35309985,00000012,false,Rx,0,8,52,F9,04,00,66,18,00,00,
35311614,00000013,false,Rx,0,8,31,31,03,00,0F,B4,00,00,
35312890,00000014,false,Rx,0,4,12,05,1E,01,00,00,00,00,
35364902,00000011,false,Rx,0,8,D6,0F,00,00,D1,01,00,00,
35366622,00000012,false,Rx,0,8,52,F9,04,00,FE,1B,00,00,
35368072,00000013,false,Rx,0,8,31,31,03,00,B0,B4,00,00,
35369337,00000014,false,Rx,0,4,12,05,1F,01,00,00,00,00,
35421321,00000011,false,Rx,0,8,D6,0F,00,00,95,01,00,00,
35422984,00000012,false,Rx,0,8,52,F9,04,00,66,18,00,00,
35424559,00000013,false,Rx,0,8,31,31,03,00,0F,B4,00,00,
35425829,00000014,false,Rx,0,4,12,05,1E,01,00,00,00,00,
35477814,00000011,false,Rx,0,8,DA,0F,00,00,95,01,00,00,
35479678,00000012,false,Rx,0,8,92,FA,04,00,66,18,00,00,
35481239,00000013,false,Rx,0,8,D2,31,03,00,0F,B4,00,00,
35482537,00000014,false,Rx,0,4,13,05,1E,01,00,00,00,00,
35534320,00000011,false,Rx,0,8,DA,0F,00,00,95,01,00,00,
35535912,00000012,false,Rx,0,8,92,FA,04,00,66,18,00,00,
35537476,00000013,false,Rx,0,8,D2,31,03,00,0F,B4,00,00,
35538778,00000014,false,Rx,0,4,13,05,1E,01,00,00,00,00,
35590749,00000011,false,Rx,0,8,DE,0F,00,00,95,01,00,00,
35592384,00000012,false,Rx,0,8,D2,FB,04,00,66,18,00,00,
35593942,00000013,false,Rx,0,8,73,32,03,00,0F,B4,00,00,
35595416,00000014,false,Rx,0,4,14,05,1E,01,00,00,00,00,
35647496,00000011,false,Rx,0,8,E2,0F,00,00,95,01,00,00,
35648897,00000012,false,Rx,0,8,12,FD,04,00,66,18,00,00,
35650684,00000013,false,Rx,0,8,14,33,03,00,0F,B4,00,00,
35651700,00000014,false,Rx,0,4,15,05,1E,01,00,00,00,00,
35703671,00000011,false,Rx,0,8,E2,0F,00,00,95,01,00,00,
35705304,00000012,false,Rx,0,8,12,FD,04,00,66,18,00,00,
35706863,00000013,false,Rx,0,8,14,33,03,00,0F,B4,00,00,
35708165,00000014,false,Rx,0,4,15,05,1E,01,00,00,00,00,
35760147,00000011,false,Rx,0,8,E2,0F,00,00,95,01,00,00,
35761765,00000012,false,Rx,0,8,12,FD,04,00,66,18,00,00,
35763314,00000013,false,Rx,0,8,14,33,03,00,0F,B4,00,00,
35764615,00000014,false,Rx,0,4,15,05,1E,01,00,00,00,00,
35816624,00000011,false,Rx,0,8,E6,0F,00,00,D1,01,00,00,
35818190,00000012,false,Rx,0,8,52,FE,04,00,FE,1B,00,00,
35819742,00000013,false,Rx,0,8,B6,33,03,00,B0,B4,00,00,
35821051,00000014,false,Rx,0,4,16,05,1F,01,00,00,00,00,
35873117,00000011,false,Rx,0,8,E6,0F,00,00,95,01,00,00,
35874882,00000012,false,Rx,0,8,52,FE,04,00,66,18,00,00,
35876344,00000013,false,Rx,0,8,B6,33,03,00,0F,B4,00,00,
35877645,00000014,false,Rx,0,4,16,05,1E,01,00,00,00,00,
35929655,00000011,false,Rx,0,8,E6,0F,00,00,95,01,00,00,
35931476,00000012,false,Rx,0,8,52,FE,04,00,66,18,00,00,
35933027,00000013,false,Rx,0,8,B6,33,03,00,0F,B4,00,00,
35934151,00000014,false,Rx,0,4,16,05,1E,01,00,00,00,00,
35985998,00000011,false,Rx,0,8,E6,0F,00,00,95,01,00,00,
35987656,00000012,false,Rx,0,8,52,FE,04,00,66,18,00,00,
35989232,00000013,false,Rx,0,8,B6,33,03,00,0F,B4,00,00,
35990527,00000014,false,Rx,0,4,16,05,1E,01,00,00,00,00,
36042735,00000011,false,Rx,0,8,EA,0F,00,00,D1,01,00,00,
36044317,00000012,false,Rx,0,8,92,FF,04,00,FE,1B,00,00,
36045650,00000013,false,Rx,0,8,57,34,03,00,B0,B4,00,00,
36046929,00000014,false,Rx,0,4,17,05,1F,01,00,00,00,00,
36099183,00000011,false,Rx,0,8,EE,0F,00,00,95,01,00,00,
36100571,00000012,false,Rx,0,8,D1,00,05,00,66,18,00,00,
36102074,00000013,false,Rx,0,8,F8,34,03,00,0F,B4,00,00,
36103410,00000014,false,Rx,0,4,18,05,1E,01,00,00,00,00,
36155382,00000011,false,Rx,0,8,EA,0F,00,00,95,01,00,00,
36157003,00000012,false,Rx,0,8,92,FF,04,00,66,18,00,00,
36158551,00000013,false,Rx,0,8,57,34,03,00,0F,B4,00,00,
36159853,00000014,false,Rx,0,4,17,05,1E,01,00,00,00,00,
36211830,00000011,false,Rx,0,8,EE,0F,00,00,95,01,00,00,
36213447,00000012,false,Rx,0,8,D1,00,05,00,66,18,00,00,
36214992,00000013,false,Rx,0,8,F8,34,03,00,0F,B4,00,00,
36216292,00000014,false,Rx,0,4,18,05,1E,01,00,00,00,00,
36268287,00000011,false,Rx,0,8,F2,0F,00,00,95,01,00,00,
36269873,00000012,false,Rx,0,8,11,02,05,00,66,18,00,00,
36271447,00000013,false,Rx,0,8,99,35,03,00,0F,B4,00,00,
36272746,00000014,false,Rx,0,4,19,05,1E,01,00,00,00,00,
36324916,00000011,false,Rx,0,8,F6,0F,00,00,D1,01,00,00,
36326293,00000012,false,Rx,0,8,51,03,05,00,FE,1B,00,00,
36327867,00000013,false,Rx,0,8,3A,36,03,00,B0,B4,00,00,
36329208,00000014,false,Rx,0,4,1A,05,1F,01,00,00,00,00,
36381230,00000011,false,Rx,0,8,F2,0F,00,00,95,01,00,00,
36383047,00000012,false,Rx,0,8,11,02,05,00,66,18,00,00,
36384401,00000013,false,Rx,0,8,99,35,03,00,0F,B4,00,00,
36385647,00000014,false,Rx,0,4,19,05,1E,01,00,00,00,00,
36437655,00000011,false,Rx,0,8,F6,0F,00,00,95,01,00,00,
36439300,00000012,false,Rx,0,8,51,03,05,00,66,18,00,00,
36440875,00000013,false,Rx,0,8,3A,36,03,00,0F,B4,00,00,
36442157,00000014,false,Rx,0,4,1A,05,1E,01,00,00,00,00,
36494301,00000011,false,Rx,0,8,F6,0F,00,00,95,01,00,00,
36495776,00000012,false,Rx,0,8,51,03,05,00,66,18,00,00,
36497376,00000013,false,Rx,0,8,3A,36,03,00,0F,B4,00,00,
36498770,00000014,false,Rx,0,4,1A,05,1E,01,00,00,00,00,
36550638,00000011,false,Rx,0,8,FA,0F,00,00,95,01,00,00,
36552225,00000012,false,Rx,0,8,91,04,05,00,66,18,00,00,
36553832,00000013,false,Rx,0,8,DC,36,03,00,0F,B4,00,00,
36555103,00000014,false,Rx,0,4,1B,05,1E,01,00,00,00,00,
36607114,00000011,false,Rx,0,8,FA,0F,00,00,95,01,00,00,
36608740,00000012,false,Rx,0,8,91,04,05,00,66,18,00,00,
36610246,00000013,false,Rx,0,8,DC,36,03,00,0F,B4,00,00,
36611589,00000014,false,Rx,0,4,1B,05,1E,01,00,00,00,00,
36663684,00000011,false,Rx,0,8,F6,0F,00,00,95,01,00,00,
36665177,00000012,false,Rx,0,8,51,03,05,00,66,18,00,00,
36666752,00000013,false,Rx,0,8,3A,36,03,00,0F,B4,00,00,
36667997,00000014,false,Rx,0,4,1A,05,1E,01,00,00,00,00,
36720002,00000011,false,Rx,0,8,FA,0F,00,00,95,01,00,00,
36721629,00000012,false,Rx,0,8,91,04,05,00,66,18,00,00,
36723203,00000013,false,Rx,0,8,DC,36,03,00,0F,B4,00,00,
36724505,00000014,false,Rx,0,4,1B,05,1E,01,00,00,00,00,
36776459,00000011,false,Rx,0,8,FA,0F,00,00,95,01,00,00,
36778250,00000012,false,Rx,0,8,91,04,05,00,66,18,00,00,
36779698,00000013,false,Rx,0,8,DC,36,03,00,0F,B4,00,00,
36780976,00000014,false,Rx,0,4,1B,05,1E,01,00,00,00,00,
36833161,00000011,false,Rx,0,8,FA,0F,00,00,95,01,00,00,
36834549,00000012,false,Rx,0,8,91,04,05,00,66,18,00,00,
36836110,00000013,false,Rx,0,8,DC,36,03,00,0F,B4,00,00,
36837410,00000014,false,Rx,0,4,1B,05,1E,01,00,00,00,00,
36889384,00000011,false,Rx,0,8,FA,0F,00,00,95,01,00,00,
36891004,00000012,false,Rx,0,8,91,04,05,00,66,18,00,00,
36892550,00000013,false,Rx,0,8,DC,36,03,00,0F,B4,00,00,
36893853,00000014,false,Rx,0,4,1B,05,1E,01,00,00,00,00,
36945897,00000011,false,Rx,0,8,FA,0F,00,00,59,01,00,00,
36947675,00000012,false,Rx,0,8,91,04,05,00,CF,14,00,00,
36949280,00000013,false,Rx,0,8,DC,36,03,00,6E,B3,00,00,
36950492,00000014,false,Rx,0,4,1B,05,1D,01,00,00,00,00,
37002330,00000011,false,Rx,0,8,FE,0F,00,00,95,01,00,00,
37003913,00000012,false,Rx,0,8,D1,05,05,00,66,18,00,00,
37005493,00000013,false,Rx,0,8,7D,37,03,00,0F,B4,00,00,
37006762,00000014,false,Rx,0,4,1C,05,1E,01,00,00,00,00,
37058782,00000011,false,Rx,0,8,02,10,00,00,95,01,00,00,
37060400,00000012,false,Rx,0,8,11,07,05,00,66,18,00,00,
37062209,00000013,false,Rx,0,8,1E,38,03,00,0F,B4,00,00,
37063531,00000014,false,Rx,0,4,1D,05,1E,01,00,00,00,00,
37115318,00000011,false,Rx,0,8,02,10,00,00,95,01,00,00,
37117087,00000012,false,Rx,0,8,11,07,05,00,66,18,00,00,
37118436,00000013,false,Rx,0,8,1E,38,03,00,0F,B4,00,00,
37119726,00000014,false,Rx,0,4,1D,05,1E,01,00,00,00,00,
37171761,00000011,false,Rx,0,8,FE,0F,00,00,95,01,00,00,
37173353,00000012,false,Rx,0,8,D1,05,05,00,66,18,00,00,
37174899,00000013,false,Rx,0,8,7D,37,03,00,0F,B4,00,00,
37176256,00000014,false,Rx,0,4,1C,05,1E,01,00,00,00,00,
37228212,00000011,false,Rx,0,8,FE,0F,00,00,95,01,00,00,
37229866,00000012,false,Rx,0,8,D1,05,05,00,66,18,00,00,
37231681,00000013,false,Rx,0,8,7D,37,03,00,0F,B4,00,00,
37232962,00000014,false,Rx,0,4,1C,05,1E,01,00,00,00,00,
37284718,00000011,false,Rx,0,8,02,10,00,00,95,01,00,00,
37286305,00000012,false,Rx,0,8,11,07,05,00,66,18,00,00,
37287862,00000013,false,Rx,0,8,1E,38,03,00,0F,B4,00,00,
37289138,00000014,false,Rx,0,4,1D,05,1E,01,00,00,00,00,
37341176,00000011,false,Rx,0,8,02,10,00,00,59,01,00,00,
37342728,00000012,false,Rx,0,8,11,07,05,00,CF,14,00,00,
37344345,00000013,false,Rx,0,8,1E,38,03,00,6E,B3,00,00,
37345613,00000014,false,Rx,0,4,1D,05,1D,01,00,00,00,00,
37397665,00000011,false,Rx,0,8,02,10,00,00,95,01,00,00,
37399335,00000012,false,Rx,0,8,11,07,05,00,66,18,00,00,
37400790,00000013,false,Rx,0,8,1E,38,03,00,0F,B4,00,00,
37402088,00000014,false,Rx,0,4,1D,05,1E,01,00,00,00,00,
37454066,00000011,false,Rx,0,8,02,10,00,00,95,01,00,00,
37455697,00000012,false,Rx,0,8,11,07,05,00,66,18,00,00,
37457297,00000013,false,Rx,0,8,1E,38,03,00,0F,B4,00,00,
37458527,00000014,false,Rx,0,4,1D,05,1E,01,00,00,00,00,
37510553,00000011,false,Rx,0,8,06,10,00,00,95,01,00,00,
37512183,00000012,false,Rx,0,8,51,08,05,00,66,18,00,00,
37513735,00000013,false,Rx,0,8,BF,38,03,00,0F,B4,00,00,
37515078,00000014,false,Rx,0,4,1E,05,1E,01,00,00,00,00,
37567016,00000011,false,Rx,0,8,06,10,00,00,95,01,00,00,
37568638,00000012,false,Rx,0,8,51,08,05,00,66,18,00,00,
37570213,00000013,false,Rx,0,8,BF,38,03,00,0F,B4,00,00,
37571508,00000014,false,Rx,0,4,1E,05,1E,01,00,00,00,00,
37623544,00000011,false,Rx,0,8,06,10,00,00,95,01,00,00,
37625094,00000012,false,Rx,0,8,51,08,05,00,66,18,00,00,
37626684,00000013,false,Rx,0,8,BF,38,03,00,0F,B4,00,00,
37627984,00000014,false,Rx,0,4,1E,05,1E,01,00,00,00,00,
37680006,00000011,false,Rx,0,8,0A,10,00,00,95,01,00,00,
37681607,00000012,false,Rx,0,8,91,09,05,00,66,18,00,00,
37683408,00000013,false,Rx,0,8,60,39,03,00,0F,B4,00,00,
37684435,00000014,false,Rx,0,4,1F,05,1E,01,00,00,00,00,
37736447,00000011,false,Rx,0,8,06,10,00,00,95,01,00,00,
37738059,00000012,false,Rx,0,8,51,08,05,00,66,18,00,00,
37739607,00000013,false,Rx,0,8,BF,38,03,00,0F,B4,00,00,
37740914,00000014,false,Rx,0,4,1E,05,1E,01,00,00,00,00,
37792865,00000011,false,Rx,0,8,0A,10,00,00,95,01,00,00,
37794586,00000012,false,Rx,0,8,91,09,05,00,66,18,00,00,
37796061,00000013,false,Rx,0,8,60,39,03,00,0F,B4,00,00,
37797386,00000014,false,Rx,0,4,1F,05,1E,01,00,00,00,00,
37849620,00000011,false,Rx,0,8,06,10,00,00,95,01,00,00,
37850981,00000012,false,Rx,0,8,51,08,05,00,66,18,00,00,
37852512,00000013,false,Rx,0,8,BF,38,03,00,0F,B4,00,00,
37853809,00000014,false,Rx,0,4,1E,05,1E,01,00,00,00,00,
37905820,00000011,false,Rx,0,8,0A,10,00,00,95,01,00,00,
37907414,00000012,false,Rx,0,8,91,09,05,00,66,18,00,00,
37908957,00000013,false,Rx,0,8,60,39,03,00,0F,B4,00,00,
37910304,00000014,false,Rx,0,4,1F,05,1E,01,00,00,00,00,
37962287,00000011,false,Rx,0,8,0A,10,00,00,59,01,00,00,
37964134,00000012,false,Rx,0,8,91,09,05,00,CF,14,00,00,
37965461,00000013,false,Rx,0,8,60,39,03,00,6E,B3,00,00,
37966756,00000014,false,Rx,0,4,1F,05,1D,01,00,00,00,00,
38018721,00000011,false,Rx,0,8,0A,10,00,00,95,01,00,00,
38020335,00000012,false,Rx,0,8,91,09,05,00,66,18,00,00,
38021890,00000013,false,Rx,0,8,60,39,03,00,0F,B4,00,00,
38023188,00000014,false,Rx,0,4,1F,05,1E,01,00,00,00,00,
38075138,00000011,false,Rx,0,8,0E,10,00,00,95,01,00,00,
38076733,00000012,false,Rx,0,8,D1,0A,05,00,66,18,00,00,
38078481,00000013,false,Rx,0,8,01,3A,03,00,0F,B4,00,00,
38079696,00000014,false,Rx,0,4,20,05,1E,01,00,00,00,00,
38131678,00000011,false,Rx,0,8,0A,10,00,00,95,01,00,00,
38133442,00000012,false,Rx,0,8,91,09,05,00,66,18,00,00,
38134795,00000013,false,Rx,0,8,60,39,03,00,0F,B4,00,00,
38136064,00000014,false,Rx,0,4,1F,05,1E,01,00,00,00,00,
38188069,00000011,false,Rx,0,8,0E,10,00,00,95,01,00,00,
38189663,00000012,false,Rx,0,8,D1,0A,05,00,66,18,00,00,
38191290,00000013,false,Rx,0,8,01,3A,03,00,0F,B4,00,00,
38192564,00000014,false,Rx,0,4,20,05,1E,01,00,00,00,00,
38244596,00000011,false,Rx,0,8,0E,10,00,00,95,01,00,00,
38246159,00000012,false,Rx,0,8,D1,0A,05,00,66,18,00,00,
38247732,00000013,false,Rx,0,8,01,3A,03,00,0F,B4,00,00,
38249005,00000014,false,Rx,0,4,20,05,1E,01,00,00,00,00,
38301035,00000011,false,Rx,0,8,0E,10,00,00,95,01,00,00,
38302613,00000012,false,Rx,0,8,D1,0A,05,00,66,18,00,00,
38304213,00000013,false,Rx,0,8,01,3A,03,00,0F,B4,00,00,
38305483,00000014,false,Rx,0,4,20,05,1E,01,00,00,00,00,
38357501,00000011,false,Rx,0,8,0E,10,00,00,95,01,00,00,
38359063,00000012,false,Rx,0,8,D1,0A,05,00,66,18,00,00,
38360663,00000013,false,Rx,0,8,01,3A,03,00,0F,B4,00,00,
38361978,00000014,false,Rx,0,4,20,05,1E,01,00,00,00,00,
38413974,00000011,false,Rx,0,8,0E,10,00,00,95,01,00,00,
38415665,00000012,false,Rx,0,8,D1,0A,05,00,66,18,00,00,
38417151,00000013,false,Rx,0,8,01,3A,03,00,0F,B4,00,00,
38418419,00000014,false,Rx,0,4,20,05,1E,01,00,00,00,00,
38470422,00000011,false,Rx,0,8,12,10,00,00,59,01,00,00,
38472032,00000012,false,Rx,0,8,11,0C,05,00,CF,14,00,00,
38473603,00000013,false,Rx,0,8,A3,3A,03,00,6E,B3,00,00,
38474868,00000014,false,Rx,0,4,21,05,1D,01,00,00,00,00,
38526817,00000011,false,Rx,0,8,0E,10,00,00,95,01,00,00,
38528493,00000012,false,Rx,0,8,D1,0A,05,00,66,18,00,00,
38530067,00000013,false,Rx,0,8,01,3A,03,00,0F,B4,00,00,
38531578,00000014,false,Rx,0,4,20,05,1E,01,00,00,00,00,
38583318,00000011,false,Rx,0,8,12,10,00,00,59,01,00,00,
38584898,00000012,false,Rx,0,8,11,0C,05,00,CF,14,00,00,
38586453,00000013,false,Rx,0,8,A3,3A,03,00,6E,B3,00,00,
38587782,00000014,false,Rx,0,4,21,05,1D,01,00,00,00,00,
38639737,00000011,false,Rx,0,8,0E,10,00,00,95,01,00,00,
38641355,00000012,false,Rx,0,8,D1,0A,05,00,66,18,00,00,
38642931,00000013,false,Rx,0,8,01,3A,03,00,0F,B4,00,00,
38644219,00000014,false,Rx,0,4,20,05,1E,01,00,00,00,00,
38696225,00000011,false,Rx,0,8,0E,10,00,00,95,01,00,00,
38697804,00000012,false,Rx,0,8,D1,0A,05,00,66,18,00,00,
38699634,00000013,false,Rx,0,8,01,3A,03,00,0F,B4,00,00,
38700651,00000014,false,Rx,0,4,20,05,1E,01,00,00,00,00,
38752641,00000011,false,Rx,0,8,12,10,00,00,95,01,00,00,
38754228,00000012,false,Rx,0,8,11,0C,05,00,66,18,00,00,
38755835,00000013,false,Rx,0,8,A3,3A,03,00,0F,B4,00,00,
38757136,00000014,false,Rx,0,4,21,05,1E,01,00,00,00,00,
38809079,00000011,false,Rx,0,8,12,10,00,00,95,01,00,00,
38810938,00000012,false,Rx,0,8,11,0C,05,00,66,18,00,00,
38812267,00000013,false,Rx,0,8,A3,3A,03,00,0F,B4,00,00,
38813564,00000014,false,Rx,0,4,21,05,1E,01,00,00,00,00,
38865563,00000011,false,Rx,0,8,12,10,00,00,95,01,00,00,
38867148,00000012,false,Rx,0,8,11,0C,05,00,66,18,00,00,
38868665,00000013,false,Rx,0,8,A3,3A,03,00,0F,B4,00,00,
38870017,00000014,false,Rx,0,4,21,05,1E,01,00,00,00,00,
38922002,00000011,false,Rx,0,8,12,10,00,00,95,01,00,00,
38923584,00000012,false,Rx,0,8,11,0C,05,00,66,18,00,00,
38925176,00000013,false,Rx,0,8,A3,3A,03,00,0F,B4,00,00,
38926442,00000014,false,Rx,0,4,21,05,1E,01,00,00,00,00,
38978724,00000011,false,Rx,0,8,12,10,00,00,95,01,00,00,
38980316,00000012,false,Rx,0,8,11,0C,05,00,66,18,00,00,
38981897,00000013,false,Rx,0,8,A3,3A,03,00,0F,B4,00,00,
38983101,00000014,false,Rx,0,4,21,05,1E,01,00,00,00,00,
39034877,00000011,false,Rx,0,8,16,10,00,00,95,01,00,00,
39036527,00000012,false,Rx,0,8,51,0D,05,00,66,18,00,00,
39038101,00000013,false,Rx,0,8,44,3B,03,00,0F,B4,00,00,
39039383,00000014,false,Rx,0,4,22,05,1E,01,00,00,00,00,
39091369,00000011,false,Rx,0,8,12,10,00,00,95,01,00,00,
39092916,00000012,false,Rx,0,8,11,0C,05,00,66,18,00,00,
39094491,00000013,false,Rx,0,8,A3,3A,03,00,0F,B4,00,00,
39095824,00000014,false,Rx,0,4,21,05,1E,01,00,00,00,00,
39147901,00000011,false,Rx,0,8,16,10,00,00,95,01,00,00,
39149567,00000012,false,Rx,0,8,51,0D,05,00,66,18,00,00,
39150953,00000013,false,Rx,0,8,44,3B,03,00,0F,B4,00,00,
39152277,00000014,false,Rx,0,4,22,05,1E,01,00,00,00,00,
39204229,00000011,false,Rx,0,8,12,10,00,00,95,01,00,00,
39205851,00000012,false,Rx,0,8,11,0C,05,00,66,18,00,00,
39207398,00000013,false,Rx,0,8,A3,3A,03,00,0F,B4,00,00,
39208696,00000014,false,Rx,0,4,21,05,1E,01,00,00,00,00,
39260669,00000011,false,Rx,0,8,16,10,00,00,95,01,00,00,
39262322,00000012,false,Rx,0,8,51,0D,05,00,66,18,00,00,
39264115,00000013,false,Rx,0,8,44,3B,03,00,0F,B4,00,00,
39265325,00000014,false,Rx,0,4,22,05,1E,01,00,00,00,00,
39317216,00000011,false,Rx,0,8,16,10,00,00,95,01,00,00,
39318741,00000012,false,Rx,0,8,51,0D,05,00,66,18,00,00,
39320317,00000013,false,Rx,0,8,44,3B,03,00,0F,B4,00,00,
39321615,00000014,false,Rx,0,4,22,05,1E,01,00,00,00,00,
39373619,00000011,false,Rx,0,8,0E,10,00,00,95,01,00,00,
39375422,00000012,false,Rx,0,8,D1,0A,05,00,66,18,00,00,
39376868,00000013,false,Rx,0,8,01,3A,03,00,0F,B4,00,00,
39378141,00000014,false,Rx,0,4,20,05,1E,01,00,00,00,00,
39430151,00000011,false,Rx,0,8,16,10,00,00,95,01,00,00,
39431992,00000012,false,Rx,0,8,51,0D,05,00,66,18,00,00,
39433325,00000013,false,Rx,0,8,44,3B,03,00,0F,B4,00,00,
39434569,00000014,false,Rx,0,4,22,05,1E,01,00,00,00,00,
39486623,00000011,false,Rx,0,8,12,10,00,00,95,01,00,00,
39488193,00000012,false,Rx,0,8,11,0C,05,00,66,18,00,00,
39489794,00000013,false,Rx,0,8,A3,3A,03,00,0F,B4,00,00,
39491067,00000014,false,Rx,0,4,21,05,1E,01,00,00,00,00,
39543137,00000011,false,Rx,0,8,16,10,00,00,59,01,00,00,
39544694,00000012,false,Rx,0,8,51,0D,05,00,CF,14,00,00,
39546247,00000013,false,Rx,0,8,44,3B,03,00,6E,B3,00,00,
39547553,00000014,false,Rx,0,4,22,05,1D,01,00,00,00,00,
39599623,00000011,false,Rx,0,8,16,10,00,00,95,01,00,00,
39601145,00000012,false,Rx,0,8,51,0D,05,00,66,18,00,00,
39602721,00000013,false,Rx,0,8,44,3B,03,00,0F,B4,00,00,
39603994,00000014,false,Rx,0,4,22,05,1E,01,00,00,00,00,
39656001,00000011,false,Rx,0,8,16,10,00,00,95,01,00,00,
39657617,00000012,false,Rx,0,8,51,0D,05,00,66,18,00,00,
39659250,00000013,false,Rx,0,8,44,3B,03,00,0F,B4,00,00,
39660523,00000014,false,Rx,0,4,22,05,1E,01,00,00,00,00,
39712503,00000011,false,Rx,0,8,16,10,00,00,59,01,00,00,
39714095,00000012,false,Rx,0,8,51,0D,05,00,CF,14,00,00,
39715688,00000013,false,Rx,0,8,44,3B,03,00,6E,B3,00,00,
39716977,00000014,false,Rx,0,4,22,05,1D,01,00,00,00,00,
39768872,00000011,false,Rx,0,8,16,10,00,00,95,01,00,00,
39770496,00000012,false,Rx,0,8,51,0D,05,00,66,18,00,00,
39772069,00000013,false,Rx,0,8,44,3B,03,00,0F,B4,00,00,
39773367,00000014,false,Rx,0,4,22,05,1E,01,00,00,00,00,
39825557,00000011,false,Rx,0,8,16,10,00,00,95,01,00,00,
39827144,00000012,false,Rx,0,8,51,0D,05,00,66,18,00,00,
39828571,00000013,false,Rx,0,8,44,3B,03,00,0F,B4,00,00,
39829870,00000014,false,Rx,0,4,22,05,1E,01,00,00,00,00,
39882080,00000011,false,Rx,0,8,16,10,00,00,95,01,00,00,
39883455,00000012,false,Rx,0,8,51,0D,05,00,66,18,00,00,
39884997,00000013,false,Rx,0,8,44,3B,03,00,0F,B4,00,00,
39886307,00000014,false,Rx,0,4,22,05,1E,01,00,00,00,00,
39938278,00000011,false,Rx,0,8,16,10,00,00,0D,02,00,00,
39939895,00000012,false,Rx,0,8,51,0D,05,00,95,1F,00,00,
39941677,00000013,false,Rx,0,8,44,3B,03,00,51,B5,00,00,
39942977,00000014,false,Rx,0,4,22,05,20,01,00,00,00,00,
39995010,00000011,false,Rx,0,8,1A,10,00,00,59,01,00,00,
39996400,00000012,false,Rx,0,8,91,0E,05,00,CF,14,00,00,
39997975,00000013,false,Rx,0,8,E5,3B,03,00,6E,B3,00,00,
39999481,00000014,false,Rx,0,4,23,05,1D,01,00,00,00,00,
40051203,00000011,false,Rx,0,8,16,10,00,00,95,01,00,00,
40052799,00000012,false,Rx,0,8,51,0D,05,00,66,18,00,00,
40054397,00000013,false,Rx,0,8,44,3B,03,00,0F,B4,00,00,
40055669,00000014,false,Rx,0,4,22,05,1E,01,00,00,00,00,
40107687,00000011,false,Rx,0,8,1A,10,00,00,95,01,00,00,
40109299,00000012,false,Rx,0,8,91,0E,05,00,66,18,00,00,
40110901,00000013,false,Rx,0,8,E5,3B,03,00,0F,B4,00,00,
40112179,00000014,false,Rx,0,4,23,05,1E,01,00,00,00,00,
40164204,00000011,false,Rx,0,8,1A,10,00,00,95,01,00,00,
40165804,00000012,false,Rx,0,8,91,0E,05,00,66,18,00,00,
40167336,00000013,false,Rx,0,8,E5,3B,03,00,0F,B4,00,00,
40168625,00000014,false,Rx,0,4,23,05,1E,01,00,00,00,00,
40220628,00000011,false,Rx,0,8,1A,10,00,00,95,01,00,00,
40222224,00000012,false,Rx,0,8,91,0E,05,00,66,18,00,00,
40223795,00000013,false,Rx,0,8,E5,3B,03,00,0F,B4,00,00,
40225099,00000014,false,Rx,0,4,23,05,1E,01,00,00,00,00,
40277205,00000011,false,Rx,0,8,1A,10,00,00,59,01,00,00,
40278800,00000012,false,Rx,0,8,91,0E,05,00,CF,14,00,00,
40280298,00000013,false,Rx,0,8,E5,3B,03,00,6E,B3,00,00,
40281599,00000014,false,Rx,0,4,23,05,1D,01,00,00,00,00,
40333534,00000011,false,Rx,0,8,1A,10,00,00,95,01,00,00,
40335126,00000012,false,Rx,0,8,91,0E,05,00,66,18,00,00,
40336700,00000013,false,Rx,0,8,E5,3B,03,00,0F,B4,00,00,
40337998,00000014,false,Rx,0,4,23,05,1E,01,00,00,00,00,
40389976,00000011,false,Rx,0,8,1A,10,00,00,95,01,00,00,
40391652,00000012,false,Rx,0,8,91,0E,05,00,66,18,00,00,
40393219,00000013,false,Rx,0,8,E5,3B,03,00,0F,B4,00,00,
40394492,00000014,false,Rx,0,4,23,05,1E,01,00,00,00,00,
40446604,00000011,false,Rx,0,8,1A,10,00,00,59,01,00,00,
40448081,00000012,false,Rx,0,8,91,0E,05,00,CF,14,00,00,
40449651,00000013,false,Rx,0,8,E5,3B,03,00,6E,B3,00,00,
40450926,00000014,false,Rx,0,4,23,05,1D,01,00,00,00,00,
40502905,00000011,false,Rx,0,8,1A,10,00,00,59,01,00,00,
40504524,00000012,false,Rx,0,8,91,0E,05,00,CF,14,00,00,
40506082,00000013,false,Rx,0,8,E5,3B,03,00,6E,B3,00,00,
40507373,00000014,false,Rx,0,4,23,05,1D,01,00,00,00,00,
40559528,00000011,false,Rx,0,8,1A,10,00,00,95,01,00,00,
40561025,00000012,false,Rx,0,8,91,0E,05,00,66,18,00,00,
40562822,00000013,false,Rx,0,8,E5,3B,03,00,0F,B4,00,00,
40564124,00000014,false,Rx,0,4,23,05,1E,01,00,00,00,00,
40615886,00000011,false,Rx,0,8,1A,10,00,00,95,01,00,00,
40617427,00000012,false,Rx,0,8,91,0E,05,00,66,18,00,00,
40619005,00000013,false,Rx,0,8,E5,3B,03,00,0F,B4,00,00,
40620301,00000014,false,Rx,0,4,23,05,1E,01,00,00,00,00,
40672306,00000011,false,Rx,0,8,16,10,00,00,59,01,00,00,
40673931,00000012,false,Rx,0,8,51,0D,05,00,CF,14,00,00,
40675623,00000013,false,Rx,0,8,44,3B,03,00,6E,B3,00,00,
40676802,00000014,false,Rx,0,4,22,05,1D,01,00,00,00,00,
40728808,00000011,false,Rx,0,8,B5,0A,00,00,43,1E,00,00,
40730470,00000012,false,Rx,0,8,E0,5C,03,00,16,D2,01,00,
40732198,00000013,false,Rx,0,8,6E,61,02,00,7F,01,01,00,
40733283,00000014,false,Rx,0,4,C8,03,99,01,00,00,00,00,
40785259,00000011,false,Rx,0,8,08,0E,00,00,DE,49,00,00,
40786861,00000012,false,Rx,0,8,57,68,04,00,97,71,04,00,
40788443,00000013,false,Rx,0,8,29,E8,02,00,3A,77,01,00,
40789743,00000014,false,Rx,0,4,9E,04,54,02,00,00,00,00,
40841725,00000011,false,Rx,0,8,2D,10,00,00,06,59,00,00,
40843487,00000012,false,Rx,0,8,D1,14,05,00,00,5B,05,00,
40845036,00000013,false,Rx,0,8,0B,3F,03,00,26,A0,01,00,
40846319,00000014,false,Rx,0,4,28,05,95,02,00,00,00,00,
40898330,00000011,false,Rx,0,8,39,10,00,00,DC,57,00,00,
40899914,00000012,false,Rx,0,8,91,18,05,00,0B,49,05,00,
40901512,00000013,false,Rx,0,8,EE,40,03,00,00,9D,01,00,
40902786,00000014,false,Rx,0,4,2B,05,90,02,00,00,00,00,
40954805,00000011,false,Rx,0,8,25,10,00,00,A0,57,00,00,
40956392,00000012,false,Rx,0,8,51,12,05,00,74,45,05,00,
40957969,00000013,false,Rx,0,8,C8,3D,03,00,5F,9C,01,00,
40959269,00000014,false,Rx,0,4,26,05,8F,02,00,00,00,00,
41011344,00000011,false,Rx,0,8,16,10,00,00,64,57,00,00,
41012881,00000012,false,Rx,0,8,51,0D,05,00,DD,41,05,00,
41014671,00000013,false,Rx,0,8,44,3B,03,00,BE,9B,01,00,
41015749,00000014,false,Rx,0,4,22,05,8E,02,00,00,00,00,
41067726,00000011,false,Rx,0,8,0A,10,00,00,4B,55,00,00,
41069284,00000012,false,Rx,0,8,91,09,05,00,8B,21,05,00,
41070897,00000013,false,Rx,0,8,60,39,03,00,14,96,01,00,
41072196,00000014,false,Rx,0,4,1F,05,85,02,00,00,00,00,
41124160,00000011,false,Rx,0,8,FE,0F,00,00,ED,56,00,00,
41125815,00000012,false,Rx,0,8,D1,05,05,00,AE,3A,05,00,
41127372,00000013,false,Rx,0,8,7D,37,03,00,7C,9A,01,00,
41128661,00000014,false,Rx,0,4,1C,05,8C,02,00,00,00,00,
41180746,00000011,false,Rx,0,8,FE,0F,00,00,B1,56,00,00,
41182424,00000012,false,Rx,0,8,D1,05,05,00,17,37,05,00,
41183872,00000013,false,Rx,0,8,7D,37,03,00,DB,99,01,00,
41185120,00000014,false,Rx,0,4,1C,05,8B,02,00,00,00,00,
41237146,00000011,false,Rx,0,8,FA,0F,00,00,76,56,00,00,
41238750,00000012,false,Rx,0,8,91,04,05,00,80,33,05,00,
41240279,00000013,false,Rx,0,8,DC,36,03,00,39,99,01,00,
41241579,00000014,false,Rx,0,4,1B,05,8A,02,00,00,00,00,
41293798,00000011,false,Rx,0,8,F6,0F,00,00,76,56,00,00,
41295455,00000012,false,Rx,0,8,51,03,05,00,80,33,05,00,
41296809,00000013,false,Rx,0,8,3A,36,03,00,39,99,01,00,
41298113,00000014,false,Rx,0,4,1A,05,8A,02,00,00,00,00,
41350074,00000011,false,Rx,0,8,F2,0F,00,00,3A,56,00,00,
41351665,00000012,false,Rx,0,8,11,02,05,00,E8,2F,05,00,
41353289,00000013,false,Rx,0,8,99,35,03,00,98,98,01,00,
41354575,00000014,false,Rx,0,4,19,05,89,02,00,00,00,00,
41406534,00000011,false,Rx,0,8,F2,0F,00,00,FE,55,00,00,
41408298,00000012,false,Rx,0,8,11,02,05,00,51,2C,05,00,
41409987,00000013,false,Rx,0,8,99,35,03,00,F7,97,01,00,
41411309,00000014,false,Rx,0,4,19,05,88,02,00,00,00,00,
41463176,00000011,false,Rx,0,8,EE,0F,00,00,3A,56,00,00,
41464687,00000012,false,Rx,0,8,D1,00,05,00,E8,2F,05,00,
41466238,00000013,false,Rx,0,8,F8,34,03,00,98,98,01,00,
41467506,00000014,false,Rx,0,4,18,05,89,02,00,00,00,00,
41519516,00000011,false,Rx,0,8,F2,0F,00,00,FE,55,00,00,
41521135,00000012,false,Rx,0,8,11,02,05,00,51,2C,05,00,
41522656,00000013,false,Rx,0,8,99,35,03,00,F7,97,01,00,
41523978,00000014,false,Rx,0,4,19,05,88,02,00,00,00,00,
41576023,00000011,false,Rx,0,8,F2,0F,00,00,FE,55,00,00,
41577636,00000012,false,Rx,0,8,11,02,05,00,51,2C,05,00,
41579412,00000013,false,Rx,0,8,99,35,03,00,F7,97,01,00,
41580715,00000014,false,Rx,0,4,19,05,88,02,00,00,00,00,
41632447,00000011,false,Rx,0,8,F2,0F,00,00,C2,55,00,00,
41634041,00000012,false,Rx,0,8,11,02,05,00,BA,28,05,00,
41635635,00000013,false,Rx,0,8,99,35,03,00,56,97,01,00,
41636916,00000014,false,Rx,0,4,19,05,87,02,00,00,00,00,
41688896,00000011,false,Rx,0,8,F2,0F,00,00,C2,55,00,00,
41690482,00000012,false,Rx,0,8,11,02,05,00,BA,28,05,00,
41692031,00000013,false,Rx,0,8,99,35,03,00,56,97,01,00,
41693614,00000014,false,Rx,0,4,19,05,87,02,00,00,00,00,
41745391,00000011,false,Rx,0,8,F2,0F,00,00,C2,55,00,00,
41747143,00000012,false,Rx,0,8,11,02,05,00,BA,28,05,00,
41748657,00000013,false,Rx,0,8,99,35,03,00,56,97,01,00,
41749815,00000014,false,Rx,0,4,19,05,87,02,00,00,00,00,
41801813,00000011,false,Rx,0,8,EE,0F,00,00,87,55,00,00,
41803440,00000012,false,Rx,0,8,D1,00,05,00,23,25,05,00,
41805013,00000013,false,Rx,0,8,F8,34,03,00,B5,96,01,00,
41806318,00000014,false,Rx,0,4,18,05,86,02,00,00,00,00,
41858318,00000011,false,Rx,0,8,EE,0F,00,00,C2,55,00,00,
41859935,00000012,false,Rx,0,8,D1,00,05,00,BA,28,05,00,
41861510,00000013,false,Rx,0,8,F8,34,03,00,56,97,01,00,
41862757,00000014,false,Rx,0,4,18,05,87,02,00,00,00,00,
41914965,00000011,false,Rx,0,8,EE,0F,00,00,87,55,00,00,
41916405,00000012,false,Rx,0,8,D1,00,05,00,23,25,05,00,
41917961,00000013,false,Rx,0,8,F8,34,03,00,B5,96,01,00,
41919258,00000014,false,Rx,0,4,18,05,86,02,00,00,00,00,
41971242,00000011,false,Rx,0,8,EE,0F,00,00,4B,55,00,00,
41972832,00000012,false,Rx,0,8,D1,00,05,00,8B,21,05,00,
41974489,00000013,false,Rx,0,8,F8,34,03,00,14,96,01,00,
41975738,00000014,false,Rx,0,4,18,05,85,02,00,00,00,00,
